Time Stamp,ID,Extended,Dir,Bus,LEN,D1,D2,D3,D4,D5,D6,D7,D8
1445285,000001DA,false,Rx,1,8,BA,32,58,00,00,01,02,45,
1445455,00000120,false,Rx,1,4,00,00,0A,3C,00,00,00,00,
1450735,000001DB,false,Rx,1,8,FF,A0,BB,8A,29,00,00,88,
1450962,000001DC,false,Rx,1,8,6E,04,A4,A1,EC,DC,C8,10,
1452317,0000011A,false,Rx,1,8,4E,40,00,55,00,00,01,7D,
1452548,000001D4,false,Rx,1,8,F7,07,00,00,47,44,30,B7,
1452792,000001F2,false,Rx,1,8,30,64,20,AC,00,3C,01,8F,
1453013,0000050B,false,Rx,1,7,00,00,06,C0,00,00,00,00,
1455288,000001DA,false,Rx,1,8,BA,72,58,00,00,01,03,62,
1455458,00000120,false,Rx,1,4,00,00,0B,B9,00,00,00,00,
1460738,000001DB,false,Rx,1,8,FF,A0,BB,8B,29,00,01,1B,
1460965,000001DC,false,Rx,1,8,6E,04,A4,A1,E1,0C,E1,55,
1462320,0000011A,false,Rx,1,8,4E,40,00,55,40,00,02,B0,
1462551,000001D4,false,Rx,1,8,F7,07,00,00,87,44,30,7B,
1462795,000001F2,false,Rx,1,8,30,64,20,AC,00,3C,02,8F,
1463016,0000050B,false,Rx,1,7,00,00,06,C0,00,00,00,00,
1465292,000001DA,false,Rx,1,8,BA,72,58,00,00,01,00,68,
1465461,00000120,false,Rx,1,4,00,00,0C,28,00,00,00,00,
1470730,000001DB,false,Rx,1,8,FF,A0,BB,8B,29,00,02,11,
1470957,000001DC,false,Rx,1,8,6E,04,A4,A1,E5,04,C6,42,
1472312,0000011A,false,Rx,1,8,4E,40,00,AA,80,00,03,A6,
1472543,000001D4,false,Rx,1,8,F7,07,00,00,C7,44,30,BC,
1472787,000001F2,false,Rx,1,8,30,64,20,AC,00,3C,03,8F,
1473008,0000050B,false,Rx,1,7,00,00,06,C0,00,00,00,00,
1475284,000001DA,false,Rx,1,8,BA,32,58,00,00,01,01,4F,
1475454,00000120,false,Rx,1,4,00,00,0D,AD,00,00,00,00,
1481069,000001DB,false,Rx,1,8,FF,A0,BB,8B,29,00,03,94,
1481299,000001DC,false,Rx,1,8,6E,04,A4,A1,E8,C0,C3,F9,
1481530,0000055B,false,Rx,1,8,73,40,AA,00,DE,80,13,53,
1481762,000005BC,false,Rx,1,8,14,C0,64,50,90,00,A0,B4,
1482307,0000011A,false,Rx,1,8,4E,40,00,AA,C0,00,00,6B,
1482549,000001D4,false,Rx,1,8,F7,07,00,00,07,44,30,70,
1482792,000001F2,false,Rx,1,8,30,64,20,AC,00,3C,00,8F,
1483013,0000050B,false,Rx,1,7,00,00,06,C0,00,00,00,00,
1485291,000001DA,false,Rx,1,8,BA,32,58,00,00,01,02,45,
1485457,00000120,false,Rx,1,4,00,00,0E,A7,00,00,00,00,
1490727,000001DB,false,Rx,1,8,FF,A0,BB,8B,29,00,00,9E,
1490955,000001DC,false,Rx,1,8,6E,04,A4,A1,EC,DC,C8,10,
1492320,0000011A,false,Rx,1,8,4E,40,00,55,00,00,01,7D,
1492551,000001D4,false,Rx,1,8,F7,07,00,00,47,44,30,B7,
1492784,000001F2,false,Rx,1,8,30,64,20,AC,00,3C,01,8F,
1493016,0000050B,false,Rx,1,7,00,00,06,C0,00,00,00,00,
1494484,000002B5,false,Rx,1,8,80,00,32,00,00,00,00,B2,
1494716,000002B6,false,Rx,1,8,82,00,89,02,18,00,8A,9B,
1495283,000001DA,false,Rx,1,8,BA,72,58,00,00,01,03,62,
1495453,00000120,false,Rx,1,4,00,00,0F,22,00,00,00,00,
1495683,0000055A,false,Rx,1,8,1F,34,36,34,55,00,5B,48,
1500727,000001DB,false,Rx,1,8,FF,A0,BB,8B,29,00,01,1B,
1500955,000001DC,false,Rx,1,8,6E,04,A4,A1,E1,0C,E1,55,
1502319,0000011A,false,Rx,1,8,4E,40,00,55,40,00,02,B0,
1502551,000001D4,false,Rx,1,8,F7,07,00,00,87,44,30,7B,
1502795,000001F2,false,Rx,1,8,30,64,20,AC,00,3C,02,8F,
1503016,0000050B,false,Rx,1,7,00,00,06,C0,00,00,00,00,
1505281,000001DA,false,Rx,1,8,BA,72,58,00,00,01,00,68,
1505461,00000120,false,Rx,1,4,00,00,00,00,00,00,00,00,
1506853,0000055B,false,Rx,1,8,A4,40,AA,00,DF,C0,12,1A,
1507095,0000059E,false,Rx,1,8,00,00,0C,76,18,00,00,00,
1507339,000005BC,false,Rx,1,8,3D,80,F0,64,B0,01,00,32,
1510715,000001DB,false,Rx,1,8,FF,A0,BB,8B,29,00,02,11,
1510953,000001DC,false,Rx,1,8,6E,04,A4,A1,E5,04,C6,42,
1512308,0000011A,false,Rx,1,8,4E,40,00,AA,80,00,03,A6,
1512539,000001D4,false,Rx,1,8,F7,07,00,00,C7,44,30,BC,
1512772,000001F2,false,Rx,1,8,30,64,20,AC,00,3C,03,8F,
1513006,0000050B,false,Rx,1,7,00,00,06,C0,00,00,00,00,
1515280,000001DA,false,Rx,1,8,BA,32,58,00,00,01,01,4F,
1515460,00000120,false,Rx,1,4,00,00,01,85,00,00,00,00,
1520717,000001DB,false,Rx,1,8,FF,A0,BB,8B,29,00,03,94,
1520955,000001DC,false,Rx,1,8,6E,04,A4,A1,E8,C0,C3,F9,
1521967,00000390,false,Rx,1,8,24,00,01,02,00,00,00,05,
1522313,0000011A,false,Rx,1,8,4E,40,00,AA,C0,00,00,6B,
1522545,000001D4,false,Rx,1,8,F7,07,00,00,07,44,30,70,
1522791,000001F2,false,Rx,1,8,30,64,20,AC,00,3C,00,8F,
1523012,0000050B,false,Rx,1,7,00,00,06,C0,00,00,00,00,
1525288,000001DA,false,Rx,1,8,BA,32,58,00,00,01,02,45,
1525457,00000120,false,Rx,1,4,00,00,02,8F,00,00,00,00,
1526962,00000393,false,Rx,1,8,26,51,00,00,00,00,00,0D,
1530719,000001DB,false,Rx,1,8,FF,A0,BB,8B,29,00,00,9E,
1530947,000001DC,false,Rx,1,8,6E,04,A4,A1,EC,DC,C8,10,
1532311,0000011A,false,Rx,1,8,4E,40,00,55,00,00,01,7D,
1532543,000001D4,false,Rx,1,8,F7,07,00,00,47,44,30,B7,
1532786,000001F2,false,Rx,1,8,30,64,20,AC,00,3C,01,8F,
1533010,0000050B,false,Rx,1,7,00,00,06,C0,00,00,00,00,
1535285,000001DA,false,Rx,1,8,BA,72,58,00,00,01,03,62,
1535454,00000120,false,Rx,1,4,00,00,03,0A,00,00,00,00,
1540723,000001DB,false,Rx,1,8,FF,A0,BB,8B,29,00,01,1B,
1540950,000001DC,false,Rx,1,8,6E,04,A4,A1,E1,0C,E1,55,
1542316,0000011A,false,Rx,1,8,4E,40,00,55,40,00,02,B0,
1542558,000001D4,false,Rx,1,8,F7,07,00,00,87,44,30,7B,
1542791,000001F2,false,Rx,1,8,30,64,20,AC,00,3C,02,8F,
1543022,0000050B,false,Rx,1,7,00,00,06,C0,00,00,00,00,
1545288,000001DA,false,Rx,1,8,BA,72,58,00,00,01,00,68,
1545457,00000120,false,Rx,1,4,00,00,04,9B,00,00,00,00,
1550717,000001DB,false,Rx,1,8,FF,A0,BB,8B,29,00,02,11,
1550945,000001DC,false,Rx,1,8,6E,04,A4,A1,E5,04,C6,42,
1552309,0000011A,false,Rx,1,8,4E,40,00,AA,80,00,03,A6,
1552541,000001D4,false,Rx,1,8,F7,07,00,00,C7,44,30,BC,
1552774,000001F2,false,Rx,1,8,30,64,20,AC,00,3C,03,8F,
1553006,0000050B,false,Rx,1,7,00,00,06,C0,00,00,00,00,
1555281,000001DA,false,Rx,1,8,BA,32,58,00,00,01,01,4F,
1555451,00000120,false,Rx,1,4,00,00,05,1E,00,00,00,00,
1560720,000001DB,false,Rx,1,8,FF,A0,BB,8B,29,00,03,94,
1560947,000001DC,false,Rx,1,8,6E,04,A4,A1,E8,C0,C3,F9,
1562312,0000011A,false,Rx,1,8,4E,40,00,AA,C0,00,00,6B,
1562543,000001D4,false,Rx,1,8,F7,07,00,00,07,44,30,70,
1562787,000001F2,false,Rx,1,8,30,64,20,AC,00,3C,00,8F,
1563008,0000050B,false,Rx,1,7,00,00,06,C0,00,00,00,00,
1565295,000001DA,false,Rx,1,8,BA,32,58,00,00,01,02,45,
1565465,00000120,false,Rx,1,4,00,00,06,14,00,00,00,00,
1570712,000001DB,false,Rx,1,8,FF,A0,BB,8B,29,00,00,9E,
1570940,000001DC,false,Rx,1,8,6E,04,A4,A1,EC,DC,C8,10,
1572316,0000011A,false,Rx,1,8,4E,40,00,55,00,00,01,7D,
1572547,000001D4,false,Rx,1,8,F7,07,00,00,47,44,30,B7,
1572781,000001F2,false,Rx,1,8,30,64,20,AC,00,3C,01,8F,
1573012,0000050B,false,Rx,1,7,00,00,06,C0,00,00,00,00,
1575288,000001DA,false,Rx,1,8,BA,72,58,00,00,01,03,62,
1575447,00000120,false,Rx,1,4,00,00,07,91,00,00,00,00,
1581063,000001DB,false,Rx,1,8,FF,A0,BB,8B,29,00,01,1B,
1581292,000001DC,false,Rx,1,8,6E,04,A4,A1,E1,0C,E1,55,
1581523,0000055B,false,Rx,1,8,73,40,AA,00,DE,80,10,59,
1581755,000005BC,false,Rx,1,8,14,C0,64,50,90,01,00,F0,
1582311,0000011A,false,Rx,1,8,4E,40,00,55,40,00,02,B0,
1582553,000001D4,false,Rx,1,8,F7,07,00,00,87,44,30,7B,
1582786,000001F2,false,Rx,1,8,30,64,20,AC,00,3C,02,8F,
1583017,0000050B,false,Rx,1,7,00,00,06,C0,00,00,00,00,
1585296,000001DA,false,Rx,1,8,BA,72,58,00,00,01,00,68,
1585461,00000120,false,Rx,1,4,00,00,08,B3,00,00,00,00,
1590720,000001DB,false,Rx,1,8,FF,C0,BB,8B,29,00,02,E2,
1590948,000001DC,false,Rx,1,8,6E,04,A4,A1,E5,04,C6,42,
1592313,0000011A,false,Rx,1,8,4E,40,00,AA,80,00,03,A6,
1592544,000001D4,false,Rx,1,8,F7,07,00,00,C7,44,30,BC,
1592777,000001F2,false,Rx,1,8,30,64,20,AC,00,3C,03,8F,
1592999,0000050B,false,Rx,1,7,00,00,06,C0,00,00,00,00,
1594466,000002B5,false,Rx,1,8,90,00,32,00,00,00,00,A2,
1594698,000002B6,false,Rx,1,8,92,00,89,02,18,00,8A,8B,
1595297,000001DA,false,Rx,1,8,BA,32,58,00,00,01,01,4F,
1595466,00000120,false,Rx,1,4,00,00,09,36,00,00,00,00,
1595688,0000055A,false,Rx,1,8,14,34,36,34,55,00,5B,48,
1600710,000001DB,false,Rx,1,8,FF,C0,BB,8B,29,00,03,67,
1600937,000001DC,false,Rx,1,8,6E,04,A4,A1,E8,C0,C3,F9,
1602302,0000011A,false,Rx,1,8,4E,40,00,AA,C0,00,00,6B,
1602545,000001D4,false,Rx,1,8,F7,07,00,00,07,44,30,70,
1602788,000001F2,false,Rx,1,8,30,64,20,AC,00,3C,00,8F,
1603009,0000050B,false,Rx,1,7,00,00,06,C0,00,00,00,00,
1605284,000001DA,false,Rx,1,8,BA,32,58,00,00,01,02,45,
1605454,00000120,false,Rx,1,4,00,00,0A,3C,00,00,00,00,
1606855,0000055B,false,Rx,1,8,A4,40,AA,00,DF,C0,13,9F,
1607097,0000059E,false,Rx,1,8,00,00,0C,76,18,00,00,00,
1607342,000005BC,false,Rx,1,8,3D,80,F0,64,B0,01,00,32,
1610708,000001DB,false,Rx,1,8,FF,C0,BB,8B,29,00,00,6D,
1610946,000001DC,false,Rx,1,8,6E,04,A4,A1,EC,DC,C8,10,
1612311,0000011A,false,Rx,1,8,4E,40,00,55,00,00,01,7D,
1612544,000001D4,false,Rx,1,8,F7,07,00,00,47,44,30,B7,
1612786,000001F2,false,Rx,1,8,30,64,20,AC,00,3C,01,8F,
1613009,0000050B,false,Rx,1,7,00,00,06,C0,00,00,00,00,
1615283,000001DA,false,Rx,1,8,BA,72,58,00,00,01,03,62,
1615452,00000120,false,Rx,1,4,00,00,0B,B9,00,00,00,00,
1620709,000001DB,false,Rx,1,8,FF,C0,BB,8B,29,00,01,E8,
1620937,000001DC,false,Rx,1,8,6E,04,A4,A1,E1,0C,E1,55,
1622062,00000390,false,Rx,1,8,24,00,01,02,00,00,00,16,
1622316,0000011A,false,Rx,1,8,4E,40,00,55,40,00,02,B0,
1622549,000001D4,false,Rx,1,8,F7,07,00,00,87,44,30,7B,
1622793,000001F2,false,Rx,1,8,30,64,20,AC,00,3C,02,8F,
1623015,0000050B,false,Rx,1,7,00,00,06,C0,00,00,00,00,
1625280,000001DA,false,Rx,1,8,BA,72,58,00,00,01,00,68,
1625449,00000120,false,Rx,1,4,00,00,0C,28,00,00,00,00,
1627068,00000393,false,Rx,1,8,00,51,00,00,00,00,00,16,
1630712,000001DB,false,Rx,1,8,FF,C0,BB,8B,29,00,02,E2,
1630939,000001DC,false,Rx,1,8,6E,04,A4,A1,E5,04,C6,42,
1632304,0000011A,false,Rx,1,8,4E,40,00,AA,80,00,03,A6,
1632537,000001D4,false,Rx,1,8,F7,07,00,00,C7,44,30,BC,
1632779,000001F2,false,Rx,1,8,30,64,20,AC,00,3C,03,8F,
1633002,0000050B,false,Rx,1,7,00,00,06,C0,00,00,00,00,
1635287,000001DA,false,Rx,1,8,BA,32,58,00,00,01,01,4F,
1635446,00000120,false,Rx,1,4,00,00,0D,AD,00,00,00,00,
1640703,000001DB,false,Rx,1,8,FF,C0,BB,8B,29,00,03,67,
1640931,000001DC,false,Rx,1,8,6E,04,A4,A1,E8,C0,C3,F9,
1642305,0000011A,false,Rx,1,8,4E,40,00,AA,C0,00,00,6B,
1642549,000001D4,false,Rx,1,8,F7,07,00,00,07,44,30,70,
1642781,000001F2,false,Rx,1,8,30,64,20,AC,00,3C,00,8F,
1643012,0000050B,false,Rx,1,7,00,00,06,C0,00,00,00,00,
1645277,000001DA,false,Rx,1,8,BA,32,58,00,00,01,02,45,
1645447,00000120,false,Rx,1,4,00,00,0E,A7,00,00,00,00,
1650705,000001DB,false,Rx,1,8,FF,C0,BB,8B,29,00,00,6D,
1650934,000001DC,false,Rx,1,8,6E,04,A4,A1,EC,DC,C8,10,
1652308,0000011A,false,Rx,1,8,4E,40,00,55,00,00,01,7D,
1652540,000001D4,false,Rx,1,8,F7,07,00,00,47,44,30,B7,
1652783,000001F2,false,Rx,1,8,30,64,20,AC,00,3C,01,8F,
1653004,0000050B,false,Rx,1,7,00,00,06,C0,00,00,00,00,
1655279,000001DA,false,Rx,1,8,BA,72,58,00,00,01,03,62,
1655459,00000120,false,Rx,1,4,00,00,0F,22,00,00,00,00,
1660708,000001DB,false,Rx,1,8,FF,C0,BB,8B,29,00,01,E8,
1660936,000001DC,false,Rx,1,8,6E,04,A4,A1,E1,0C,E1,55,
1662311,0000011A,false,Rx,1,8,4E,40,00,55,40,00,02,B0,
1662554,000001D4,false,Rx,1,8,F7,07,00,00,87,44,30,7B,
1662786,000001F2,false,Rx,1,8,30,64,20,AC,00,3C,02,8F,
1663018,0000050B,false,Rx,1,7,00,00,06,C0,00,00,00,00,
1665293,000001DA,false,Rx,1,8,BA,72,58,00,00,01,00,68,
1665473,00000120,false,Rx,1,4,00,00,00,00,00,00,00,00,
1670700,000001DB,false,Rx,1,8,FF,C0,BB,8B,29,00,02,E2,
1670929,000001DC,false,Rx,1,8,6E,04,A4,A1,E5,04,C6,42,
1672302,0000011A,false,Rx,1,8,4E,40,00,AA,80,00,03,A6,
1672535,000001D4,false,Rx,1,8,F7,07,00,00,C7,44,30,BC,
1672778,000001F2,false,Rx,1,8,30,64,20,AC,00,3C,03,8F,
1672999,0000050B,false,Rx,1,7,00,00,06,C0,00,00,00,00,
1675285,000001DA,false,Rx,1,8,BA,32,58,00,00,01,01,4F,
1675454,00000120,false,Rx,1,4,00,00,01,85,00,00,00,00,
1681039,000001DB,false,Rx,1,8,FF,C0,BB,8B,29,00,03,67,
1681268,000001DC,false,Rx,1,8,6E,04,A4,A1,E8,C0,C3,F9,
1681501,0000055B,false,Rx,1,8,73,40,AA,00,DE,80,11,DC,
1681733,000005BC,false,Rx,1,8,14,C0,64,50,90,01,62,76,
1682308,0000011A,false,Rx,1,8,4E,40,00,AA,C0,00,00,6B,
1682541,000001D4,false,Rx,1,8,F7,07,00,00,07,44,30,70,
1682783,000001F2,false,Rx,1,8,30,64,20,AC,00,3C,00,8F,
1683015,0000050B,false,Rx,1,7,00,00,06,C0,00,00,00,00,
1685283,000001DA,false,Rx,1,8,BA,32,58,00,00,01,02,45,
1685459,00000120,false,Rx,1,4,00,00,02,8F,00,00,00,00,
1690697,000001DB,false,Rx,1,8,FF,A0,BB,8B,29,00,00,9E,
1690926,000001DC,false,Rx,1,8,6E,04,A4,A1,EC,DC,C8,10,
1692311,0000011A,false,Rx,1,8,4E,40,00,55,00,00,01,7D,
1692544,000001D4,false,Rx,1,8,F7,07,00,00,47,44,30,B7,
1692786,000001F2,false,Rx,1,8,30,64,20,AC,00,3C,01,8F,
1693007,0000050B,false,Rx,1,7,00,00,06,C0,00,00,00,00,
1694465,000002B5,false,Rx,1,8,A0,00,32,00,00,00,00,92,
1694696,000002B6,false,Rx,1,8,A2,00,89,02,18,00,8A,BB,
1695285,000001DA,false,Rx,1,8,BA,72,58,00,00,01,03,62,
1695454,00000120,false,Rx,1,4,00,00,03,0A,00,00,00,00,
1695676,0000055A,false,Rx,1,8,19,34,36,34,55,00,5B,48,
1700698,000001DB,false,Rx,1,8,FF,A0,BB,8B,29,00,01,1B,
1700927,000001DC,false,Rx,1,8,6E,04,A4,A1,E1,0C,E1,55,
1702311,0000011A,false,Rx,1,8,4E,40,00,55,40,00,02,B0,
1702544,000001D4,false,Rx,1,8,F7,07,00,00,87,44,30,7B,
1702786,000001F2,false,Rx,1,8,30,64,20,AC,00,3C,02,8F,
1703008,0000050B,false,Rx,1,7,00,00,06,C0,00,00,00,00,
1705284,000001DA,false,Rx,1,8,BA,72,58,00,00,01,00,68,
1705443,00000120,false,Rx,1,4,00,00,04,9B,00,00,00,00,
1706855,0000055B,false,Rx,1,8,A4,40,AA,00,DF,C0,10,95,
1707088,0000059E,false,Rx,1,8,00,00,0C,76,18,00,00,00,
1707331,000005BC,false,Rx,1,8,3D,80,F0,64,B0,01,00,32,
1710697,000001DB,false,Rx,1,8,FF,A0,BB,8B,29,00,02,11,
1710926,000001DC,false,Rx,1,8,6E,04,A4,A1,E5,04,C6,42,
1712300,0000011A,false,Rx,1,8,4E,40,00,AA,80,00,03,A6,
1712533,000001D4,false,Rx,1,8,F7,07,00,00,C7,44,30,BC,
1712775,000001F2,false,Rx,1,8,30,64,20,AC,00,3C,03,8F,
1712999,0000050B,false,Rx,1,7,00,00,06,C0,00,00,00,00,
1715283,000001DA,false,Rx,1,8,BA,32,58,00,00,01,01,4F,
1715454,00000120,false,Rx,1,4,00,00,05,1E,00,00,00,00,
1720699,000001DB,false,Rx,1,8,FF,A0,BB,8B,29,00,03,94,
1720928,000001DC,false,Rx,1,8,6E,04,A4,A1,E8,C0,C3,F9,
1722156,00000390,false,Rx,1,8,24,00,01,02,00,00,00,27,
1722390,0000011A,false,Rx,1,8,4E,40,00,AA,C0,00,00,6B,
1722632,000001D4,false,Rx,1,8,F7,07,00,00,07,44,30,70,
1722877,000001F2,false,Rx,1,8,30,64,20,AC,00,3C,00,8F,
1723098,0000050B,false,Rx,1,7,00,00,06,C0,00,00,00,00,
1725280,000001DA,false,Rx,1,8,BA,32,58,00,00,01,02,45,
1725451,00000120,false,Rx,1,4,00,00,06,14,00,00,00,00,
1727163,00000393,false,Rx,1,8,26,51,00,00,00,00,00,2F,
1730692,000001DB,false,Rx,1,8,FF,A0,BB,8B,29,00,00,9E,
1730920,000001DC,false,Rx,1,8,6E,04,A4,A1,EC,DC,C8,10,
1732305,0000011A,false,Rx,1,8,4E,40,00,55,00,00,01,7D,
1732538,000001D4,false,Rx,1,8,F7,07,00,00,47,44,30,B7,
1732780,000001F2,false,Rx,1,8,30,64,20,AC,00,3C,01,8F,
1733004,0000050B,false,Rx,1,7,00,00,06,C0,00,00,00,00,
1735278,000001DA,false,Rx,1,8,BA,72,58,00,00,01,03,62,
1735449,00000120,false,Rx,1,4,00,00,07,91,00,00,00,00,
1740695,000001DB,false,Rx,1,8,FF,A0,BB,8B,29,00,01,1B,
1740924,000001DC,false,Rx,1,8,6E,04,A4,A1,E1,0C,E1,55,
1742308,0000011A,false,Rx,1,8,4E,40,00,55,40,00,02,B0,
1742551,000001D4,false,Rx,1,8,F7,07,00,00,87,44,30,7B,
1742783,000001F2,false,Rx,1,8,30,64,20,AC,00,3C,02,8F,
1743014,0000050B,false,Rx,1,7,00,00,06,C0,00,00,00,00,
1745279,000001DA,false,Rx,1,8,BA,72,58,00,00,01,00,68,
1745450,00000120,false,Rx,1,4,00,00,08,B3,00,00,00,00,
1750687,000001DB,false,Rx,1,8,FF,A0,BB,8B,29,00,02,11,
1750915,000001DC,false,Rx,1,8,6E,04,A4,A1,E5,04,C6,42,
1752300,0000011A,false,Rx,1,8,4E,40,00,AA,80,00,03,A6,
1752533,000001D4,false,Rx,1,8,F7,07,00,00,C7,44,30,BC,
1752765,000001F2,false,Rx,1,8,30,64,20,AC,00,3C,03,8F,
1752997,0000050B,false,Rx,1,7,00,00,06,C0,00,00,00,00,
1755282,000001DA,false,Rx,1,8,BA,32,58,00,00,01,01,4F,
1755453,00000120,false,Rx,1,4,00,00,09,36,00,00,00,00,
1760690,000001DB,false,Rx,1,8,FF,A0,BB,8B,29,00,03,94,
1760919,000001DC,false,Rx,1,8,6E,04,A4,A1,E8,C0,C3,F9,
1762304,0000011A,false,Rx,1,8,4E,40,00,AA,C0,00,00,6B,
1762546,000001D4,false,Rx,1,8,F7,07,00,00,07,44,30,70,
1762778,000001F2,false,Rx,1,8,30,64,20,AC,00,3C,00,8F,
1763010,0000050B,false,Rx,1,7,00,00,06,C0,00,00,00,00,
1765285,000001DA,false,Rx,1,8,BA,32,58,00,00,01,02,45,
1765456,00000120,false,Rx,1,4,00,00,0A,3C,00,00,00,00,
1770684,000001DB,false,Rx,1,8,FF,A0,BB,8B,29,00,00,9E,
1770913,000001DC,false,Rx,1,8,6E,04,A4,A1,EC,DC,C8,10,
1772308,0000011A,false,Rx,1,8,4E,40,00,55,00,00,01,7D,
1772540,000001D4,false,Rx,1,8,F7,07,00,00,47,44,30,B7,
1772782,000001F2,false,Rx,1,8,30,64,20,AC,00,3C,01,8F,
1773004,0000050B,false,Rx,1,7,00,00,06,C0,00,00,00,00,
1775280,000001DA,false,Rx,1,8,BA,72,58,00,00,01,03,62,
1775451,00000120,false,Rx,1,4,00,00,0B,B9,00,00,00,00,
1781035,000001DB,false,Rx,1,8,FF,A0,BB,8B,29,00,01,1B,
1781254,000001DC,false,Rx,1,8,6E,04,A4,A1,E1,0C,E1,55,
1781486,0000055B,false,Rx,1,8,73,40,AA,00,DE,80,12,D6,
1781729,000005BC,false,Rx,1,8,14,C0,64,50,90,02,40,5A,
1782305,0000011A,false,Rx,1,8,4E,40,00,55,40,00,02,B0,
1782547,000001D4,false,Rx,1,8,F7,07,00,00,87,44,30,7B,
1782789,000001F2,false,Rx,1,8,30,64,20,AC,00,3C,02,8F,
1783010,0000050B,false,Rx,1,7,00,00,06,C0,00,00,00,00,
1785288,000001DA,false,Rx,1,8,BA,72,58,00,00,01,00,68,
1785455,00000120,false,Rx,1,4,00,00,0C,28,00,00,00,00,
1790681,000001DB,false,Rx,1,8,FF,A0,BB,8B,29,00,02,11,
1790921,000001DC,false,Rx,1,8,6E,04,A4,A1,E5,04,C6,42,
1792307,0000011A,false,Rx,1,8,4E,40,00,AA,80,00,03,A6,
1792538,000001D4,false,Rx,1,8,F7,07,00,00,C7,44,30,BC,
1792770,000001F2,false,Rx,1,8,30,64,20,AC,00,3C,03,8F,
1792991,0000050B,false,Rx,1,7,00,00,06,C0,00,00,00,00,
1794470,000002B5,false,Rx,1,8,B0,00,32,00,00,00,00,82,
1794702,000002B6,false,Rx,1,8,B2,00,89,02,18,00,8A,AB,
1795290,000001DA,false,Rx,1,8,BA,32,58,00,00,01,01,4F,
1795450,00000120,false,Rx,1,4,00,00,0D,AD,00,00,00,00,
1795681,0000055A,false,Rx,1,8,1A,34,36,34,55,00,5B,48,
1800684,000001DB,false,Rx,1,8,FF,A0,BB,8B,29,00,03,94,
1800913,000001DC,false,Rx,1,8,6E,04,A4,A1,E8,C0,C3,F9,
1802298,0000011A,false,Rx,1,8,4E,40,00,AA,C0,00,00,6B,
1802540,000001D4,false,Rx,1,8,F7,07,00,00,07,44,30,70,
1802782,000001F2,false,Rx,1,8,30,64,20,AC,00,3C,00,8F,
1803005,0000050B,false,Rx,1,7,00,00,06,C0,00,00,00,00,
1805280,000001DA,false,Rx,1,8,BA,32,58,00,00,01,02,45,
1805451,00000120,false,Rx,1,4,00,00,0E,A7,00,00,00,00,
1806853,0000055B,false,Rx,1,8,A4,40,AA,00,DF,C0,11,10,
1807085,0000059E,false,Rx,1,8,00,00,0C,76,18,00,00,00,
1807328,000005BC,false,Rx,1,8,3D,80,F0,64,B0,01,00,32,
1810685,000001DB,false,Rx,1,8,FF,A0,BB,8B,29,00,00,9E,
1810913,000001DC,false,Rx,1,8,6E,04,A4,A1,EC,DC,C8,10,
1812309,0000011A,false,Rx,1,8,4E,40,00,55,00,00,01,7D,
1812540,000001D4,false,Rx,1,8,F7,07,00,00,47,44,30,B7,
1812782,000001F2,false,Rx,1,8,30,64,20,AC,00,3C,01,8F,
1813007,0000050B,false,Rx,1,7,00,00,06,C0,00,00,00,00,
1815281,000001DA,false,Rx,1,8,BA,72,58,00,00,01,03,62,
1815450,00000120,false,Rx,1,4,00,00,0F,22,00,00,00,00,
1820687,000001DB,false,Rx,1,8,FF,A0,BB,8B,29,00,01,1B,
1820914,000001DC,false,Rx,1,8,6E,04,A4,A1,E1,0C,E1,55,
1822259,00000390,false,Rx,1,8,24,00,01,02,00,00,00,38,
1822501,0000011A,false,Rx,1,8,4E,40,00,55,40,00,02,B0,
1822743,000001D4,false,Rx,1,8,F7,07,00,00,87,44,30,7B,
1822976,000001F2,false,Rx,1,8,30,64,20,AC,00,3C,02,8F,
1823208,0000050B,false,Rx,1,7,00,00,06,C0,00,00,00,00,
1825279,000001DA,false,Rx,1,8,BA,72,58,00,00,01,00,68,
1825448,00000120,false,Rx,1,4,00,00,00,00,00,00,00,00,
1827265,00000393,false,Rx,1,8,00,51,00,00,00,00,00,38,
1830679,000001DB,false,Rx,1,8,FF,A0,BB,8B,29,00,02,11,
1830907,000001DC,false,Rx,1,8,6E,04,A4,A1,E5,04,C6,42,
1832302,0000011A,false,Rx,1,8,4E,40,00,AA,80,00,03,A6,
1832534,000001D4,false,Rx,1,8,F7,07,00,00,C7,44,30,BC,
1832765,000001F2,false,Rx,1,8,30,64,20,AC,00,3C,03,8F,
1832991,0000050B,false,Rx,1,7,00,00,06,C0,00,00,00,00,
1835284,000001DA,false,Rx,1,8,BA,32,58,00,00,01,01,4F,
1835454,00000120,false,Rx,1,4,00,00,01,85,00,00,00,00,
1840680,000001DB,false,Rx,1,8,FF,A0,BB,8B,29,00,03,94,
1840908,000001DC,false,Rx,1,8,6E,04,A4,A1,E8,C0,C3,F9,
1842304,0000011A,false,Rx,1,8,4E,40,00,AA,C0,00,00,6B,
1842535,000001D4,false,Rx,1,8,F7,07,00,00,07,44,30,70,
1842778,000001F2,false,Rx,1,8,30,64,20,AC,00,3C,00,8F,
1843000,0000050B,false,Rx,1,7,00,00,06,C0,00,00,00,00,
1845275,000001DA,false,Rx,1,8,BA,32,58,00,00,01,02,45,
1845445,00000120,false,Rx,1,4,00,00,02,8F,00,00,00,00,
1850672,000001DB,false,Rx,1,8,FF,A0,BB,8B,29,00,00,9E,
1850910,000001DC,false,Rx,1,8,6E,04,A4,A1,EC,DC,C8,10,
1852306,0000011A,false,Rx,1,8,4E,40,00,55,00,00,01,7D,
1852537,000001D4,false,Rx,1,8,F7,07,00,00,47,44,30,B7,
1852780,000001F2,false,Rx,1,8,30,64,20,AC,00,3C,01,8F,
1853002,0000050B,false,Rx,1,7,00,00,06,C0,00,00,00,00,
1855278,000001DA,false,Rx,1,8,BA,72,58,00,00,01,03,62,
1855448,00000120,false,Rx,1,4,00,00,03,0A,00,00,00,00,
1860675,000001DB,false,Rx,1,8,FF,A0,BB,8B,29,00,01,1B,
1860902,000001DC,false,Rx,1,8,6E,04,A4,A1,E1,0C,E1,55,
1862308,0000011A,false,Rx,1,8,4E,40,00,55,40,00,02,B0,
1862540,000001D4,false,Rx,1,8,F7,07,00,00,87,44,30,7B,
1862782,000001F2,false,Rx,1,8,30,64,20,AC,00,3C,02,8F,
1863005,0000050B,false,Rx,1,7,00,00,06,C0,00,00,00,00,
1865292,000001DA,false,Rx,1,8,BA,72,58,00,00,01,00,68,
1865461,00000120,false,Rx,1,4,00,00,04,9B,00,00,00,00,
1870678,000001DB,false,Rx,1,8,FF,A0,BB,8B,29,00,02,11,
1870906,000001DC,false,Rx,1,8,6E,04,A4,A1,E5,04,C6,42,
1872302,0000011A,false,Rx,1,8,4E,40,00,AA,80,00,03,A6,
1872534,000001D4,false,Rx,1,8,F7,07,00,00,C7,44,30,BC,
1872766,000001F2,false,Rx,1,8,30,64,20,AC,00,3C,03,8F,
1872988,0000050B,false,Rx,1,7,00,00,06,C0,00,00,00,00,
1875275,000001DA,false,Rx,1,8,BA,32,58,00,00,01,01,4F,
1875444,00000120,false,Rx,1,4,00,00,05,1E,00,00,00,00,
1881018,000001DB,false,Rx,1,8,FF,A0,BB,8B,29,00,03,94,
1881247,000001DC,false,Rx,1,8,6E,04,A4,A1,E8,C0,C3,F9,
1881480,0000055B,false,Rx,1,8,73,40,AA,00,DE,80,13,53,
1881712,000005BC,false,Rx,1,8,14,C0,64,50,90,02,A0,96,
1882298,0000011A,false,Rx,1,8,4E,40,00,AA,C0,00,00,6B,
1882540,000001D4,false,Rx,1,8,F7,07,00,00,07,44,30,70,
1882782,000001F2,false,Rx,1,8,30,64,20,AC,00,3C,00,8F,
1883004,0000050B,false,Rx,1,7,00,00,06,C0,00,00,00,00,
1885283,000001DA,false,Rx,1,8,BA,32,58,00,00,01,02,45,
1885449,00000120,false,Rx,1,4,00,00,06,14,00,00,00,00,
1890917,000001DB,false,Rx,1,8,FF,A0,BB,8B,29,00,00,9E,
1891145,000001DC,false,Rx,1,8,6E,04,A4,A1,EC,DC,C8,10,
1891389,0000059E,false,Rx,1,8,00,00,0A,12,10,00,00,00,
1891621,000005C0,false,Rx,1,8,80,60,62,00,72,C8,1F,00,
1892311,0000011A,false,Rx,1,8,4E,40,00,55,00,00,01,7D,
1892542,000001D4,false,Rx,1,8,F7,07,00,00,47,44,30,B7,
1892774,000001F2,false,Rx,1,8,30,64,20,AC,00,3C,01,8F,
1893003,0000050B,false,Rx,1,7,00,00,06,C0,00,00,00,00,
1894461,000002B5,false,Rx,1,8,C0,00,32,00,00,00,00,F2,
1894692,000002B6,false,Rx,1,8,C2,00,89,02,18,00,8A,DB,
1895278,000001DA,false,Rx,1,8,BA,72,58,00,00,01,03,62,
1895448,00000120,false,Rx,1,4,00,00,07,91,00,00,00,00,
1895668,0000055A,false,Rx,1,8,1F,34,36,34,55,00,5B,48,
1900678,000001DB,false,Rx,1,8,FF,A0,BB,8B,29,00,01,1B,
1900905,000001DC,false,Rx,1,8,6E,04,A4,A1,E1,0C,E1,55,
1902301,0000011A,false,Rx,1,8,4E,40,00,55,40,00,02,B0,
1902543,000001D4,false,Rx,1,8,F7,07,00,00,87,44,30,7B,
1902785,000001F2,false,Rx,1,8,30,64,20,AC,00,3C,02,8F,
1903008,0000050B,false,Rx,1,7,00,00,06,C0,00,00,00,00,
1905273,000001DA,false,Rx,1,8,BA,72,58,00,00,01,00,68,
1905443,00000120,false,Rx,1,4,00,00,08,B3,00,00,00,00,
1906844,0000055B,false,Rx,1,8,A4,40,AA,00,DF,C0,12,1A,
1907086,0000059E,false,Rx,1,8,00,00,0C,76,18,00,00,00,
1907329,000005BC,false,Rx,1,8,3D,80,F0,64,B0,01,00,32,
1910665,000001DB,false,Rx,1,8,FF,A0,BB,8B,29,00,02,11,
1910893,000001DC,false,Rx,1,8,6E,04,A4,A1,E5,04,C6,42,
1912299,0000011A,false,Rx,1,8,4E,40,00,AA,80,00,03,A6,
1912530,000001D4,false,Rx,1,8,F7,07,00,00,C7,44,30,BC,
1912762,000001F2,false,Rx,1,8,30,64,20,AC,00,3C,03,8F,
1912987,0000050B,false,Rx,1,7,00,00,06,C0,00,00,00,00,
1915281,000001DA,false,Rx,1,8,BA,32,58,00,00,01,01,4F,
1915440,00000120,false,Rx,1,4,00,00,09,36,00,00,00,00,
1920667,000001DB,false,Rx,1,8,FF,A0,BB,8B,29,00,03,94,
1920905,000001DC,false,Rx,1,8,6E,04,A4,A1,E8,C0,C3,F9,
1922300,0000011A,false,Rx,1,8,4E,40,00,AA,C0,00,00,6B,
1922532,000001D4,false,Rx,1,8,F7,07,00,00,07,44,30,70,
1922774,000001F2,false,Rx,1,8,30,64,20,AC,00,3C,00,8F,
1923028,00000390,false,Rx,1,8,24,00,01,02,00,00,00,05,
1923250,0000050B,false,Rx,1,7,00,00,06,C0,00,00,00,00,
1925279,000001DA,false,Rx,1,8,BA,32,58,00,00,01,02,45,
1925448,00000120,false,Rx,1,4,00,00,0A,3C,00,00,00,00,
1927368,00000393,false,Rx,1,8,26,51,00,00,00,00,00,0D,
1930669,000001DB,false,Rx,1,8,FF,A0,BB,8B,29,00,00,9E,
1930897,000001DC,false,Rx,1,8,6E,04,A4,A1,EC,DC,C8,10,
1932303,0000011A,false,Rx,1,8,4E,40,00,55,00,00,01,7D,
1932535,000001D4,false,Rx,1,8,F7,07,00,00,47,44,30,B7,
1932777,000001F2,false,Rx,1,8,30,64,20,AC,00,3C,01,8F,
1933002,0000050B,false,Rx,1,7,00,00,06,C0,00,00,00,00,
1935275,000001DA,false,Rx,1,8,BA,72,58,00,00,01,03,62,
1935445,00000120,false,Rx,1,4,00,00,0B,B9,00,00,00,00,
1940671,000001DB,false,Rx,1,8,FF,A0,BB,8B,29,00,01,1B,
1940899,000001DC,false,Rx,1,8,6E,04,A4,A1,E1,0C,E1,55,
1942305,0000011A,false,Rx,1,8,4E,40,00,55,40,00,02,B0,
1942547,000001D4,false,Rx,1,8,F7,07,00,00,87,44,30,7B,
1942781,000001F2,false,Rx,1,8,30,64,20,AC,00,3C,02,8F,
1943002,0000050B,false,Rx,1,7,00,00,06,C0,00,00,00,00,
1945277,000001DA,false,Rx,1,8,BA,72,58,00,00,01,00,68,
1945447,00000120,false,Rx,1,4,00,00,0C,28,00,00,00,00,
1950664,000001DB,false,Rx,1,8,FF,A0,BB,8B,29,00,02,11,
1950892,000001DC,false,Rx,1,8,6E,04,A4,A1,E5,04,C6,42,
1952298,0000011A,false,Rx,1,8,4E,40,00,AA,80,00,03,A6,
1952529,000001D4,false,Rx,1,8,F7,07,00,00,C7,44,30,BC,
1952762,000001F2,false,Rx,1,8,30,64,20,AC,00,3C,03,8F,
1952994,0000050B,false,Rx,1,7,00,00,06,C0,00,00,00,00,
1955269,000001DA,false,Rx,1,8,BA,32,58,00,00,01,01,4F,
1955439,00000120,false,Rx,1,4,00,00,0D,AD,00,00,00,00,
1960667,000001DB,false,Rx,1,8,FF,A0,BB,8B,29,00,03,94,
1960895,000001DC,false,Rx,1,8,6E,04,A4,A1,E8,C0,C3,F9,
1962301,0000011A,false,Rx,1,8,4E,40,00,AA,C0,00,00,6B,
1962533,000001D4,false,Rx,1,8,F7,07,00,00,07,44,30,70,
1962776,000001F2,false,Rx,1,8,30,64,20,AC,00,3C,00,8F,
1962998,0000050B,false,Rx,1,7,00,00,06,C0,00,00,00,00,
1965284,000001DA,false,Rx,1,8,BA,32,58,00,00,01,02,45,
1965453,00000120,false,Rx,1,4,00,00,0E,A7,00,00,00,00,
1970659,000001DB,false,Rx,1,8,FF,A0,BB,8B,29,00,00,9E,
1970897,000001DC,false,Rx,1,8,6E,04,A4,A1,EC,DC,C8,10,
1972303,0000011A,false,Rx,1,8,4E,40,00,55,00,00,01,7D,
1972535,000001D4,false,Rx,1,8,F7,07,00,00,47,44,30,B7,
1972768,000001F2,false,Rx,1,8,30,64,20,AC,00,3C,01,8F,
1973000,0000050B,false,Rx,1,7,00,00,06,C0,00,00,00,00,
1975276,000001DA,false,Rx,1,8,BA,72,58,00,00,01,03,62,
1975445,00000120,false,Rx,1,4,00,00,0F,22,00,00,00,00,
1981009,000001DB,false,Rx,1,8,FF,A0,BB,8B,29,00,01,1B,
1981229,000001DC,false,Rx,1,8,6E,04,A4,A1,E1,0C,E1,55,
1981460,0000055B,false,Rx,1,8,73,40,AA,00,DE,80,10,59,
1981692,000005BC,false,Rx,1,8,14,C0,B5,50,91,03,01,A4,
1982299,0000011A,false,Rx,1,8,4E,40,00,55,40,00,02,B0,
1982541,000001D4,false,Rx,1,8,F7,07,00,00,87,44,30,7B,
1982773,000001F2,false,Rx,1,8,30,64,20,AC,00,3C,02,8F,
1983005,0000050B,false,Rx,1,7,00,00,06,C0,00,00,00,00,
1985285,000001DA,false,Rx,1,8,BA,72,58,00,00,01,00,68,
1985461,00000120,false,Rx,1,4,00,00,00,00,00,00,00,00,
1990658,000001DB,false,Rx,1,8,FF,A0,BB,8B,29,00,02,11,
1990885,000001DC,false,Rx,1,8,6E,04,A4,A1,E5,04,C6,42,
1992291,0000011A,false,Rx,1,8,4E,40,00,AA,80,00,03,A6,
1992523,000001D4,false,Rx,1,8,F7,07,00,00,C7,44,30,BC,
1992766,000001F2,false,Rx,1,8,30,64,20,AC,00,3C,03,8F,
1992988,0000050B,false,Rx,1,7,00,00,06,C0,00,00,00,00,
1994476,000002B5,false,Rx,1,8,D0,00,32,00,00,00,00,E2,
1994708,000002B6,false,Rx,1,8,D2,00,89,02,18,00,8A,CB,
1995286,000001DA,false,Rx,1,8,BA,32,58,00,00,01,01,4F,
1995455,00000120,false,Rx,1,4,00,00,01,85,00,00,00,00,
1995686,0000055A,false,Rx,1,8,14,34,36,34,55,00,5B,48,
2000657,000001DB,false,Rx,1,8,FF,C0,BB,8B,29,00,03,67,
2000885,000001DC,false,Rx,1,8,6E,04,A4,A1,E8,C0,C3,F9,
2002301,0000011A,false,Rx,1,8,4E,40,00,AA,C0,00,00,6B,
2002533,000001D4,false,Rx,1,8,F7,07,00,00,07,44,30,70,
2002776,000001F2,false,Rx,1,8,30,64,20,AC,00,3C,00,8F,
2002997,0000050B,false,Rx,1,7,00,00,06,C0,00,00,00,00,
2005274,000001DA,false,Rx,1,8,BA,32,58,00,00,01,02,45,
2005444,00000120,false,Rx,1,4,00,00,02,8F,00,00,00,00,
2006845,0000055B,false,Rx,1,8,A4,40,AA,00,DF,C0,13,9F,
2007087,0000059E,false,Rx,1,8,00,00,0C,76,18,00,00,00,
2007322,000005BC,false,Rx,1,8,3D,80,F0,64,B0,01,00,32,
2010657,000001DB,false,Rx,1,8,FF,C0,BB,8B,29,00,00,6D,
2010895,000001DC,false,Rx,1,8,6E,04,A4,A1,EC,DC,C8,10,
2012301,0000011A,false,Rx,1,8,4E,40,00,55,00,00,01,7D,
2012532,000001D4,false,Rx,1,8,F7,07,00,00,47,44,30,B7,
2012786,000001F2,false,Rx,1,8,30,64,20,AC,00,3C,01,8F,
2012997,0000050B,false,Rx,1,7,00,00,06,C0,00,00,00,00,
2015274,000001DA,false,Rx,1,8,BA,72,58,00,00,01,03,62,
2015444,00000120,false,Rx,1,4,00,00,03,0A,00,00,00,00,
2020659,000001DB,false,Rx,1,8,FF,A0,BB,8B,29,00,01,1B,
2020887,000001DC,false,Rx,1,8,6E,04,A4,A1,E1,0C,E1,55,
2022303,0000011A,false,Rx,1,8,4E,40,00,55,40,00,02,B0,
2022535,000001D4,false,Rx,1,8,F7,07,00,00,87,44,30,7B,
2022779,000001F2,false,Rx,1,8,30,64,20,AC,00,3C,02,8F,
2023021,00000390,false,Rx,1,8,24,00,01,02,00,00,00,16,
2023243,0000050B,false,Rx,1,7,00,00,06,C0,00,00,00,00,
2025281,000001DA,false,Rx,1,8,BA,72,58,00,00,01,00,68,
2025440,00000120,false,Rx,1,4,00,00,04,9B,00,00,00,00,
2027466,00000393,false,Rx,1,8,00,51,00,00,00,00,00,16,
2030651,000001DB,false,Rx,1,8,FF,A0,BB,8B,29,00,02,11,
2030879,000001DC,false,Rx,1,8,6E,04,A4,A1,E5,04,C6,42,
2032295,0000011A,false,Rx,1,8,4E,40,00,AA,80,00,03,A6,
2032527,000001D4,false,Rx,1,8,F7,07,00,00,C7,44,30,BC,
2032760,000001F2,false,Rx,1,8,30,64,20,AC,00,3C,03,8F,
2032994,0000050B,false,Rx,1,7,00,00,06,C0,00,00,00,00,
2035277,000001DA,false,Rx,1,8,BA,32,58,00,00,01,01,4F,
2035437,00000120,false,Rx,1,4,00,00,05,1E,00,00,00,00,
2040652,000001DB,false,Rx,1,8,FF,C0,BB,8B,29,00,03,67,
2040880,000001DC,false,Rx,1,8,6E,04,A4,A1,E8,C0,C3,F9,
2042296,0000011A,false,Rx,1,8,4E,40,00,AA,C0,00,00,6B,
2042538,000001D4,false,Rx,1,8,F7,07,00,00,07,44,30,70,
2042771,000001F2,false,Rx,1,8,30,64,20,AC,00,3C,00,8F,
2043003,0000050B,false,Rx,1,7,00,00,06,C0,00,00,00,00,
2045278,000001DA,false,Rx,1,8,BA,32,58,00,00,01,02,45,
2045438,00000120,false,Rx,1,4,00,00,06,14,00,00,00,00,
2050654,000001DB,false,Rx,1,8,FF,C0,BB,8B,29,00,00,6D,
2050882,000001DC,false,Rx,1,8,6E,04,A4,A1,EC,DC,C8,10,
2052298,0000011A,false,Rx,1,8,4E,40,00,55,00,00,01,7D,
2052530,000001D4,false,Rx,1,8,F7,07,00,00,47,44,30,B7,
2052773,000001F2,false,Rx,1,8,30,64,20,AC,00,3C,01,8F,
2052995,0000050B,false,Rx,1,7,00,00,06,C0,00,00,00,00,
2055271,000001DA,false,Rx,1,8,BA,72,58,00,00,01,03,62,
2055440,00000120,false,Rx,1,4,00,00,07,91,00,00,00,00,
2060658,000001DB,false,Rx,1,8,FF,C0,BB,8B,29,00,01,E8,
2060885,000001DC,false,Rx,1,8,6E,04,A4,A1,E1,0C,E1,55,
2062302,0000011A,false,Rx,1,8,4E,40,00,55,40,00,02,B0,
2062533,000001D4,false,Rx,1,8,F7,07,00,00,87,44,30,7B,
2062777,000001F2,false,Rx,1,8,30,64,20,AC,00,3C,02,8F,
2062998,0000050B,false,Rx,1,7,00,00,06,C0,00,00,00,00,
2065285,000001DA,false,Rx,1,8,BA,72,58,00,00,01,00,68,
2065454,00000120,false,Rx,1,4,00,00,08,B3,00,00,00,00,
2070650,000001DB,false,Rx,1,8,FF,C0,BB,8B,29,00,02,E2,
2070878,000001DC,false,Rx,1,8,6E,04,A4,A1,E5,04,C6,42,
2072295,0000011A,false,Rx,1,8,4E,40,00,AA,80,00,03,A6,
2072527,000001D4,false,Rx,1,8,F7,07,00,00,C7,44,30,BC,
2072760,000001F2,false,Rx,1,8,30,64,20,AC,00,3C,03,8F,
2072992,0000050B,false,Rx,1,7,00,00,06,C0,00,00,00,00,
2075270,000001DA,false,Rx,1,8,BA,32,58,00,00,01,01,4F,
2075439,00000120,false,Rx,1,4,00,00,09,36,00,00,00,00,
2080993,000001DB,false,Rx,1,8,FF,C0,BB,8B,29,00,03,67,
2081223,000001DC,false,Rx,1,8,6E,04,A4,A1,E8,C0,C3,F9,
2081445,0000055B,false,Rx,1,8,73,40,AA,00,DE,80,11,DC,
2081687,000005BC,false,Rx,1,8,14,C0,B5,50,91,00,1F,FF,
2082293,0000011A,false,Rx,1,8,4E,40,00,AA,C0,00,00,6B,
2082536,000001D4,false,Rx,1,8,F7,07,00,00,07,44,30,70,
2082769,000001F2,false,Rx,1,8,30,64,20,AC,00,3C,00,8F,
2083000,0000050B,false,Rx,1,7,00,00,06,C0,00,00,00,00,
2085279,000001DA,false,Rx,1,8,BA,32,58,00,00,01,02,45,
2085445,00000120,false,Rx,1,4,00,00,0A,3C,00,00,00,00,
2090652,000001DB,false,Rx,1,8,FF,A0,BB,8B,29,00,00,9E,
2090879,000001DC,false,Rx,1,8,6E,04,A4,A1,EC,DC,C8,10,
2092297,0000011A,false,Rx,1,8,4E,40,00,55,00,00,01,7D,
2092529,000001D4,false,Rx,1,8,F7,07,00,00,47,44,30,B7,
2092772,000001F2,false,Rx,1,8,30,64,20,AC,00,3C,01,8F,
2092993,0000050B,false,Rx,1,7,00,00,06,C0,00,00,00,00,
2094471,000002B5,false,Rx,1,8,E0,00,32,00,00,00,00,D2,
2094724,000002B6,false,Rx,1,8,E2,00,89,02,18,00,8A,FB,
2095270,000001DA,false,Rx,1,8,BA,72,58,00,00,01,03,62,
2095439,00000120,false,Rx,1,4,00,00,0B,B9,00,00,00,00,
2095671,0000055A,false,Rx,1,8,19,34,36,34,55,00,5B,48,
2100643,000001DB,false,Rx,1,8,FF,A0,BB,8B,29,00,01,1B,
2100871,000001DC,false,Rx,1,8,6E,04,A4,A1,E1,0C,E1,55,
2102298,0000011A,false,Rx,1,8,4E,40,00,55,40,00,02,B0,
2102541,000001D4,false,Rx,1,8,F7,07,00,00,87,44,30,7B,
2102773,000001F2,false,Rx,1,8,30,64,20,AC,00,3C,02,8F,
2103004,0000050B,false,Rx,1,7,00,00,06,C0,00,00,00,00,
2105270,000001DA,false,Rx,1,8,BA,72,58,00,00,01,00,68,
2105439,00000120,false,Rx,1,4,00,00,0C,28,00,00,00,00,
2106841,0000055B,false,Rx,1,8,A4,40,AA,00,DF,C0,10,95,
2107083,0000059E,false,Rx,1,8,00,00,0C,76,18,00,00,00,
2107317,000005BC,false,Rx,1,8,3D,80,F0,64,B0,01,00,32,
2110642,000001DB,false,Rx,1,8,FF,A0,BB,8B,29,00,02,11,
2110870,000001DC,false,Rx,1,8,6E,04,A4,A1,E5,04,C6,42,
2112296,0000011A,false,Rx,1,8,4E,40,00,AA,80,00,03,A6,
2112529,000001D4,false,Rx,1,8,F7,07,00,00,C7,44,30,BC,
2112761,000001F2,false,Rx,1,8,30,64,20,AC,00,3C,03,8F,
2112985,0000050B,false,Rx,1,7,00,00,06,C0,00,00,00,00,
2115280,000001DA,false,Rx,1,8,BA,32,58,00,00,01,01,4F,
2115439,00000120,false,Rx,1,4,00,00,0D,AD,00,00,00,00,
2120645,000001DB,false,Rx,1,8,FF,A0,BB,8B,29,00,03,94,
2120873,000001DC,false,Rx,1,8,6E,04,A4,A1,E8,C0,C3,F9,
2122289,0000011A,false,Rx,1,8,4E,40,00,AA,C0,00,00,6B,
2122532,000001D4,false,Rx,1,8,F7,07,00,00,07,44,30,70,
2122775,000001F2,false,Rx,1,8,30,64,20,AC,00,3C,00,8F,
2123017,00000390,false,Rx,1,8,24,00,01,02,00,00,00,27,
2123239,0000050B,false,Rx,1,7,00,00,06,C0,00,00,00,00,
2125267,000001DA,false,Rx,1,8,BA,32,58,00,00,01,02,45,
2125437,00000120,false,Rx,1,4,00,00,0E,A7,00,00,00,00,
2127565,00000393,false,Rx,1,8,26,51,00,00,00,00,00,2F,
2130647,000001DB,false,Rx,1,8,FF,A0,BB,8B,29,00,00,9E,
2130874,000001DC,false,Rx,1,8,6E,04,A4,A1,EC,DC,C8,10,
2132301,0000011A,false,Rx,1,8,4E,40,00,55,00,00,01,7D,
2132534,000001D4,false,Rx,1,8,F7,07,00,00,47,44,30,B7,
2132776,000001F2,false,Rx,1,8,30,64,20,AC,00,3C,01,8F,
2132998,0000050B,false,Rx,1,7,00,00,06,C0,00,00,00,00,
2135274,000001DA,false,Rx,1,8,BA,72,58,00,00,01,03,62,
2135444,00000120,false,Rx,1,4,00,00,0F,22,00,00,00,00,
2140649,000001DB,false,Rx,1,8,FF,A0,BB,8A,29,00,01,0D,
2140877,000001DC,false,Rx,1,8,6E,04,A4,A1,E1,0C,E1,55,
2142293,0000011A,false,Rx,1,8,4E,40,00,55,40,00,02,B0,
2142536,000001D4,false,Rx,1,8,F7,07,00,00,87,44,30,7B,
2142769,000001F2,false,Rx,1,8,30,64,20,AC,00,3C,02,8F,
2143000,0000050B,false,Rx,1,7,00,00,06,C0,00,00,00,00,
2145275,000001DA,false,Rx,1,8,BA,72,58,00,00,01,00,68,
2145445,00000120,false,Rx,1,4,00,00,00,00,00,00,00,00,
2150642,000001DB,false,Rx,1,8,FF,A0,BB,8A,29,00,02,07,
2150870,000001DC,false,Rx,1,8,6E,04,A4,A1,E5,04,C6,42,
2152296,0000011A,false,Rx,1,8,4E,40,00,AA,80,00,03,A6,
2152529,000001D4,false,Rx,1,8,F7,07,00,00,C7,44,30,BC,
2152762,000001F2,false,Rx,1,8,30,64,20,AC,00,3C,03,8F,
2152983,0000050B,false,Rx,1,7,00,00,06,C0,00,00,00,00,
2155270,000001DA,false,Rx,1,8,BA,32,58,00,00,01,01,4F,
2155449,00000120,false,Rx,1,4,00,00,01,85,00,00,00,00,
2160636,000001DB,false,Rx,1,8,FF,A0,BB,8A,29,00,03,82,
2160874,000001DC,false,Rx,1,8,6E,04,A4,A1,E8,C0,C3,F9,
2162291,0000011A,false,Rx,1,8,4E,40,00,AA,C0,00,00,6B,
2162534,000001D4,false,Rx,1,8,F7,07,00,00,07,44,30,70,
2162766,000001F2,false,Rx,1,8,30,64,20,AC,00,3C,00,8F,
2162998,0000050B,false,Rx,1,7,00,00,06,C0,00,00,00,00,
2165284,000001DA,false,Rx,1,8,BA,32,58,00,00,01,02,45,
2165454,00000120,false,Rx,1,4,00,00,02,8F,00,00,00,00,
2170640,000001DB,false,Rx,1,8,FF,A0,BB,8A,29,00,00,88,
2170869,000001DC,false,Rx,1,8,6E,04,A4,A1,EC,DC,C8,10,
2172295,0000011A,false,Rx,1,8,4E,40,00,55,00,00,01,7D,
2172528,000001D4,false,Rx,1,8,F7,07,00,00,47,44,30,B7,
2172770,000001F2,false,Rx,1,8,30,64,20,AC,00,3C,01,8F,
2172991,0000050B,false,Rx,1,7,00,00,06,C0,00,00,00,00,
2175277,000001DA,false,Rx,1,8,BA,72,58,00,00,01,03,62,
2175447,00000120,false,Rx,1,4,00,00,03,0A,00,00,00,00,
2180980,000001DB,false,Rx,1,8,FF,A0,BB,8A,29,00,01,0D,
2181208,000001DC,false,Rx,1,8,6E,04,A4,A1,E1,0C,E1,55,
2181432,0000055B,false,Rx,1,8,73,40,AA,00,DE,C0,12,4B,
2181664,000005BC,false,Rx,1,8,14,C0,B5,50,91,00,A0,B4,
2182301,0000011A,false,Rx,1,8,4E,40,00,55,40,00,02,B0,
2182534,000001D4,false,Rx,1,8,F7,07,00,00,87,44,30,7B,
2182776,000001F2,false,Rx,1,8,30,64,20,AC,00,3C,02,8F,
2182997,0000050B,false,Rx,1,7,00,00,06,C0,00,00,00,00,
2185276,000001DA,false,Rx,1,8,BA,72,58,00,00,01,00,68,
2185452,00000120,false,Rx,1,4,00,00,04,9B,00,00,00,00,
2190638,000001DB,false,Rx,1,8,FF,A0,BB,8A,29,00,02,07,
2190867,000001DC,false,Rx,1,8,6E,04,A4,A1,E5,04,C6,42,
2192292,0000011A,false,Rx,1,8,4E,40,00,AA,80,00,03,A6,
2192525,000001D4,false,Rx,1,8,F7,07,00,00,C7,44,30,BC,
2192757,000001F2,false,Rx,1,8,30,64,20,AC,00,3C,03,8F,
2192989,0000050B,false,Rx,1,7,00,00,06,C0,00,00,00,00,
2194456,000002B5,false,Rx,1,8,F0,00,32,00,00,00,00,C2,
2194689,000002B6,false,Rx,1,8,F2,00,89,02,18,00,8A,EB,
2195287,000001DA,false,Rx,1,8,BA,32,58,00,00,01,01,4F,
2195447,00000120,false,Rx,1,4,00,00,05,1E,00,00,00,00,
2195678,0000055A,false,Rx,1,8,1A,34,36,34,55,00,5B,28,
2200638,000001DB,false,Rx,1,8,FF,A0,BB,8A,29,00,03,82,
2200867,000001DC,false,Rx,1,8,6E,04,A4,A1,E8,C0,C3,F9,
2202293,0000011A,false,Rx,1,8,4E,40,00,AA,C0,00,00,6B,
2202526,000001D4,false,Rx,1,8,F7,07,00,00,07,44,30,70,
2202768,000001F2,false,Rx,1,8,30,64,20,AC,00,3C,00,8F,
2203000,0000050B,false,Rx,1,7,00,00,06,C0,00,00,00,00,
2205275,000001DA,false,Rx,1,8,BA,32,58,00,00,01,02,45,
2205436,00000120,false,Rx,1,4,00,00,06,14,00,00,00,00,
2206836,0000055B,false,Rx,1,8,A4,40,AA,00,DF,C0,11,10,
2207079,0000059E,false,Rx,1,8,00,00,0C,76,18,00,00,00,
2207312,000005BC,false,Rx,1,8,3D,80,F0,64,B0,01,00,32,
2210636,000001DB,false,Rx,1,8,FF,A0,BB,8A,29,00,00,88,
2210865,000001DC,false,Rx,1,8,6E,04,A4,A1,EC,DC,C8,10,
2212301,0000011A,false,Rx,1,8,4E,40,00,55,00,00,01,7D,
2212524,000001D4,false,Rx,1,8,F7,07,00,00,47,44,30,B7,
2212766,000001F2,false,Rx,1,8,30,64,20,AC,00,3C,01,8F,
2212987,0000050B,false,Rx,1,7,00,00,06,C0,00,00,00,00,
2215273,000001DA,false,Rx,1,8,BA,72,58,00,00,01,03,62,
2215444,00000120,false,Rx,1,4,00,00,07,91,00,00,00,00,
2220628,000001DB,false,Rx,1,8,FF,A0,BB,8A,29,00,01,0D,
2220856,000001DC,false,Rx,1,8,6E,04,A4,A1,E1,0C,E1,55,
2222292,0000011A,false,Rx,1,8,4E,40,00,55,40,00,02,B0,
2222536,000001D4,false,Rx,1,8,F7,07,00,00,87,44,30,7B,
2222768,000001F2,false,Rx,1,8,30,64,20,AC,00,3C,02,8F,
2223020,00000390,false,Rx,1,8,24,00,01,02,00,00,00,38,
2223244,0000050B,false,Rx,1,7,00,00,06,C0,00,00,00,00,
2225270,000001DA,false,Rx,1,8,BA,72,58,00,00,01,00,68,
2225441,00000120,false,Rx,1,4,00,00,08,B3,00,00,00,00,
2227672,00000393,false,Rx,1,8,00,51,00,00,00,00,00,38,
2230630,000001DB,false,Rx,1,8,FF,A0,BB,8A,29,00,02,07,
2230858,000001DC,false,Rx,1,8,6E,04,A4,A1,E5,04,C6,42,
2232295,0000011A,false,Rx,1,8,4E,40,00,AA,80,00,03,A6,
2232517,000001D4,false,Rx,1,8,F7,07,00,00,C7,44,30,BC,
2232760,000001F2,false,Rx,1,8,30,64,20,AC,00,3C,03,8F,
2232981,0000050B,false,Rx,1,7,00,00,06,C0,00,00,00,00,
2235277,000001DA,false,Rx,1,8,BA,32,58,00,00,01,01,4F,
2235438,00000120,false,Rx,1,4,00,00,09,36,00,00,00,00,
2240633,000001DB,false,Rx,1,8,FF,A0,BB,8A,29,00,03,82,
2240862,000001DC,false,Rx,1,8,6E,04,A4,A1,E8,C0,C3,F9,
2242288,0000011A,false,Rx,1,8,4E,40,00,AA,C0,00,00,6B,
2242530,000001D4,false,Rx,1,8,F7,07,00,00,07,44,30,70,
2242772,000001F2,false,Rx,1,8,30,64,20,AC,00,3C,00,8F,
2242994,0000050B,false,Rx,1,7,00,00,06,C0,00,00,00,00,
2245269,000001DA,false,Rx,1,8,BA,32,58,00,00,01,02,45,
2245440,00000120,false,Rx,1,4,00,00,0A,3C,00,00,00,00,
2250625,000001DB,false,Rx,1,8,FF,A0,BB,8A,29,00,00,88,
2250854,000001DC,false,Rx,1,8,6E,04,A4,A1,EC,DC,C8,10,
2252292,0000011A,false,Rx,1,8,4E,40,00,55,00,00,01,7D,
2252524,000001D4,false,Rx,1,8,F7,07,00,00,47,44,30,B7,
2252766,000001F2,false,Rx,1,8,30,64,20,AC,00,3C,01,8F,
2252987,0000050B,false,Rx,1,7,00,00,06,C0,00,00,00,00,
2255274,000001DA,false,Rx,1,8,BA,72,58,00,00,01,03,62,
2255435,00000120,false,Rx,1,4,00,00,0B,B9,00,00,00,00,
2260630,000001DB,false,Rx,1,8,FF,A0,BB,8A,29,00,01,0D,
2260848,000001DC,false,Rx,1,8,6E,04,A4,A1,E1,0C,E1,55,
2262296,0000011A,false,Rx,1,8,4E,40,00,55,40,00,02,B0,
2262528,000001D4,false,Rx,1,8,F7,07,00,00,87,44,30,7B,
2262770,000001F2,false,Rx,1,8,30,64,20,AC,00,3C,02,8F,
2262991,0000050B,false,Rx,1,7,00,00,06,C0,00,00,00,00,
2265277,000001DA,false,Rx,1,8,BA,72,58,00,00,01,00,68,
2265448,00000120,false,Rx,1,4,00,00,0C,28,00,00,00,00,
2270622,000001DB,false,Rx,1,8,FF,A0,BB,8A,29,00,02,07,
2270861,000001DC,false,Rx,1,8,6E,04,A4,A1,E5,04,C6,42,
2272288,0000011A,false,Rx,1,8,4E,40,00,AA,80,00,03,A6,
2272520,000001D4,false,Rx,1,8,F7,07,00,00,C7,44,30,BC,
2272751,000001F2,false,Rx,1,8,30,64,20,AC,00,3C,03,8F,
2272983,0000050B,false,Rx,1,7,00,00,06,C0,00,00,00,00,
2275270,000001DA,false,Rx,1,8,BA,32,58,00,00,01,01,4F,
2275441,00000120,false,Rx,1,4,00,00,0D,AD,00,00,00,00,
2280974,000001DB,false,Rx,1,8,FF,A0,BB,8A,29,00,03,82,
2281202,000001DC,false,Rx,1,8,6E,04,A4,A1,E8,C0,C3,F9,
2281435,0000055B,false,Rx,1,8,73,40,AA,00,DE,C0,13,CE,
2281668,000005BC,false,Rx,1,8,14,C0,B5,50,91,01,00,F0,
2282285,0000011A,false,Rx,1,8,4E,40,00,AA,C0,00,00,6B,
2282527,000001D4,false,Rx,1,8,F7,07,00,00,07,44,30,70,
2282769,000001F2,false,Rx,1,8,30,64,20,AC,00,3C,00,8F,
2282990,0000050B,false,Rx,1,7,00,00,06,C0,00,00,00,00,
2285281,000001DA,false,Rx,1,8,BA,32,58,00,00,01,02,45,
2285447,00000120,false,Rx,1,4,00,00,0E,A7,00,00,00,00,
2290632,000001DB,false,Rx,1,8,FF,A0,BB,8A,29,00,00,88,
2290860,000001DC,false,Rx,1,8,6E,04,A4,A1,EC,DC,C8,10,
2292297,0000011A,false,Rx,1,8,4E,40,00,55,00,00,01,7D,
2292529,000001D4,false,Rx,1,8,F7,07,00,00,47,44,30,B7,
2292761,000001F2,false,Rx,1,8,30,64,20,AC,00,3C,01,8F,
2292994,0000050B,false,Rx,1,7,00,00,06,C0,00,00,00,00,
2294481,000002B5,false,Rx,1,8,00,00,32,00,00,00,00,32,
2294714,000002B6,false,Rx,1,8,02,00,89,02,18,00,8A,1B,
2295278,000001DA,false,Rx,1,8,BA,72,58,00,00,01,03,62,
2295449,00000120,false,Rx,1,4,00,00,0F,22,00,00,00,00,
2295679,0000055A,false,Rx,1,8,1F,34,36,34,55,00,5B,28,
2300621,000001DB,false,Rx,1,8,FF,A0,BB,8A,29,00,01,0D,
2300850,000001DC,false,Rx,1,8,6E,04,A4,A1,E1,0C,E1,55,
2302298,0000011A,false,Rx,1,8,4E,40,00,55,40,00,02,B0,
2302529,000001D4,false,Rx,1,8,F7,07,00,00,87,44,30,7B,
2302772,000001F2,false,Rx,1,8,30,64,20,AC,00,3C,02,8F,
2302994,0000050B,false,Rx,1,7,00,00,06,C0,00,00,00,00,
2305271,000001DA,false,Rx,1,8,BA,72,58,00,00,01,00,68,
2305441,00000120,false,Rx,1,4,00,00,00,00,00,00,00,00,
2306832,0000055B,false,Rx,1,8,A4,40,AA,00,DF,C0,12,1A,
2307074,0000059E,false,Rx,1,8,00,00,0C,76,18,00,00,00,
2307317,000005BC,false,Rx,1,8,3D,80,F0,64,B0,01,00,32,
2310621,000001DB,false,Rx,1,8,FF,A0,BB,8A,29,00,02,07,
2310850,000001DC,false,Rx,1,8,6E,04,A4,A1,E5,04,C6,42,
2312287,0000011A,false,Rx,1,8,4E,40,00,AA,80,00,03,A6,
2312519,000001D4,false,Rx,1,8,F7,07,00,00,C7,44,30,BC,
2312751,000001F2,false,Rx,1,8,30,64,20,AC,00,3C,03,8F,
2312984,0000050B,false,Rx,1,7,00,00,06,C0,00,00,00,00,
2315271,000001DA,false,Rx,1,8,BA,32,58,00,00,01,01,4F,
2315440,00000120,false,Rx,1,4,00,00,01,85,00,00,00,00,
2320626,000001DB,false,Rx,1,8,FF,A0,BB,8A,29,00,03,82,
2320854,000001DC,false,Rx,1,8,6E,04,A4,A1,E8,C0,C3,F9,
2322291,0000011A,false,Rx,1,8,4E,40,00,AA,C0,00,00,6B,
2322522,000001D4,false,Rx,1,8,F7,07,00,00,07,44,30,70,
2322765,000001F2,false,Rx,1,8,30,64,20,AC,00,3C,00,8F,
2323018,00000390,false,Rx,1,8,24,00,01,02,00,00,00,05,
2323241,0000050B,false,Rx,1,7,00,00,06,C0,00,00,00,00,
2325269,000001DA,false,Rx,1,8,BA,32,58,00,00,01,02,45,
2325438,00000120,false,Rx,1,4,00,00,02,8F,00,00,00,00,
2327763,00000393,false,Rx,1,8,26,51,00,00,00,00,00,0D,
2330618,000001DB,false,Rx,1,8,FF,A0,BB,8A,29,00,00,88,
2330846,000001DC,false,Rx,1,8,6E,04,A4,A1,EC,DC,C8,10,
2332294,0000011A,false,Rx,1,8,4E,40,00,55,00,00,01,7D,
2332525,000001D4,false,Rx,1,8,F7,07,00,00,47,44,30,B7,
2332768,000001F2,false,Rx,1,8,30,64,20,AC,00,3C,01,8F,
2332990,0000050B,false,Rx,1,7,00,00,06,C0,00,00,00,00,
2335265,000001DA,false,Rx,1,8,BA,72,58,00,00,01,03,62,
2335435,00000120,false,Rx,1,4,00,00,03,0A,00,00,00,00,
2340620,000001DB,false,Rx,1,8,FF,A0,BB,8A,29,00,01,0D,
2340848,000001DC,false,Rx,1,8,6E,04,A4,A1,E1,0C,E1,55,
2342295,0000011A,false,Rx,1,8,4E,40,00,55,40,00,02,B0,
2342527,000001D4,false,Rx,1,8,F7,07,00,00,87,44,30,7B,
2342769,000001F2,false,Rx,1,8,30,64,20,AC,00,3C,02,8F,
2342992,0000050B,false,Rx,1,7,00,00,06,C0,00,00,00,00,
2345267,000001DA,false,Rx,1,8,BA,72,58,00,00,01,00,68,
2345436,00000120,false,Rx,1,4,00,00,04,9B,00,00,00,00,
2350613,000001DB,false,Rx,1,8,FF,A0,BB,8A,29,00,02,07,
2350840,000001DC,false,Rx,1,8,6E,04,A4,A1,E5,04,C6,42,
2352287,0000011A,false,Rx,1,8,4E,40,00,AA,80,00,03,A6,
2352519,000001D4,false,Rx,1,8,F7,07,00,00,C7,44,30,BC,
2352751,000001F2,false,Rx,1,8,30,64,20,AC,00,3C,03,8F,
2352984,0000050B,false,Rx,1,7,00,00,06,C0,00,00,00,00,
2355271,000001DA,false,Rx,1,8,BA,32,58,00,00,01,01,4F,
2355440,00000120,false,Rx,1,4,00,00,05,1E,00,00,00,00,
2360618,000001DB,false,Rx,1,8,FF,A0,BB,8A,29,00,03,82,
2360845,000001DC,false,Rx,1,8,6E,04,A4,A1,E8,C0,C3,F9,
2362282,0000011A,false,Rx,1,8,4E,40,00,AA,C0,00,00,6B,
2362524,000001D4,false,Rx,1,8,F7,07,00,00,07,44,30,70,
2362767,000001F2,false,Rx,1,8,30,64,20,AC,00,3C,00,8F,
2362989,0000050B,false,Rx,1,7,00,00,06,C0,00,00,00,00,
2365276,000001DA,false,Rx,1,8,BA,32,58,00,00,01,02,45,
2365445,00000120,false,Rx,1,4,00,00,06,14,00,00,00,00,
2370610,000001DB,false,Rx,1,8,FF,A0,BB,8A,29,00,00,88,
2370848,000001DC,false,Rx,1,8,6E,04,A4,A1,EC,DC,C8,10,
2372295,0000011A,false,Rx,1,8,4E,40,00,55,00,00,01,7D,
2372527,000001D4,false,Rx,1,8,F7,07,00,00,47,44,30,B7,
2372759,000001F2,false,Rx,1,8,30,64,20,AC,00,3C,01,8F,
2372992,0000050B,false,Rx,1,7,00,00,06,C0,00,00,00,00,
2375267,000001DA,false,Rx,1,8,BA,72,58,00,00,01,03,62,
2375437,00000120,false,Rx,1,4,00,00,07,91,00,00,00,00,
2380948,000001DB,false,Rx,1,8,FF,A0,BB,8A,29,00,01,0D,
2381186,000001DC,false,Rx,1,8,6E,04,A4,A1,E1,0C,E1,55,
2381410,0000055B,false,Rx,1,8,73,40,AA,00,DE,C0,10,C4,
2381641,000005BC,false,Rx,1,8,14,C0,B5,50,91,01,62,76,
2382290,0000011A,false,Rx,1,8,4E,40,00,55,40,00,02,B0,
2382532,000001D4,false,Rx,1,8,F7,07,00,00,87,44,30,7B,
2382764,000001F2,false,Rx,1,8,30,64,20,AC,00,3C,02,8F,
2383014,0000050B,false,Rx,1,7,00,00,06,C0,00,00,00,00,
2385277,000001DA,false,Rx,1,8,BA,72,58,00,00,01,00,68,
2385446,00000120,false,Rx,1,4,00,00,08,B3,00,00,00,00,
2390859,000001DB,false,Rx,1,8,FF,A0,BB,8A,29,00,02,07,
2391087,000001DC,false,Rx,1,8,6E,04,A4,A1,E5,04,C6,42,
2391321,0000059E,false,Rx,1,8,00,00,0A,12,10,00,00,00,
2391563,000005C0,false,Rx,1,8,C0,60,60,00,72,C8,1F,03,
2392285,0000011A,false,Rx,1,8,4E,40,00,AA,80,00,03,A6,
2392516,000001D4,false,Rx,1,8,F7,07,00,00,C7,44,30,BC,
2392758,000001F2,false,Rx,1,8,30,64,20,AC,00,3C,03,8F,
2392977,0000050B,false,Rx,1,7,00,00,06,C0,00,00,00,00,
2394476,000002B5,false,Rx,1,8,10,00,32,00,00,00,00,22,
2394708,000002B6,false,Rx,1,8,12,00,89,02,18,00,8A,0B,
2395274,000001DA,false,Rx,1,8,BA,32,58,00,00,01,01,4F,
2395444,00000120,false,Rx,1,4,00,00,09,36,00,00,00,00,
2395675,0000055A,false,Rx,1,8,14,34,36,34,55,00,5B,28,
2400612,000001DB,false,Rx,1,8,FF,A0,BB,8A,29,00,03,82,
2400839,000001DC,false,Rx,1,8,6E,04,A4,A1,E8,C0,C3,F9,
2402287,0000011A,false,Rx,1,8,4E,40,00,AA,C0,00,00,6B,
2402519,000001D4,false,Rx,1,8,F7,07,00,00,07,44,30,70,
2402761,000001F2,false,Rx,1,8,30,64,20,AC,00,3C,00,8F,
2402984,0000050B,false,Rx,1,7,00,00,06,C0,00,00,00,00,
2405270,000001DA,false,Rx,1,8,BA,32,58,00,00,01,02,45,
2405439,00000120,false,Rx,1,4,00,00,0A,3C,00,00,00,00,
2406830,0000055B,false,Rx,1,8,A4,40,AA,00,DF,C0,13,9F,
2407072,0000059E,false,Rx,1,8,00,00,0C,76,18,00,00,00,
2407315,000005BC,false,Rx,1,8,3D,80,F0,64,B0,01,00,32,
2410610,000001DB,false,Rx,1,8,FF,A0,BB,8A,29,00,00,88,
2410838,000001DC,false,Rx,1,8,6E,04,A4,A1,EC,DC,C8,10,
2412285,0000011A,false,Rx,1,8,4E,40,00,55,00,00,01,7D,
2412527,000001D4,false,Rx,1,8,F7,07,00,00,47,44,30,B7,
2412759,000001F2,false,Rx,1,8,30,64,20,AC,00,3C,01,8F,
2412982,0000050B,false,Rx,1,7,00,00,06,C0,00,00,00,00,
2415267,000001DA,false,Rx,1,8,BA,72,58,00,00,01,03,62,
2415437,00000120,false,Rx,1,4,00,00,0B,B9,00,00,00,00,
2420601,000001DB,false,Rx,1,8,FF,A0,BB,8A,29,00,01,0D,
2420829,000001DC,false,Rx,1,8,6E,04,A4,A1,E1,0C,E1,55,
2422287,0000011A,false,Rx,1,8,4E,40,00,55,40,00,02,B0,
2422529,000001D4,false,Rx,1,8,F7,07,00,00,87,44,30,7B,
2422761,000001F2,false,Rx,1,8,30,64,20,AC,00,3C,02,8F,
2423015,00000390,false,Rx,1,8,24,00,01,02,00,00,00,16,
2423238,0000050B,false,Rx,1,7,00,00,06,C0,00,00,00,00,
2425267,000001DA,false,Rx,1,8,BA,72,58,00,00,01,00,68,
2425436,00000120,false,Rx,1,4,00,00,0C,28,00,00,00,00,
2427865,00000393,false,Rx,1,8,00,51,00,00,00,00,00,16,
2430606,000001DB,false,Rx,1,8,FF,A0,BB,8A,29,00,02,07,
2430834,000001DC,false,Rx,1,8,6E,04,A4,A1,E5,04,C6,42,
2432282,0000011A,false,Rx,1,8,4E,40,00,AA,80,00,03,A6,
2432514,000001D4,false,Rx,1,8,F7,07,00,00,C7,44,30,BC,
2432758,000001F2,false,Rx,1,8,30,64,20,AC,00,3C,03,8F,
2432979,0000050B,false,Rx,1,7,00,00,06,C0,00,00,00,00,
2435265,000001DA,false,Rx,1,8,BA,32,58,00,00,01,01,4F,
2435435,00000120,false,Rx,1,4,00,00,0D,AD,00,00,00,00,
2440609,000001DB,false,Rx,1,8,FF,A0,BB,8A,29,00,03,82,
2440837,000001DC,false,Rx,1,8,6E,04,A4,A1,E8,C0,C3,F9,
2442285,0000011A,false,Rx,1,8,4E,40,00,AA,C0,00,00,6B,
2442527,000001D4,false,Rx,1,8,F7,07,00,00,07,44,30,70,
2442760,000001F2,false,Rx,1,8,30,64,20,AC,00,3C,00,8F,
2442992,0000050B,false,Rx,1,7,00,00,06,C0,00,00,00,00,
2445267,000001DA,false,Rx,1,8,BA,32,58,00,00,01,02,45,
2445436,00000120,false,Rx,1,4,00,00,0E,A7,00,00,00,00,
2450602,000001DB,false,Rx,1,8,FF,A0,BB,8A,29,00,00,88,
2450840,000001DC,false,Rx,1,8,6E,04,A4,A1,EC,DC,C8,10,
