Time Stamp,ID,Extended,Dir,Bus,LEN,D1,D2,D3,D4,D5,D6,D7,D8
656996899,000002B6,false,Rx,1,8,51,64,88,81,F0,00,74,B8,
657000635,0000011A,false,Rx,1,8,4E,40,00,AA,80,00,03,A6,
657000874,000001D4,false,Rx,1,8,F7,07,00,00,C7,44,30,BC,
657001106,000001F2,false,Rx,1,8,30,64,20,AC,00,3C,03,8F,
657001328,0000050B,false,Rx,1,7,00,00,06,C0,00,00,00,00,
657004654,000001DB,false,Rx,1,8,FF,00,BB,0B,26,00,01,15,
657004882,000001DC,false,Rx,1,8,6E,04,C4,B5,E1,0C,E1,81,
657005416,000001DA,false,Rx,1,8,BA,32,58,00,00,01,02,45,
657005586,00000120,false,Rx,1,4,00,00,02,8F,00,00,00,00,
657010636,0000011A,false,Rx,1,8,4E,40,00,AA,C0,00,00,6B,
657010875,000001D4,false,Rx,1,8,F7,07,00,00,07,44,30,70,
657011117,000001F2,false,Rx,1,8,30,64,20,AC,00,3C,00,8F,
657011340,0000050B,false,Rx,1,7,00,00,06,C0,00,00,00,00,
657014655,000001DB,false,Rx,1,8,FE,E0,BB,0B,26,00,02,2A,
657014882,000001DC,false,Rx,1,8,6E,04,C4,B5,E5,04,C6,96,
657015417,000001DA,false,Rx,1,8,BA,72,58,00,00,01,03,62,
657015586,00000120,false,Rx,1,4,00,00,03,0A,00,00,00,00,
657020650,0000011A,false,Rx,1,8,4E,40,00,55,00,00,01,7D,
657020878,000001D4,false,Rx,1,8,F7,07,00,00,47,44,30,B7,
657021110,000001F2,false,Rx,1,8,30,64,20,AC,00,3C,01,8F,
657021342,0000050B,false,Rx,1,7,00,00,06,C0,00,00,00,00,
657024648,000001DB,false,Rx,1,8,FF,00,BB,0B,26,00,03,9A,
657024886,000001DC,false,Rx,1,8,6E,04,C4,B5,E8,C0,C3,2D,
657025420,000001DA,false,Rx,1,8,BA,72,58,00,00,01,00,68,
657025590,00000120,false,Rx,1,4,00,00,04,9B,00,00,00,00,
657030643,0000011A,false,Rx,1,8,4E,40,00,55,40,00,02,B0,
657030881,000001D4,false,Rx,1,8,F7,07,00,00,87,44,30,7B,
657031123,000001F2,false,Rx,1,8,30,64,20,AC,00,3C,02,8F,
657031347,0000050B,false,Rx,1,7,00,00,06,C0,00,00,00,00,
657034651,000001DB,false,Rx,1,8,FF,20,BB,0B,26,00,00,C1,
657034879,000001DC,false,Rx,1,8,6E,04,C4,B5,EC,DC,C8,C4,
657035413,000001DA,false,Rx,1,8,BA,32,58,00,00,01,01,4F,
657035583,00000120,false,Rx,1,4,00,00,05,1E,00,00,00,00,
657040636,0000011A,false,Rx,1,8,4E,40,00,AA,80,00,03,A6,
657040864,000001D4,false,Rx,1,8,F7,07,00,00,C7,44,30,BC,
657041106,000001F2,false,Rx,1,8,30,64,20,AC,00,3C,03,8F,
657041329,0000050B,false,Rx,1,7,00,00,06,C0,00,00,00,00,
657044990,000001DB,false,Rx,1,8,FF,20,BB,0B,26,00,01,44,
657045220,000001DC,false,Rx,1,8,6E,04,C4,B5,E1,0C,E1,81,
657045389,00000120,false,Rx,1,4,00,00,06,14,00,00,00,00,
657045620,000001DA,false,Rx,1,8,BA,32,58,00,00,01,02,45,
657045852,0000055B,false,Rx,1,8,6E,80,AA,00,D2,80,10,C6,
657046084,000005BC,false,Rx,1,8,13,80,64,50,90,02,40,5A,
657050450,00000390,false,Rx,1,8,24,00,01,02,00,00,00,38,
657050679,0000011A,false,Rx,1,8,4E,40,00,AA,C0,00,00,6B,
657050921,000001D4,false,Rx,1,8,F7,07,00,00,07,44,30,70,
657051163,000001F2,false,Rx,1,8,30,64,20,AC,00,3C,00,8F,
657051387,0000050B,false,Rx,1,7,00,00,06,C0,00,00,00,00,
657054653,000001DB,false,Rx,1,8,FF,20,BB,0B,26,00,02,4E,
657054881,000001DC,false,Rx,1,8,6E,04,C4,B5,E5,04,C6,96,
657055415,000001DA,false,Rx,1,8,BA,72,58,00,00,01,03,62,
657055585,00000120,false,Rx,1,4,00,00,07,91,00,00,00,00,
657055826,00000393,false,Rx,1,8,26,51,00,00,00,00,00,30,
657060645,0000011A,false,Rx,1,8,4E,40,00,55,00,00,01,7D,
657060873,000001D4,false,Rx,1,8,F7,07,00,00,47,44,30,B7,
657061114,000001F2,false,Rx,1,8,30,64,20,AC,00,3C,01,8F,
657061337,0000050B,false,Rx,1,7,00,00,06,C0,00,00,00,00,
657064642,000001DB,false,Rx,1,8,FF,20,BB,0B,26,00,03,CB,
657064880,000001DC,false,Rx,1,8,6E,04,C4,B5,E8,C0,C3,2D,
657065424,000001DA,false,Rx,1,8,BA,72,58,00,00,01,00,68,
657065594,00000120,false,Rx,1,4,00,00,08,B3,00,00,00,00,
657070647,0000011A,false,Rx,1,8,4E,40,00,55,40,00,02,B0,
657070885,000001D4,false,Rx,1,8,F7,07,00,00,87,44,30,7B,
657071117,000001F2,false,Rx,1,8,30,64,20,AC,00,3C,02,8F,
657071351,0000050B,false,Rx,1,7,00,00,06,C0,00,00,00,00,
657074644,000001DB,false,Rx,1,8,FF,40,BB,0B,26,00,00,32,
657074872,000001DC,false,Rx,1,8,6E,04,C4,B5,EC,DC,C8,C4,
657075427,000001DA,false,Rx,1,8,BA,32,58,00,00,01,01,4F,
657075596,00000120,false,Rx,1,4,00,00,09,36,00,00,00,00,
657075817,0000055A,false,Rx,1,8,14,36,37,35,55,00,5B,48,
657080635,0000011A,false,Rx,1,8,4E,40,00,AA,80,00,03,A6,
657080862,000001D4,false,Rx,1,8,F7,07,00,00,C7,44,30,BC,
657081104,000001F2,false,Rx,1,8,30,64,20,AC,00,3C,03,8F,
657081328,0000050B,false,Rx,1,7,00,00,06,C0,00,00,00,00,
657084642,000001DB,false,Rx,1,8,FF,60,BB,0B,26,00,01,E6,
657084869,000001DC,false,Rx,1,8,6E,04,C4,B5,E1,0C,E1,81,
657085185,0000055B,false,Rx,1,8,A4,40,AA,00,DF,C0,11,10,
657085418,0000059E,false,Rx,1,8,00,00,0C,76,18,00,00,00,
657085588,00000120,false,Rx,1,4,00,00,0A,3C,00,00,00,00,
657085818,000001DA,false,Rx,1,8,BA,32,58,00,00,01,02,45,
657086061,000005BC,false,Rx,1,8,3D,80,F0,64,B0,01,00,32,
657090635,0000011A,false,Rx,1,8,4E,40,00,AA,C0,00,00,6B,
657090873,000001D4,false,Rx,1,8,F7,07,00,00,07,44,30,70,
657091115,000001F2,false,Rx,1,8,30,64,20,AC,00,3C,00,8F,
657091339,0000050B,false,Rx,1,7,00,00,06,C0,00,00,00,00,
657094643,000001DB,false,Rx,1,8,FF,80,BB,0B,26,00,02,DE,
657094871,000001DC,false,Rx,1,8,6E,04,C4,B5,E5,04,C6,96,
657095415,000001DA,false,Rx,1,8,BA,72,58,00,00,01,03,62,
657095585,00000120,false,Rx,1,4,00,00,0B,B9,00,00,00,00,
657096615,000002B5,false,Rx,1,8,60,00,32,00,00,00,00,52,
657096850,000002B6,false,Rx,1,8,60,00,88,81,F0,00,74,ED,
657100639,0000011A,false,Rx,1,8,4E,40,00,55,00,00,01,7D,
657100877,000001D4,false,Rx,1,8,F7,07,00,00,47,44,30,B7,
657101109,000001F2,false,Rx,1,8,30,64,20,AC,00,3C,01,8F,
657101333,0000050B,false,Rx,1,7,00,00,06,C0,00,00,00,00,
657104636,000001DB,false,Rx,1,8,FF,A0,BB,0B,26,00,03,0A,
657104874,000001DC,false,Rx,1,8,6E,04,C4,B5,E8,C0,C3,2D,
657105409,000001DA,false,Rx,1,8,BA,72,58,00,00,01,00,68,
657105578,00000120,false,Rx,1,4,00,00,0C,28,00,00,00,00,
657110641,0000011A,false,Rx,1,8,4E,40,00,55,40,00,02,B0,
657110879,000001D4,false,Rx,1,8,F7,07,00,00,87,44,30,7B,
657111121,000001F2,false,Rx,1,8,30,64,20,AC,00,3C,02,8F,
657111345,0000050B,false,Rx,1,7,00,00,06,C0,00,00,00,00,
657114639,000001DB,false,Rx,1,8,FF,A0,BB,0B,26,00,00,00,
657114867,000001DC,false,Rx,1,8,6E,04,C4,B5,EC,DC,C8,C4,
657115411,000001DA,false,Rx,1,8,BA,32,58,00,00,01,01,4F,
657115581,00000120,false,Rx,1,4,00,00,0D,AD,00,00,00,00,
657120634,0000011A,false,Rx,1,8,4E,40,00,AA,80,00,03,A6,
657120862,000001D4,false,Rx,1,8,F7,07,00,00,C7,44,30,BC,
657121104,000001F2,false,Rx,1,8,30,64,20,AC,00,3C,03,8F,
657121328,0000050B,false,Rx,1,7,00,00,06,C0,00,00,00,00,
657124642,000001DB,false,Rx,1,8,FF,A0,BB,0B,26,00,01,85,
657124869,000001DC,false,Rx,1,8,6E,04,C4,B5,E1,0C,E1,81,
657125414,000001DA,false,Rx,1,8,BA,32,58,00,00,01,02,45,
657125584,00000120,false,Rx,1,4,00,00,0E,A7,00,00,00,00,
657130637,0000011A,false,Rx,1,8,4E,40,00,AA,C0,00,00,6B,
657130875,000001D4,false,Rx,1,8,F7,07,00,00,07,44,30,70,
657131117,000001F2,false,Rx,1,8,30,64,20,AC,00,3C,00,8F,
657131341,0000050B,false,Rx,1,7,00,00,06,C0,00,00,00,00,
657134634,000001DB,false,Rx,1,8,FF,A0,BB,0B,26,00,02,8F,
657134861,000001DC,false,Rx,1,8,6E,04,C4,B5,E5,04,C6,96,
657135416,000001DA,false,Rx,1,8,BA,72,58,00,00,01,03,62,
657135586,00000120,false,Rx,1,4,00,00,0F,22,00,00,00,00,
76551,000002A0,false,Tx,1,8,7B,8D,01,46,55,60,33,E4,
657140639,0000011A,false,Rx,1,8,4E,40,00,55,00,00,01,7D,
657140877,000001D4,false,Rx,1,8,F7,07,00,00,47,44,30,B7,
657141175,000001F2,false,Rx,1,8,30,64,20,AC,00,3C,01,8F,
657141336,0000050B,false,Rx,1,7,00,00,06,C0,00,00,00,00,
657144978,000001DB,false,Rx,1,8,FF,A0,BB,0B,26,00,03,0A,
657145207,000001DC,false,Rx,1,8,6E,04,C4,B5,E8,C0,C3,2D,
657145440,000001DA,false,Rx,1,8,BA,72,58,00,00,01,00,68,
657145620,00000120,false,Rx,1,4,00,00,00,00,00,00,00,00,
657145852,0000055B,false,Rx,1,8,6E,80,AA,00,D2,80,11,43,
657146083,000005BC,false,Rx,1,8,13,80,64,50,90,02,A0,96,
657150556,00000390,false,Rx,1,8,24,00,01,02,00,00,00,05,
657150794,0000011A,false,Rx,1,8,4E,40,00,55,40,00,02,B0,
657151025,000001D4,false,Rx,1,8,F7,07,00,00,87,44,30,7B,
657151270,000001F2,false,Rx,1,8,30,64,20,AC,00,3C,02,8F,
657151491,0000050B,false,Rx,1,7,00,00,06,C0,00,00,00,00,
657154885,000001DB,false,Rx,1,8,FF,A0,BB,0B,26,00,00,00,
657155103,000001DC,false,Rx,1,8,6E,04,C4,B5,EC,DC,C8,C4,
657155346,0000059E,false,Rx,1,8,00,00,0A,11,F0,00,00,00,
657155516,00000120,false,Rx,1,4,00,00,01,85,00,00,00,00,
657155757,000001DA,false,Rx,1,8,BA,32,58,00,00,01,01,4F,
657156000,00000393,false,Rx,1,8,00,51,00,00,00,00,00,05,
657156243,000005C0,false,Rx,1,8,80,62,62,00,72,C8,1F,00,
657160636,0000011A,false,Rx,1,8,4E,40,00,AA,80,00,03,A6,
657160864,000001D4,false,Rx,1,8,F7,07,00,00,C7,44,30,BC,
657161106,000001F2,false,Rx,1,8,30,64,20,AC,00,3C,03,8F,
657161330,0000050B,false,Rx,1,7,00,00,06,C0,00,00,00,00,
657164634,000001DB,false,Rx,1,8,FF,A0,BB,0B,26,00,01,85,
657164861,000001DC,false,Rx,1,8,6E,04,C4,B5,E1,0C,E1,81,
657165416,000001DA,false,Rx,1,8,BA,32,58,00,00,01,02,45,
657165586,00000120,false,Rx,1,4,00,00,02,8F,00,00,00,00,
657170629,0000011A,false,Rx,1,8,4E,40,00,AA,C0,00,00,6B,
657170867,000001D4,false,Rx,1,8,F7,07,00,00,07,44,30,70,
657171109,000001F2,false,Rx,1,8,30,64,20,AC,00,3C,00,8F,
657171333,0000050B,false,Rx,1,7,00,00,06,C0,00,00,00,00,
657174626,000001DB,false,Rx,1,8,FF,A0,BB,0B,26,00,02,8F,
657174853,000001DC,false,Rx,1,8,6E,04,C4,B5,E5,04,C6,96,
657175409,000001DA,false,Rx,1,8,BA,72,58,00,00,01,03,62,
657175589,00000120,false,Rx,1,4,00,00,03,0A,00,00,00,00,
657175810,0000055A,false,Rx,1,8,19,36,37,35,55,00,5B,48,
657180639,0000011A,false,Rx,1,8,4E,40,00,55,00,00,01,7D,
657180877,000001D4,false,Rx,1,8,F7,07,00,00,47,44,30,B7,
657181108,000001F2,false,Rx,1,8,30,64,20,AC,00,3C,01,8F,
657181332,0000050B,false,Rx,1,7,00,00,06,C0,00,00,00,00,
657184625,000001DB,false,Rx,1,8,FF,A0,BB,0B,26,00,03,0A,
657184863,000001DC,false,Rx,1,8,6E,04,C4,B5,E8,C0,C3,2D,
657185179,0000055B,false,Rx,1,8,A4,40,AA,00,DF,C0,12,1A,
657185422,0000059E,false,Rx,1,8,00,00,0C,76,18,00,00,00,
657185582,00000120,false,Rx,1,4,00,00,04,9B,00,00,00,00,
657185824,000001DA,false,Rx,1,8,BA,72,58,00,00,01,00,68,
657186066,000005BC,false,Rx,1,8,3D,80,F0,64,B0,01,00,32,
126412,000002A0,false,Tx,1,8,3E,BA,01,67,8E,60,EB,86,
657190757,0000011A,false,Rx,1,8,4E,40,00,55,40,00,02,B0,
657190879,000001D4,false,Rx,1,8,F7,07,00,00,87,44,30,7B,
657191108,000001F2,false,Rx,1,8,30,64,20,AC,00,3C,02,8F,
657191574,0000050B,false,Rx,1,7,00,00,06,C0,00,00,00,00,
657194628,000001DB,false,Rx,1,8,FF,A0,BB,0B,26,00,00,00,
657194856,000001DC,false,Rx,1,8,6E,04,C4,B5,EC,DC,C8,C4,
657195411,000001DA,false,Rx,1,8,BA,32,58,00,00,01,01,4F,
657195581,00000120,false,Rx,1,4,00,00,05,1E,00,00,00,00,
657196674,000002B5,false,Rx,1,8,70,00,32,00,00,00,00,42,
657196907,000002B6,false,Rx,1,8,70,00,89,01,F0,00,74,7C,
657200634,0000011A,false,Rx,1,8,4E,40,00,AA,80,00,03,A6,
657200871,000001D4,false,Rx,1,8,F7,07,00,00,C7,44,30,BC,
657201103,000001F2,false,Rx,1,8,30,64,20,AC,00,3C,03,8F,
657201327,0000050B,false,Rx,1,7,00,00,06,C0,00,00,00,00,
657204630,000001DB,false,Rx,1,8,FF,A0,BB,0B,26,00,01,85,
657204851,000001DC,false,Rx,1,8,6E,04,C4,B5,E1,0C,E1,81,
657205415,000001DA,false,Rx,1,8,BA,32,58,00,00,01,02,45,
657205584,00000120,false,Rx,1,4,00,00,06,14,00,00,00,00,
657210633,0000011A,false,Rx,1,8,4E,40,00,AA,C0,00,00,6B,
657210871,000001D4,false,Rx,1,8,F7,07,00,00,07,44,30,70,
657211114,000001F2,false,Rx,1,8,30,64,20,AC,00,3C,00,8F,
657211337,0000050B,false,Rx,1,7,00,00,06,C0,00,00,00,00,
657214629,000001DB,false,Rx,1,8,FF,A0,BB,0B,26,00,02,8F,
657214857,000001DC,false,Rx,1,8,6E,04,C4,B5,E5,04,C6,96,
657215412,000001DA,false,Rx,1,8,BA,72,58,00,00,01,03,62,
657215582,00000120,false,Rx,1,4,00,00,07,91,00,00,00,00,
657220636,0000011A,false,Rx,1,8,4E,40,00,55,00,00,01,7D,
657220874,000001D4,false,Rx,1,8,F7,07,00,00,47,44,30,B7,
657221107,000001F2,false,Rx,1,8,30,64,20,AC,00,3C,01,8F,
657221330,0000050B,false,Rx,1,7,00,00,06,C0,00,00,00,00,
657224623,000001DB,false,Rx,1,8,FF,A0,BB,0B,26,00,03,0A,
657224851,000001DC,false,Rx,1,8,6E,04,C4,B5,E8,C0,C3,2D,
657225406,000001DA,false,Rx,1,8,BA,72,58,00,00,01,00,68,
657225576,00000120,false,Rx,1,4,00,00,08,B3,00,00,00,00,
657230639,0000011A,false,Rx,1,8,4E,40,00,55,40,00,02,B0,
657230877,000001D4,false,Rx,1,8,F7,07,00,00,87,44,30,7B,
657231110,000001F2,false,Rx,1,8,30,64,20,AC,00,3C,02,8F,
657231343,0000050B,false,Rx,1,7,00,00,06,C0,00,00,00,00,
657234626,000001DB,false,Rx,1,8,FF,A0,BB,0B,26,00,00,00,
657234854,000001DC,false,Rx,1,8,6E,04,C4,B5,EC,DC,C8,C4,
657235409,000001DA,false,Rx,1,8,BA,32,58,00,00,01,01,4F,
657235578,00000120,false,Rx,1,4,00,00,09,36,00,00,00,00,
657240632,0000011A,false,Rx,1,8,4E,40,00,AA,80,00,03,A6,
657240859,000001D4,false,Rx,1,8,F7,07,00,00,C7,44,30,BC,
657241103,000001F2,false,Rx,1,8,30,64,20,AC,00,3C,03,8F,
657241326,0000050B,false,Rx,1,7,00,00,06,C0,00,00,00,00,
657244966,000001DB,false,Rx,1,8,FF,A0,BB,0B,26,00,01,85,
657245194,000001DC,false,Rx,1,8,6E,04,C4,B5,E1,0C,E1,81,
657245427,0000055B,false,Rx,1,8,6E,80,AA,00,D1,80,12,C1,
657245596,00000120,false,Rx,1,4,00,00,0A,3C,00,00,00,00,
657245828,000001DA,false,Rx,1,8,BA,32,58,00,00,01,02,45,
657246070,000005BC,false,Rx,1,8,13,80,B5,50,91,03,01,A4,
657250626,0000011A,false,Rx,1,8,4E,40,00,AA,C0,00,00,6B,
657250864,000001D4,false,Rx,1,8,F7,07,00,00,07,44,30,70,
657251108,000001F2,false,Rx,1,8,30,64,20,AC,00,3C,00,8F,
657251351,00000390,false,Rx,1,8,24,00,01,02,00,00,00,16,
657251583,0000050B,false,Rx,1,7,00,00,06,C0,00,00,00,00,
657254619,000001DB,false,Rx,1,8,FF,A0,BB,0B,26,00,02,8F,
657254847,000001DC,false,Rx,1,8,6E,04,C4,B5,E5,04,C6,96,
657255412,000001DA,false,Rx,1,8,BA,72,58,00,00,01,03,62,
657255582,00000120,false,Rx,1,4,00,00,0B,B9,00,00,00,00,
657255824,00000393,false,Rx,1,8,26,51,00,00,00,00,00,1E,
657260642,0000011A,false,Rx,1,8,4E,40,00,55,00,00,01,7D,
657260870,000001D4,false,Rx,1,8,F7,07,00,00,47,44,30,B7,
657261103,000001F2,false,Rx,1,8,30,64,20,AC,00,3C,01,8F,
657261336,0000050B,false,Rx,1,7,00,00,06,C0,00,00,00,00,
657264619,000001DB,false,Rx,1,8,FF,A0,BB,0B,26,00,03,0A,
657264847,000001DC,false,Rx,1,8,6E,04,C4,B5,E8,C0,C3,2D,
657265422,000001DA,false,Rx,1,8,BA,72,58,00,00,01,00,68,
657265592,00000120,false,Rx,1,4,00,00,0C,28,00,00,00,00,
657270635,0000011A,false,Rx,1,8,4E,40,00,55,40,00,02,B0,
657270873,000001D4,false,Rx,1,8,F7,07,00,00,87,44,30,7B,
657271117,000001F2,false,Rx,1,8,30,64,20,AC,00,3C,02,8F,
657271339,0000050B,false,Rx,1,7,00,00,06,C0,00,00,00,00,
657274622,000001DB,false,Rx,1,8,FF,A0,BB,0B,26,00,00,00,
657274851,000001DC,false,Rx,1,8,6E,04,C4,B5,EC,DC,C8,C4,
657275415,000001DA,false,Rx,1,8,BA,32,58,00,00,01,01,4F,
657275584,00000120,false,Rx,1,4,00,00,0D,AD,00,00,00,00,
657275816,0000055A,false,Rx,1,8,1A,36,37,35,55,00,5B,48,
657280634,0000011A,false,Rx,1,8,4E,40,00,AA,80,00,03,A6,
657280861,000001D4,false,Rx,1,8,F7,07,00,00,C7,44,30,BC,
657281094,000001F2,false,Rx,1,8,30,64,20,AC,00,3C,03,8F,
657281327,0000050B,false,Rx,1,7,00,00,06,C0,00,00,00,00,
657284621,000001DB,false,Rx,1,8,FF,A0,BB,0A,26,00,01,93,
657284850,000001DC,false,Rx,1,8,6E,04,C4,B5,E1,0C,E1,81,
657285185,0000055B,false,Rx,1,8,A4,40,AA,00,DF,C0,13,9F,
657285419,0000059E,false,Rx,1,8,00,00,0C,76,18,00,00,00,
657285589,00000120,false,Rx,1,4,00,00,0E,A7,00,00,00,00,
657285821,000001DA,false,Rx,1,8,BA,32,58,00,00,01,02,45,
657286063,000005BC,false,Rx,1,8,3D,80,F0,64,B0,01,00,32,
4295176923,0000011A,false,Rx,1,8,4E,40,00,AA,C0,00,00,6B,
4295177161,000001D4,false,Rx,1,8,F7,07,00,00,07,44,30,70,
4295177404,000001F2,false,Rx,1,8,30,64,20,AC,00,3C,00,8F,
4295177627,0000050B,false,Rx,1,7,00,00,06,C0,00,00,00,00,
4295180910,000001DB,false,Rx,1,8,FF,A0,BB,0A,26,00,02,99,
232472,000002A0,false,Tx,1,8,C6,A3,01,FC,9C,60,5A,D8,
4295181139,000001DC,false,Rx,1,8,6E,04,C4,B5,E5,04,C6,96,
4295181713,000001DA,false,Rx,1,8,BA,72,58,00,00,01,03,62,
4295181884,00000120,false,Rx,1,4,00,00,0F,22,00,00,00,00,
4295182904,000002B5,false,Rx,1,8,80,00,32,00,00,00,00,B2,
4295183150,000002B6,false,Rx,1,8,80,00,89,01,F0,00,74,8C,
4295186933,0000011A,false,Rx,1,8,4E,40,00,55,00,00,01,7D,
4295187160,000001D4,false,Rx,1,8,F7,07,00,00,47,44,30,B7,
4295187404,000001F2,false,Rx,1,8,30,64,20,AC,00,3C,01,8F,
4295187626,0000050B,false,Rx,1,7,00,00,06,C0,00,00,00,00,
4295190908,000001DB,false,Rx,1,8,FF,A0,BB,0A,26,00,03,1C,
4295191137,000001DC,false,Rx,1,8,6E,04,C4,B5,E8,C0,C3,2D,
4295191712,000001DA,false,Rx,1,8,BA,72,58,00,00,01,00,68,
4295191883,00000120,false,Rx,1,4,00,00,00,00,00,00,00,00,
4295196935,0000011A,false,Rx,1,8,4E,40,00,55,40,00,02,B0,
4295197173,000001D4,false,Rx,1,8,F7,07,00,00,87,44,30,7B,
4295197406,000001F2,false,Rx,1,8,30,64,20,AC,00,3C,02,8F,
4295197628,0000050B,false,Rx,1,7,00,00,06,C0,00,00,00,00,
4295200912,000001DB,false,Rx,1,8,FF,A0,BB,0A,26,00,00,16,
4295201141,000001DC,false,Rx,1,8,6E,04,C4,B5,EC,DC,C8,C4,
4295201705,000001DA,false,Rx,1,8,BA,32,58,00,00,01,01,4F,
4295201876,00000120,false,Rx,1,4,00,00,01,85,00,00,00,00,
4295206929,0000011A,false,Rx,1,8,4E,40,00,AA,80,00,03,A6,
4295207156,000001D4,false,Rx,1,8,F7,07,00,00,C7,44,30,BC,
4295207389,000001F2,false,Rx,1,8,30,64,20,AC,00,3C,03,8F,
4295207622,0000050B,false,Rx,1,7,00,00,06,C0,00,00,00,00,
4295210905,000001DB,false,Rx,1,8,FF,A0,BB,0A,26,00,01,93,
4295211134,000001DC,false,Rx,1,8,6E,04,C4,B5,E1,0C,E1,81,
4295211708,000001DA,false,Rx,1,8,BA,32,58,00,00,01,02,45,
4295211879,00000120,false,Rx,1,4,00,00,02,8F,00,00,00,00,
4295216923,0000011A,false,Rx,1,8,4E,40,00,AA,C0,00,00,6B,
4295217161,000001D4,false,Rx,1,8,F7,07,00,00,07,44,30,70,
4295217404,000001F2,false,Rx,1,8,30,64,20,AC,00,3C,00,8F,
4295217627,0000050B,false,Rx,1,7,00,00,06,C0,00,00,00,00,
4295220910,000001DB,false,Rx,1,8,FF,A0,BB,0A,26,00,02,99,
4295221129,000001DC,false,Rx,1,8,6E,04,C4,B5,E5,04,C6,96,
4295221703,000001DA,false,Rx,1,8,BA,72,58,00,00,01,03,62,
4295221874,00000120,false,Rx,1,4,00,00,03,0A,00,00,00,00,
4295226926,0000011A,false,Rx,1,8,4E,40,00,55,00,00,01,7D,
4295227164,000001D4,false,Rx,1,8,F7,07,00,00,47,44,30,B7,
4295227397,000001F2,false,Rx,1,8,30,64,20,AC,00,3C,01,8F,
4295227630,0000050B,false,Rx,1,7,00,00,06,C0,00,00,00,00,
4295231249,000001DB,false,Rx,1,8,FF,A0,BB,0A,26,00,03,1C,
4295231477,000001DC,false,Rx,1,8,6E,04,C4,B5,E8,C0,C3,2D,
4295231710,0000055B,false,Rx,1,8,6E,80,AA,00,D1,80,13,44,
4295231871,00000120,false,Rx,1,4,00,00,04,9B,00,00,00,00,
4295232112,000001DA,false,Rx,1,8,BA,72,58,00,00,01,00,68,
4295232343,000005BC,false,Rx,1,8,13,80,B5,50,91,00,1F,FF,
4295236931,0000011A,false,Rx,1,8,4E,40,00,55,40,00,02,B0,
4295237169,000001D4,false,Rx,1,8,F7,07,00,00,87,44,30,7B,
4295237402,000001F2,false,Rx,1,8,30,64,20,AC,00,3C,02,8F,
4295237656,00000390,false,Rx,1,8,24,00,01,02,00,00,00,27,
4295237877,0000050B,false,Rx,1,7,00,00,06,C0,00,00,00,00,
4295240913,000001DB,false,Rx,1,8,FF,A0,BB,0A,26,00,00,16,
4295241142,000001DC,false,Rx,1,8,6E,04,C4,B5,EC,DC,C8,C4,
4295241706,000001DA,false,Rx,1,8,BA,32,58,00,00,01,01,4F,
4295241877,00000120,false,Rx,1,4,00,00,05,1E,00,00,00,00,
4295242118,00000393,false,Rx,1,8,00,51,00,00,00,00,00,27,
4295246925,0000011A,false,Rx,1,8,4E,40,00,AA,80,00,03,A6,
4295247152,000001D4,false,Rx,1,8,F7,07,00,00,C7,44,30,BC,
4295247396,000001F2,false,Rx,1,8,30,64,20,AC,00,3C,03,8F,
4295247618,0000050B,false,Rx,1,7,00,00,06,C0,00,00,00,00,
4295250901,000001DB,false,Rx,1,8,FF,A0,BB,0A,26,00,01,93,
4295251130,000001DC,false,Rx,1,8,6E,04,C4,B5,E1,0C,E1,81,
4295251705,000001DA,false,Rx,1,8,BA,32,58,00,00,01,02,45,
4295251876,00000120,false,Rx,1,4,00,00,06,14,00,00,00,00,
4295256929,0000011A,false,Rx,1,8,4E,40,00,AA,C0,00,00,6B,
4295257168,000001D4,false,Rx,1,8,F7,07,00,00,07,44,30,70,
4295257400,000001F2,false,Rx,1,8,30,64,20,AC,00,3C,00,8F,
4295257633,0000050B,false,Rx,1,7,00,00,06,C0,00,00,00,00,
4295260905,000001DB,false,Rx,1,8,FF,A0,BB,0A,26,00,02,99,
4295261134,000001DC,false,Rx,1,8,6E,04,C4,B5,E5,04,C6,96,
4295261708,000001DA,false,Rx,1,8,BA,72,58,00,00,01,03,62,
4295261879,00000120,false,Rx,1,4,00,00,07,91,00,00,00,00,
4295262110,0000055A,false,Rx,1,8,1F,36,37,35,55,00,5B,48,
4295266927,0000011A,false,Rx,1,8,4E,40,00,55,00,00,01,7D,
4295267167,000001D4,false,Rx,1,8,F7,07,00,00,47,44,30,B7,
4295267398,000001F2,false,Rx,1,8,30,64,20,AC,00,3C,01,8F,
4295267622,0000050B,false,Rx,1,7,00,00,06,C0,00,00,00,00,
4295270905,000001DB,false,Rx,1,8,FF,A0,BB,0A,26,00,03,1C,
4295271134,000001DC,false,Rx,1,8,6E,04,C4,B5,E8,C0,C3,2D,
4295271469,0000055B,false,Rx,1,8,A4,40,AA,00,DF,C0,10,95,
4295271712,0000059E,false,Rx,1,8,00,00,0C,76,18,00,00,00,
4295271945,000001DA,false,Rx,1,8,BA,72,58,00,00,01,00,68,
4295272115,00000120,false,Rx,1,4,00,00,08,B3,00,00,00,00,
4295272356,000005BC,false,Rx,1,8,3D,80,F0,64,B0,01,00,32,
4295276929,0000011A,false,Rx,1,8,4E,40,00,55,40,00,02,B0,
4295277168,000001D4,false,Rx,1,8,F7,07,00,00,87,44,30,7B,
4295277410,000001F2,false,Rx,1,8,30,64,20,AC,00,3C,02,8F,
4295277632,0000050B,false,Rx,1,7,00,00,06,C0,00,00,00,00,
4295280905,000001DB,false,Rx,1,8,FF,A0,BB,0A,26,00,00,16,
4295281134,000001DC,false,Rx,1,8,6E,04,C4,B5,EC,DC,C8,C4,
4295281708,000001DA,false,Rx,1,8,BA,32,58,00,00,01,01,4F,
4295281879,00000120,false,Rx,1,4,00,00,09,36,00,00,00,00,
4295282909,000002B5,false,Rx,1,8,90,00,32,00,00,00,00,A2,
4295283143,000002B6,false,Rx,1,8,90,00,89,01,F0,00,74,9C,
4295286922,0000011A,false,Rx,1,8,4E,40,00,AA,80,00,03,A6,
4295287151,000001D4,false,Rx,1,8,F7,07,00,00,C7,44,30,BC,
4295287393,000001F2,false,Rx,1,8,30,64,20,AC,00,3C,03,8F,
4295287616,0000050B,false,Rx,1,7,00,00,06,C0,00,00,00,00,
4295290898,000001DB,false,Rx,1,8,FF,A0,BB,0A,26,00,01,93,
4295291127,000001DC,false,Rx,1,8,6E,04,C4,B5,E1,0C,E1,81,
4295291701,000001DA,false,Rx,1,8,BA,32,58,00,00,01,02,45,
4295291872,00000120,false,Rx,1,4,00,00,0A,3C,00,00,00,00,
4295296924,0000011A,false,Rx,1,8,4E,40,00,AA,C0,00,00,6B,
4295297163,000001D4,false,Rx,1,8,F7,07,00,00,07,44,30,70,
4295297405,000001F2,false,Rx,1,8,30,64,20,AC,00,3C,00,8F,
4295297627,0000050B,false,Rx,1,7,00,00,06,C0,00,00,00,00,
4295300900,000001DB,false,Rx,1,8,FF,A0,BB,0A,26,00,02,99,
352120,000002A0,false,Tx,1,8,91,41,01,BF,5C,60,B6,1F,
4295301118,000001DC,false,Rx,1,8,6E,04,C4,B5,E5,04,C6,96,
4295301704,000001DA,false,Rx,1,8,BA,72,58,00,00,01,03,62,
4295301874,00000120,false,Rx,1,4,00,00,0B,B9,00,00,00,00,
4295306924,0000011A,false,Rx,1,8,4E,40,00,55,00,00,01,7D,
4295307163,000001D4,false,Rx,1,8,F7,07,00,00,47,44,30,B7,
4295307395,000001F2,false,Rx,1,8,30,64,20,AC,00,3C,01,8F,
4295307628,0000050B,false,Rx,1,7,00,00,06,C0,00,00,00,00,
4295310890,000001DB,false,Rx,1,8,FF,A0,BB,0A,26,00,03,1C,
4295311119,000001DC,false,Rx,1,8,6E,04,C4,B5,E8,C0,C3,2D,
4295311705,000001DA,false,Rx,1,8,BA,72,58,00,00,01,00,68,
4295311875,00000120,false,Rx,1,4,00,00,0C,28,00,00,00,00,
4295316928,0000011A,false,Rx,1,8,4E,40,00,55,40,00,02,B0,
4295317167,000001D4,false,Rx,1,8,F7,07,00,00,87,44,30,7B,
4295317409,000001F2,false,Rx,1,8,30,64,20,AC,00,3C,02,8F,
4295317632,0000050B,false,Rx,1,7,00,00,06,C0,00,00,00,00,
4295320895,000001DB,false,Rx,1,8,FF,A0,BB,0A,26,00,00,16,
4295321123,000001DC,false,Rx,1,8,6E,04,C4,B5,EC,DC,C8,C4,
4295321709,000001DA,false,Rx,1,8,BA,32,58,00,00,01,01,4F,
4295321869,00000120,false,Rx,1,4,00,00,0D,AD,00,00,00,00,
4295326921,0000011A,false,Rx,1,8,4E,40,00,AA,80,00,03,A6,
4295327150,000001D4,false,Rx,1,8,F7,07,00,00,C7,44,30,BC,
4295327392,000001F2,false,Rx,1,8,30,64,20,AC,00,3C,03,8F,
4295327614,0000050B,false,Rx,1,7,00,00,06,C0,00,00,00,00,
4295331234,000001DB,false,Rx,1,8,FF,A0,BB,0A,26,00,01,93,
4295331461,000001DC,false,Rx,1,8,6E,04,C4,B5,E1,0C,E1,81,
4295331695,0000055B,false,Rx,1,8,6E,80,AA,00,D1,80,10,4E,
4295331875,00000120,false,Rx,1,4,00,00,0E,A7,00,00,00,00,
4295332106,000001DA,false,Rx,1,8,BA,32,58,00,00,01,02,45,
4295332338,000005BC,false,Rx,1,8,13,80,B5,50,91,00,A0,B4,
4295336926,0000011A,false,Rx,1,8,4E,40,00,AA,C0,00,00,6B,
4295337165,000001D4,false,Rx,1,8,F7,07,00,00,07,44,30,70,
4295337397,000001F2,false,Rx,1,8,30,64,20,AC,00,3C,00,8F,
4295337640,00000390,false,Rx,1,8,24,00,01,02,00,00,00,38,
4295337873,0000050B,false,Rx,1,7,00,00,06,C0,00,00,00,00,
4295340899,000001DB,false,Rx,1,8,FF,C0,BB,0A,26,00,02,6A,
4295341127,000001DC,false,Rx,1,8,6E,04,C4,B5,E5,04,C6,96,
4295341702,000001DA,false,Rx,1,8,BA,72,58,00,00,01,03,62,
4295341872,00000120,false,Rx,1,4,00,00,0F,22,00,00,00,00,
4295342144,00000393,false,Rx,1,8,26,51,00,00,00,00,00,30,
4295346923,0000011A,false,Rx,1,8,4E,40,00,55,00,00,01,7D,
4295347162,000001D4,false,Rx,1,8,F7,07,00,00,47,44,30,B7,
4295347394,000001F2,false,Rx,1,8,30,64,20,AC,00,3C,01,8F,
4295347627,0000050B,false,Rx,1,7,00,00,06,C0,00,00,00,00,
4295350891,000001DB,false,Rx,1,8,FF,C0,BB,0A,26,00,03,EF,
4295351128,000001DC,false,Rx,1,8,6E,04,C4,B5,E8,C0,C3,2D,
4295351714,000001DA,false,Rx,1,8,BA,72,58,00,00,01,00,68,
4295351884,00000120,false,Rx,1,4,00,00,00,00,00,00,00,00,
4295356926,0000011A,false,Rx,1,8,4E,40,00,55,40,00,02,B0,
4295357165,000001D4,false,Rx,1,8,F7,07,00,00,87,44,30,7B,
4295357407,000001F2,false,Rx,1,8,30,64,20,AC,00,3C,02,8F,
4295357630,0000050B,false,Rx,1,7,00,00,06,C0,00,00,00,00,
4295360883,000001DB,false,Rx,1,8,FF,C0,BB,0A,26,00,00,E5,
4295361111,000001DC,false,Rx,1,8,6E,04,C4,B5,EC,DC,C8,C4,
4295361708,000001DA,false,Rx,1,8,BA,32,58,00,00,01,01,4F,
4295361887,00000120,false,Rx,1,4,00,00,01,85,00,00,00,00,
4295362118,0000055A,false,Rx,1,8,14,36,37,35,55,00,5B,48,
4295366926,0000011A,false,Rx,1,8,4E,40,00,AA,80,00,03,A6,
4295367155,000001D4,false,Rx,1,8,F7,07,00,00,C7,44,30,BC,
4295367387,000001F2,false,Rx,1,8,30,64,20,AC,00,3C,03,8F,
4295367619,0000050B,false,Rx,1,7,00,00,06,C0,00,00,00,00,
4295370893,000001DB,false,Rx,1,8,FF,C0,BB,0A,26,00,01,60,
4295371121,000001DC,false,Rx,1,8,6E,04,C4,B5,E1,0C,E1,81,
4295371467,0000055B,false,Rx,1,8,A4,40,AA,00,DF,C0,11,10,
4295371711,0000059E,false,Rx,1,8,00,00,0C,76,18,00,00,00,
4295371881,00000120,false,Rx,1,4,00,00,02,8F,00,00,00,00,
4295372111,000001DA,false,Rx,1,8,BA,32,58,00,00,01,02,45,
4295372355,000005BC,false,Rx,1,8,3D,80,F0,64,B0,01,00,32,
426327,000002A0,false,Tx,1,8,A4,FB,01,4F,85,60,74,20,
4295377057,0000011A,false,Rx,1,8,4E,40,00,AA,C0,00,00,6B,
4295377158,000001D4,false,Rx,1,8,F7,07,00,00,07,44,30,70,
4295377398,000001F2,false,Rx,1,8,30,64,20,AC,00,3C,00,8F,
4295377864,0000050B,false,Rx,1,7,00,00,06,C0,00,00,00,00,
4295380888,000001DB,false,Rx,1,8,FF,C0,BB,0A,26,00,02,6A,
4295381126,000001DC,false,Rx,1,8,6E,04,C4,B5,E5,04,C6,96,
4295381702,000001DA,false,Rx,1,8,BA,72,58,00,00,01,03,62,
4295381871,00000120,false,Rx,1,4,00,00,03,0A,00,00,00,00,
4295382953,000002B5,false,Rx,1,8,A0,00,32,00,00,00,00,92,
4295383188,000002B6,false,Rx,1,8,A0,00,89,01,F0,00,74,AC,
4295386924,0000011A,false,Rx,1,8,4E,40,00,55,00,00,01,7D,
4295387156,000001D4,false,Rx,1,8,F7,07,00,00,47,44,30,B7,
4295387397,000001F2,false,Rx,1,8,30,64,20,AC,00,3C,01,8F,
4295387619,0000050B,false,Rx,1,7,00,00,06,C0,00,00,00,00,
4295390890,000001DB,false,Rx,1,8,FF,C0,BB,0A,26,00,03,EF,
4295391112,000001DC,false,Rx,1,8,6E,04,C4,B5,E8,C0,C3,2D,
4295391706,000001DA,false,Rx,1,8,BA,72,58,00,00,01,00,68,
4295391876,00000120,false,Rx,1,4,00,00,04,9B,00,00,00,00,
4295396924,0000011A,false,Rx,1,8,4E,40,00,55,40,00,02,B0,
4295397162,000001D4,false,Rx,1,8,F7,07,00,00,87,44,30,7B,
4295397404,000001F2,false,Rx,1,8,30,64,20,AC,00,3C,02,8F,
4295397628,0000050B,false,Rx,1,7,00,00,06,C0,00,00,00,00,
4295400880,000001DB,false,Rx,1,8,FF,C0,BB,0A,26,00,00,E5,
4295401108,000001DC,false,Rx,1,8,6E,04,C4,B5,EC,DC,C8,C4,
4295401704,000001DA,false,Rx,1,8,BA,32,58,00,00,01,01,4F,
4295401874,00000120,false,Rx,1,4,00,00,05,1E,00,00,00,00,
4295406918,0000011A,false,Rx,1,8,4E,40,00,AA,80,00,03,A6,
4295407156,000001D4,false,Rx,1,8,F7,07,00,00,C7,44,30,BC,
4295407388,000001F2,false,Rx,1,8,30,64,20,AC,00,3C,03,8F,
4295407611,0000050B,false,Rx,1,7,00,00,06,C0,00,00,00,00,
4295410884,000001DB,false,Rx,1,8,FF,C0,BB,0A,26,00,01,60,
4295411112,000001DC,false,Rx,1,8,6E,04,C4,B5,E1,0C,E1,81,
4295411697,000001DA,false,Rx,1,8,BA,32,58,00,00,01,02,45,
4295411867,00000120,false,Rx,1,4,00,00,06,14,00,00,00,00,
4295416920,0000011A,false,Rx,1,8,4E,40,00,AA,C0,00,00,6B,
4295417159,000001D4,false,Rx,1,8,F7,07,00,00,07,44,30,70,
4295417401,000001F2,false,Rx,1,8,30,64,20,AC,00,3C,00,8F,
4295417623,0000050B,false,Rx,1,7,00,00,06,C0,00,00,00,00,
4295420886,000001DB,false,Rx,1,8,FF,C0,BB,0A,26,00,02,6A,
4295421114,000001DC,false,Rx,1,8,6E,04,C4,B5,E5,04,C6,96,
4295421700,000001DA,false,Rx,1,8,BA,72,58,00,00,01,03,62,
4295421869,00000120,false,Rx,1,4,00,00,07,91,00,00,00,00,
4295426925,0000011A,false,Rx,1,8,4E,40,00,55,00,00,01,7D,
4295427152,000001D4,false,Rx,1,8,F7,07,00,00,47,44,30,B7,
4295427394,000001F2,false,Rx,1,8,30,64,20,AC,00,3C,01,8F,
4295427617,0000050B,false,Rx,1,7,00,00,06,C0,00,00,00,00,
4295431225,000001DB,false,Rx,1,8,FF,C0,BB,0A,26,00,03,EF,
4295431453,000001DC,false,Rx,1,8,6E,04,C4,B5,E8,C0,C3,2D,
4295431687,0000055B,false,Rx,1,8,6E,80,AA,00,D1,80,11,CB,
4295431856,00000120,false,Rx,1,4,00,00,08,B3,00,00,00,00,
4295432097,000001DA,false,Rx,1,8,BA,72,58,00,00,01,00,68,
4295432330,000005BC,false,Rx,1,8,13,80,B5,50,91,01,01,0E,
4295436930,0000011A,false,Rx,1,8,4E,40,00,55,40,00,02,B0,
4295437168,000001D4,false,Rx,1,8,F7,07,00,00,87,44,30,7B,
4295437399,000001F2,false,Rx,1,8,30,64,20,AC,00,3C,02,8F,
4295437654,00000390,false,Rx,1,8,24,00,01,02,00,00,00,05,
4295437876,0000050B,false,Rx,1,7,00,00,06,C0,00,00,00,00,
4295440882,000001DB,false,Rx,1,8,FF,C0,BB,0A,26,00,00,E5,
4295441110,000001DC,false,Rx,1,8,6E,04,C4,B5,EC,DC,C8,C4,
4295441706,000001DA,false,Rx,1,8,BA,32,58,00,00,01,01,4F,
4295441865,00000120,false,Rx,1,4,00,00,09,36,00,00,00,00,
4295442252,00000393,false,Rx,1,8,00,51,00,00,00,00,00,05,
4295446914,0000011A,false,Rx,1,8,4E,40,00,AA,80,00,03,A6,
4295447152,000001D4,false,Rx,1,8,F7,07,00,00,C7,44,30,BC,
4295447383,000001F2,false,Rx,1,8,30,64,20,AC,00,3C,03,8F,
4295447619,0000050B,false,Rx,1,7,00,00,06,C0,00,00,00,00,
4295450880,000001DB,false,Rx,1,8,FF,C0,BB,0A,26,00,01,60,
4295451108,000001DC,false,Rx,1,8,6E,04,C4,B5,E1,0C,E1,81,
4295451705,000001DA,false,Rx,1,8,BA,32,58,00,00,01,02,45,
4295451874,00000120,false,Rx,1,4,00,00,0A,3C,00,00,00,00,
4295456918,0000011A,false,Rx,1,8,4E,40,00,AA,C0,00,00,6B,
4295457156,000001D4,false,Rx,1,8,F7,07,00,00,07,44,30,70,
4295457398,000001F2,false,Rx,1,8,30,64,20,AC,00,3C,00,8F,
4295457622,0000050B,false,Rx,1,7,00,00,06,C0,00,00,00,00,
4295460873,000001DB,false,Rx,1,8,FF,C0,BB,0A,26,00,02,6A,
4295461101,000001DC,false,Rx,1,8,6E,04,C4,B5,E5,04,C6,96,
4295461708,000001DA,false,Rx,1,8,BA,72,58,00,00,01,03,62,
4295461867,00000120,false,Rx,1,4,00,00,0B,B9,00,00,00,00,
4295462098,0000055A,false,Rx,1,8,19,36,37,35,55,00,5B,48,
4295466927,0000011A,false,Rx,1,8,4E,40,00,55,00,00,01,7D,
4295467155,000001D4,false,Rx,1,8,F7,07,00,00,47,44,30,B7,
4295467397,000001F2,false,Rx,1,8,30,64,20,AC,00,3C,01,8F,
4295467621,0000050B,false,Rx,1,7,00,00,06,C0,00,00,00,00,
4295470873,000001DB,false,Rx,1,8,FF,C0,BB,0A,26,00,03,EF,
4295471111,000001DC,false,Rx,1,8,6E,04,C4,B5,E8,C0,C3,2D,
4295471468,0000055B,false,Rx,1,8,A4,40,AA,00,DF,C0,12,1A,
4295471701,0000059E,false,Rx,1,8,00,00,0C,76,18,00,00,00,
4295471943,000001DA,false,Rx,1,8,BA,72,58,00,00,01,00,68,
4295472102,00000120,false,Rx,1,4,00,00,0C,28,00,00,00,00,
4295472345,000005BC,false,Rx,1,8,3D,80,F0,64,B0,01,00,32,
4295476929,0000011A,false,Rx,1,8,4E,40,00,55,40,00,02,B0,
4295477167,000001D4,false,Rx,1,8,F7,07,00,00,87,44,30,7B,
4295477398,000001F2,false,Rx,1,8,30,64,20,AC,00,3C,02,8F,
4295477622,0000050B,false,Rx,1,7,00,00,06,C0,00,00,00,00,
4295480874,000001DB,false,Rx,1,8,FF,C0,BB,0A,26,00,00,E5,
4295481101,000001DC,false,Rx,1,8,6E,04,C4,B5,EC,DC,C8,C4,
4295481708,000001DA,false,Rx,1,8,BA,32,58,00,00,01,01,4F,
4295481867,00000120,false,Rx,1,4,00,00,0D,AD,00,00,00,00,
4295482897,000002B5,false,Rx,1,8,B0,00,32,00,00,00,00,82,
4295483132,000002B6,false,Rx,1,8,B0,00,89,01,F0,00,74,BC,
4295486920,0000011A,false,Rx,1,8,4E,40,00,AA,80,00,03,A6,
4295487148,000001D4,false,Rx,1,8,F7,07,00,00,C7,44,30,BC,
4295487390,000001F2,false,Rx,1,8,30,64,20,AC,00,3C,03,8F,
4295487614,0000050B,false,Rx,1,7,00,00,06,C0,00,00,00,00,
4295490875,000001DB,false,Rx,1,8,FF,C0,BB,0A,26,00,01,60,
4295491103,000001DC,false,Rx,1,8,6E,04,C4,B5,E1,0C,E1,81,
4295491700,000001DA,false,Rx,1,8,BA,32,58,00,00,01,02,45,
4295491869,00000120,false,Rx,1,4,00,00,0E,A7,00,00,00,00,
545123,000002A0,false,Tx,1,8,3C,39,01,38,2D,60,A5,18,
4295496917,0000011A,false,Rx,1,8,4E,40,00,AA,C0,00,00,6B,
4295497155,000001D4,false,Rx,1,8,F7,07,00,00,07,44,30,70,
4295497397,000001F2,false,Rx,1,8,30,64,20,AC,00,3C,00,8F,
4295497621,0000050B,false,Rx,1,7,00,00,06,C0,00,00,00,00,
4295500873,000001DB,false,Rx,1,8,FF,C0,BB,0A,26,00,02,6A,
4295501100,000001DC,false,Rx,1,8,6E,04,C4,B5,E5,04,C6,96,
4295501707,000001DA,false,Rx,1,8,BA,72,58,00,00,01,03,62,
4295501877,00000120,false,Rx,1,4,00,00,0F,22,00,00,00,00,
4295506920,0000011A,false,Rx,1,8,4E,40,00,55,00,00,01,7D,
4295507157,000001D4,false,Rx,1,8,F7,07,00,00,47,44,30,B7,
4295507389,000001F2,false,Rx,1,8,30,64,20,AC,00,3C,01,8F,
4295507623,0000050B,false,Rx,1,7,00,00,06,C0,00,00,00,00,
4295510875,000001DB,false,Rx,1,8,FF,C0,BB,0A,26,00,03,EF,
4295511102,000001DC,false,Rx,1,8,6E,04,C4,B5,E8,C0,C3,2D,
4295511699,000001DA,false,Rx,1,8,BA,72,58,00,00,01,00,68,
4295511879,00000120,false,Rx,1,4,00,00,00,00,00,00,00,00,
4295516922,0000011A,false,Rx,1,8,4E,40,00,55,40,00,02,B0,
4295517160,000001D4,false,Rx,1,8,F7,07,00,00,87,44,30,7B,
4295517402,000001F2,false,Rx,1,8,30,64,20,AC,00,3C,02,8F,
4295517625,0000050B,false,Rx,1,7,00,00,06,C0,00,00,00,00,
4295520868,000001DB,false,Rx,1,8,FF,C0,BB,0A,26,00,00,E5,
4295521095,000001DC,false,Rx,1,8,6E,04,C4,B5,EC,DC,C8,C4,
4295521702,000001DA,false,Rx,1,8,BA,32,58,00,00,01,01,4F,
4295521872,00000120,false,Rx,1,4,00,00,01,85,00,00,00,00,
4295526915,0000011A,false,Rx,1,8,4E,40,00,AA,80,00,03,A6,
4295527153,000001D4,false,Rx,1,8,F7,07,00,00,C7,44,30,BC,
4295527384,000001F2,false,Rx,1,8,30,64,20,AC,00,3C,03,8F,
4295527608,0000050B,false,Rx,1,7,00,00,06,C0,00,00,00,00,
4295531215,000001DB,false,Rx,1,8,FF,C0,BB,0A,26,00,01,60,
4295531444,000001DC,false,Rx,1,8,6E,04,C4,B5,E1,0C,E1,81,
4295531677,0000055B,false,Rx,1,8,6E,80,AA,00,D1,80,12,C1,
4295531846,00000120,false,Rx,1,4,00,00,02,8F,00,00,00,00,
4295532077,000001DA,false,Rx,1,8,BA,32,58,00,00,01,02,45,
4295532310,000005BC,false,Rx,1,8,13,80,B5,50,91,01,62,B2,
4295536918,0000011A,false,Rx,1,8,4E,40,00,AA,C0,00,00,6B,
4295537156,000001D4,false,Rx,1,8,F7,07,00,00,07,44,30,70,
4295537399,000001F2,false,Rx,1,8,30,64,20,AC,00,3C,00,8F,
4295537643,00000390,false,Rx,1,8,24,00,01,02,00,00,00,16,
4295537864,0000050B,false,Rx,1,7,00,00,06,C0,00,00,00,00,
4295541110,000001DB,false,Rx,1,8,FF,C0,BB,0A,26,00,02,6A,
4295541339,000001DC,false,Rx,1,8,6E,04,C4,B5,E5,04,C6,96,
4295541582,0000059E,false,Rx,1,8,00,00,0A,11,F0,00,00,00,
4295541751,00000120,false,Rx,1,4,00,00,03,0A,00,00,00,00,
4295541982,000001DA,false,Rx,1,8,BA,72,58,00,00,01,03,62,
4295542225,000005C0,false,Rx,1,8,C0,60,62,00,72,C8,1F,03,
4295542467,00000393,false,Rx,1,8,26,51,00,00,00,00,00,1E,
4295546925,0000011A,false,Rx,1,8,4E,40,00,55,00,00,01,7D,
4295547152,000001D4,false,Rx,1,8,F7,07,00,00,47,44,30,B7,
4295547394,000001F2,false,Rx,1,8,30,64,20,AC,00,3C,01,8F,
4295547618,0000050B,false,Rx,1,7,00,00,06,C0,00,00,00,00,
4295550870,000001DB,false,Rx,1,8,FF,A0,BB,0A,26,00,03,1C,
4295551097,000001DC,false,Rx,1,8,6E,04,C4,B5,E8,C0,C3,2D,
4295551705,000001DA,false,Rx,1,8,BA,72,58,00,00,01,00,68,
4295551874,00000120,false,Rx,1,4,00,00,04,9B,00,00,00,00,
4295556918,0000011A,false,Rx,1,8,4E,40,00,55,40,00,02,B0,
4295557156,000001D4,false,Rx,1,8,F7,07,00,00,87,44,30,7B,
4295557398,000001F2,false,Rx,1,8,30,64,20,AC,00,3C,02,8F,
4295557622,0000050B,false,Rx,1,7,00,00,06,C0,00,00,00,00,
4295560864,000001DB,false,Rx,1,8,FF,A0,BB,0A,26,00,00,16,
4295561091,000001DC,false,Rx,1,8,6E,04,C4,B5,EC,DC,C8,C4,
4295561708,000001DA,false,Rx,1,8,BA,32,58,00,00,01,01,4F,
4295561878,00000120,false,Rx,1,4,00,00,05,1E,00,00,00,00,
4295562110,0000055A,false,Rx,1,8,1A,36,37,35,55,00,5B,48,
4295566917,0000011A,false,Rx,1,8,4E,40,00,AA,80,00,03,A6,
4295567144,000001D4,false,Rx,1,8,F7,07,00,00,C7,44,30,BC,
4295567386,000001F2,false,Rx,1,8,30,64,20,AC,00,3C,03,8F,
4295567610,0000050B,false,Rx,1,7,00,00,06,C0,00,00,00,00,
4295570862,000001DB,false,Rx,1,8,FF,A0,BB,0A,26,00,01,93,
4295571090,000001DC,false,Rx,1,8,6E,04,C4,B5,E1,0C,E1,81,
4295571468,0000055B,false,Rx,1,8,A4,40,AA,00,DF,C0,13,9F,
4295571701,0000059E,false,Rx,1,8,00,00,0C,76,18,00,00,00,
4295571943,000001DA,false,Rx,1,8,BA,32,58,00,00,01,02,45,
4295572103,00000120,false,Rx,1,4,00,00,06,14,00,00,00,00,
4295572344,000005BC,false,Rx,1,8,3D,80,F0,64,B0,01,00,32,
4295576917,0000011A,false,Rx,1,8,4E,40,00,AA,C0,00,00,6B,
627239,000002A0,false,Tx,1,8,B4,12,01,32,34,60,5F,4A,
4295577155,000001D4,false,Rx,1,8,F7,07,00,00,07,44,30,70,
4295577397,000001F2,false,Rx,1,8,30,64,20,AC,00,3C,00,8F,
4295577621,0000050B,false,Rx,1,7,00,00,06,C0,00,00,00,00,
4295580860,000001DB,false,Rx,1,8,FF,A0,BB,0A,26,00,02,99,
4295581087,000001DC,false,Rx,1,8,6E,04,C4,B5,E5,04,C6,96,
4295581705,000001DA,false,Rx,1,8,BA,72,58,00,00,01,03,62,
4295581874,00000120,false,Rx,1,4,00,00,07,91,00,00,00,00,
4295582947,000002B5,false,Rx,1,8,C0,00,32,00,00,00,00,F2,
4295583191,000002B6,false,Rx,1,8,C0,00,89,01,F0,00,74,CC,
4295586917,0000011A,false,Rx,1,8,4E,40,00,55,00,00,01,7D,
4295587155,000001D4,false,Rx,1,8,F7,07,00,00,47,44,30,B7,
4295587388,000001F2,false,Rx,1,8,30,64,20,AC,00,3C,01,8F,
4295587621,0000050B,false,Rx,1,7,00,00,06,C0,00,00,00,00,
4295590862,000001DB,false,Rx,1,8,FF,A0,BB,0A,26,00,03,1C,
4295591090,000001DC,false,Rx,1,8,6E,04,C4,B5,E8,C0,C3,2D,
4295591697,000001DA,false,Rx,1,8,BA,72,58,00,00,01,00,68,
4295591866,00000120,false,Rx,1,4,00,00,08,B3,00,00,00,00,
4295596918,0000011A,false,Rx,1,8,4E,40,00,55,40,00,02,B0,
4295597156,000001D4,false,Rx,1,8,F7,07,00,00,87,44,30,7B,
4295597400,000001F2,false,Rx,1,8,30,64,20,AC,00,3C,02,8F,
4295597622,0000050B,false,Rx,1,7,00,00,06,C0,00,00,00,00,
4295600864,000001DB,false,Rx,1,8,FF,A0,BB,0A,26,00,00,16,
4295601091,000001DC,false,Rx,1,8,6E,04,C4,B5,EC,DC,C8,C4,
4295601698,000001DA,false,Rx,1,8,BA,32,58,00,00,01,01,4F,
4295601868,00000120,false,Rx,1,4,00,00,09,36,00,00,00,00,
4295606911,0000011A,false,Rx,1,8,4E,40,00,AA,80,00,03,A6,
4295607149,000001D4,false,Rx,1,8,F7,07,00,00,C7,44,30,BC,
4295607382,000001F2,false,Rx,1,8,30,64,20,AC,00,3C,03,8F,
4295607605,0000050B,false,Rx,1,7,00,00,06,C0,00,00,00,00,
4295610857,000001DB,false,Rx,1,8,FF,A0,BB,0A,26,00,01,93,
4295611085,000001DC,false,Rx,1,8,6E,04,C4,B5,E1,0C,E1,81,
4295611702,000001DA,false,Rx,1,8,BA,32,58,00,00,01,02,45,
4295611861,00000120,false,Rx,1,4,00,00,0A,3C,00,00,00,00,
4295616915,0000011A,false,Rx,1,8,4E,40,00,AA,C0,00,00,6B,
4295617152,000001D4,false,Rx,1,8,F7,07,00,00,07,44,30,70,
4295617396,000001F2,false,Rx,1,8,30,64,20,AC,00,3C,00,8F,
4295617618,0000050B,false,Rx,1,7,00,00,06,C0,00,00,00,00,
4295620849,000001DB,false,Rx,1,8,FF,A0,BB,0A,26,00,02,99,
4295621087,000001DC,false,Rx,1,8,6E,04,C4,B5,E5,04,C6,96,
4295621694,000001DA,false,Rx,1,8,BA,72,58,00,00,01,03,62,
4295621864,00000120,false,Rx,1,4,00,00,0B,B9,00,00,00,00,
4295626918,0000011A,false,Rx,1,8,4E,40,00,55,00,00,01,7D,
4295627156,000001D4,false,Rx,1,8,F7,07,00,00,47,44,30,B7,
4295627389,000001F2,false,Rx,1,8,30,64,20,AC,00,3C,01,8F,
4295627612,0000050B,false,Rx,1,7,00,00,06,C0,00,00,00,00,
4295631199,000001DB,false,Rx,1,8,FF,A0,BB,0A,26,00,03,1C,
4295631426,000001DC,false,Rx,1,8,6E,04,C4,B5,E8,C0,C3,2D,
4295631659,0000055B,false,Rx,1,8,6E,80,AA,00,D1,80,13,44,
4295631829,00000120,false,Rx,1,4,00,00,0C,28,00,00,00,00,
4295632061,000001DA,false,Rx,1,8,BA,72,58,00,00,01,00,68,
4295632292,000005BC,false,Rx,1,8,13,80,64,50,90,02,40,5A,
4295636922,0000011A,false,Rx,1,8,4E,40,00,55,40,00,02,B0,
4295637160,000001D4,false,Rx,1,8,F7,07,00,00,87,44,30,7B,
4295637393,000001F2,false,Rx,1,8,30,64,20,AC,00,3C,02,8F,
4295637636,00000390,false,Rx,1,8,24,00,01,02,00,00,00,27,
4295637868,0000050B,false,Rx,1,7,00,00,06,C0,00,00,00,00,
4295640863,000001DB,false,Rx,1,8,FF,A0,BB,0A,26,00,00,16,
4295641090,000001DC,false,Rx,1,8,6E,04,C4,B5,EC,DC,C8,C4,
4295641697,000001DA,false,Rx,1,8,BA,32,58,00,00,01,01,4F,
4295641867,00000120,false,Rx,1,4,00,00,0D,AD,00,00,00,00,
4295642450,00000393,false,Rx,1,8,00,51,00,00,00,00,00,27,
4295646918,0000011A,false,Rx,1,8,4E,40,00,AA,80,00,03,A6,
4295647146,000001D4,false,Rx,1,8,F7,07,00,00,C7,44,30,BC,
4295647379,000001F2,false,Rx,1,8,30,64,20,AC,00,3C,03,8F,
4295647612,0000050B,false,Rx,1,7,00,00,06,C0,00,00,00,00,
4295650853,000001DB,false,Rx,1,8,FF,A0,BB,0A,26,00,01,93,
4295651080,000001DC,false,Rx,1,8,6E,04,C4,B5,E1,0C,E1,81,
4295651697,000001DA,false,Rx,1,8,BA,32,58,00,00,01,02,45,
4295651877,00000120,false,Rx,1,4,00,00,0E,A7,00,00,00,00,
4295656910,0000011A,false,Rx,1,8,4E,40,00,AA,C0,00,00,6B,
4295657148,000001D4,false,Rx,1,8,F7,07,00,00,07,44,30,70,
4295657392,000001F2,false,Rx,1,8,30,64,20,AC,00,3C,00,8F,
4295657614,0000050B,false,Rx,1,7,00,00,06,C0,00,00,00,00,
4295660845,000001DB,false,Rx,1,8,FF,A0,BB,0A,26,00,02,99,
4295661073,000001DC,false,Rx,1,8,6E,04,C4,B5,E5,04,C6,96,
4295661700,000001DA,false,Rx,1,8,BA,72,58,00,00,01,03,62,
4295661870,00000120,false,Rx,1,4,00,00,0F,22,00,00,00,00,
4295662102,0000055A,false,Rx,1,8,1F,36,37,35,55,00,5B,48,
4295666919,0000011A,false,Rx,1,8,4E,40,00,55,00,00,01,7D,
4295667147,000001D4,false,Rx,1,8,F7,07,00,00,47,44,30,B7,
4295667390,000001F2,false,Rx,1,8,30,64,20,AC,00,3C,01,8F,
4295667613,0000050B,false,Rx,1,7,00,00,06,C0,00,00,00,00,
4295670844,000001DB,false,Rx,1,8,FF,A0,BB,0A,26,00,03,1C,
4295671082,000001DC,false,Rx,1,8,6E,04,C4,B5,E8,C0,C3,2D,
4295671459,0000055B,false,Rx,1,8,A4,40,AA,00,DF,C0,10,95,
4295671703,0000059E,false,Rx,1,8,00,00,0C,76,18,00,00,00,
4295671874,00000120,false,Rx,1,4,00,00,00,00,00,00,00,00,
4295672104,000001DA,false,Rx,1,8,BA,72,58,00,00,01,00,68,
4295672346,000005BC,false,Rx,1,8,3D,80,F0,64,B0,01,00,32,
726738,000002A0,false,Tx,1,8,08,52,01,70,E4,60,BB,23,
4295676920,0000011A,false,Rx,1,8,4E,40,00,55,40,00,02,B0,
4295677158,000001D4,false,Rx,1,8,F7,07,00,00,87,44,30,7B,
4295677531,000001F2,false,Rx,1,8,30,64,20,AC,00,3C,02,8F,
4295677616,0000050B,false,Rx,1,7,00,00,06,C0,00,00,00,00,
4295680850,000001DB,false,Rx,1,8,FF,A0,BB,0A,26,00,00,16,
4295681078,000001DC,false,Rx,1,8,6E,04,C4,B5,EC,DC,C8,C4,
4295681705,000001DA,false,Rx,1,8,BA,32,58,00,00,01,01,4F,
4295681876,00000120,false,Rx,1,4,00,00,01,85,00,00,00,00,
4295682947,000002B5,false,Rx,1,8,D0,00,32,00,00,00,00,E2,
4295683181,000002B6,false,Rx,1,8,D0,00,89,01,F0,00,74,DC,
4295686917,0000011A,false,Rx,1,8,4E,40,00,AA,80,00,03,A6,
4295687145,000001D4,false,Rx,1,8,F7,07,00,00,C7,44,30,BC,
4295687377,000001F2,false,Rx,1,8,30,64,20,AC,00,3C,03,8F,
4295687610,0000050B,false,Rx,1,7,00,00,06,C0,00,00,00,00,
4295690852,000001DB,false,Rx,1,8,FF,A0,BB,0A,26,00,01,93,
4295691081,000001DC,false,Rx,1,8,6E,04,C4,B5,E1,0C,E1,81,
4295691697,000001DA,false,Rx,1,8,BA,32,58,00,00,01,02,45,
4295691868,00000120,false,Rx,1,4,00,00,02,8F,00,00,00,00,
4295696908,0000011A,false,Rx,1,8,4E,40,00,AA,C0,00,00,6B,
4295697146,000001D4,false,Rx,1,8,F7,07,00,00,07,44,30,70,
4295697390,000001F2,false,Rx,1,8,30,64,20,AC,00,3C,00,8F,
4295697612,0000050B,false,Rx,1,7,00,00,06,C0,00,00,00,00,
4295700843,000001DB,false,Rx,1,8,FF,A0,BB,0A,26,00,02,99,
4295701072,000001DC,false,Rx,1,8,6E,04,C4,B5,E5,04,C6,96,
4295701698,000001DA,false,Rx,1,8,BA,72,58,00,00,01,03,62,
4295701868,00000120,false,Rx,1,4,00,00,03,0A,00,00,00,00,
4295706920,0000011A,false,Rx,1,8,4E,40,00,55,00,00,01,7D,
4295707148,000001D4,false,Rx,1,8,F7,07,00,00,47,44,30,B7,
4295707391,000001F2,false,Rx,1,8,30,64,20,AC,00,3C,01,8F,
4295707614,0000050B,false,Rx,1,7,00,00,06,C0,00,00,00,00,
4295710846,000001DB,false,Rx,1,8,FF,A0,BB,0A,26,00,03,1C,
4295711075,000001DC,false,Rx,1,8,6E,04,C4,B5,E8,C0,C3,2D,
4295711701,000001DA,false,Rx,1,8,BA,72,58,00,00,01,00,68,
4295711871,00000120,false,Rx,1,4,00,00,04,9B,00,00,00,00,
4295716914,0000011A,false,Rx,1,8,4E,40,00,55,40,00,02,B0,
4295717152,000001D4,false,Rx,1,8,F7,07,00,00,87,44,30,7B,
4295717395,000001F2,false,Rx,1,8,30,64,20,AC,00,3C,02,8F,
4295717618,0000050B,false,Rx,1,7,00,00,06,C0,00,00,00,00,
4295720849,000001DB,false,Rx,1,8,FF,A0,BB,0A,26,00,00,16,
4295721077,000001DC,false,Rx,1,8,6E,04,C4,B5,EC,DC,C8,C4,
4295721693,000001DA,false,Rx,1,8,BA,32,58,00,00,01,01,4F,
4295721864,00000120,false,Rx,1,4,00,00,05,1E,00,00,00,00,
4295726917,0000011A,false,Rx,1,8,4E,40,00,AA,80,00,03,A6,
4295727145,000001D4,false,Rx,1,8,F7,07,00,00,C7,44,30,BC,
4295727378,000001F2,false,Rx,1,8,30,64,20,AC,00,3C,03,8F,
4295727611,0000050B,false,Rx,1,7,00,00,06,C0,00,00,00,00,
4295731188,000001DB,false,Rx,1,8,FF,A0,BB,0A,26,00,01,93,
4295731415,000001DC,false,Rx,1,8,6E,04,C4,B5,E1,0C,E1,81,
4295731648,0000055B,false,Rx,1,8,6E,80,AA,00,D1,80,10,4E,
4295731819,00000120,false,Rx,1,4,00,00,06,14,00,00,00,00,
4295732050,000001DA,false,Rx,1,8,BA,32,58,00,00,01,02,45,
4295732281,000005BC,false,Rx,1,8,13,80,64,50,90,02,A0,96,
4295736911,0000011A,false,Rx,1,8,4E,40,00,AA,C0,00,00,6B,
4295737150,000001D4,false,Rx,1,8,F7,07,00,00,07,44,30,70,
4295737392,000001F2,false,Rx,1,8,30,64,20,AC,00,3C,00,8F,
4295737635,00000390,false,Rx,1,8,24,00,01,02,00,00,00,38,
4295737856,0000050B,false,Rx,1,7,00,00,06,C0,00,00,00,00,
4295740841,000001DB,false,Rx,1,8,FF,A0,BB,0A,26,00,02,99,
4295741070,000001DC,false,Rx,1,8,6E,04,C4,B5,E5,04,C6,96,
4295741696,000001DA,false,Rx,1,8,BA,72,58,00,00,01,03,62,
4295741867,00000120,false,Rx,1,4,00,00,07,91,00,00,00,00,
4295742545,00000393,false,Rx,1,8,26,51,00,00,00,00,00,30,
4295746915,0000011A,false,Rx,1,8,4E,40,00,55,00,00,01,7D,
4295747144,000001D4,false,Rx,1,8,F7,07,00,00,47,44,30,B7,
4295747386,000001F2,false,Rx,1,8,30,64,20,AC,00,3C,01,8F,
4295747609,0000050B,false,Rx,1,7,00,00,06,C0,00,00,00,00,
4295750840,000001DB,false,Rx,1,8,FF,A0,BB,0A,26,00,03,1C,
4295751069,000001DC,false,Rx,1,8,6E,04,C4,B5,E8,C0,C3,2D,
4295751706,000001DA,false,Rx,1,8,BA,72,58,00,00,01,00,68,
4295751876,00000120,false,Rx,1,4,00,00,08,B3,00,00,00,00,
4295756919,0000011A,false,Rx,1,8,4E,40,00,55,40,00,02,B0,
4295757158,000001D4,false,Rx,1,8,F7,07,00,00,87,44,30,7B,
4295757390,000001F2,false,Rx,1,8,30,64,20,AC,00,3C,02,8F,
4295757623,0000050B,false,Rx,1,7,00,00,06,C0,00,00,00,00,
4295760843,000001DB,false,Rx,1,8,FF,A0,BB,0A,26,00,00,16,
4295761072,000001DC,false,Rx,1,8,6E,04,C4,B5,EC,DC,C8,C4,
4295761708,000001DA,false,Rx,1,8,BA,32,58,00,00,01,01,4F,
4295761879,00000120,false,Rx,1,4,00,00,09,36,00,00,00,00,
4295762110,0000055A,false,Rx,1,8,14,36,37,35,55,00,5B,48,
4295766908,0000011A,false,Rx,1,8,4E,40,00,AA,80,00,03,A6,
4295767147,000001D4,false,Rx,1,8,F7,07,00,00,C7,44,30,BC,
4295767379,000001F2,false,Rx,1,8,30,64,20,AC,00,3C,03,8F,
4295767601,0000050B,false,Rx,1,7,00,00,06,C0,00,00,00,00,
4295770843,000001DB,false,Rx,1,8,FF,A0,BB,0A,26,00,01,93,
4295771061,000001DC,false,Rx,1,8,6E,04,C4,B5,E1,0C,E1,81,
4295771458,0000055B,false,Rx,1,8,A4,40,AA,00,DF,C0,11,10,
4295771691,0000059E,false,Rx,1,8,00,00,0C,76,18,00,00,00,
4295771862,00000120,false,Rx,1,4,00,00,0A,3C,00,00,00,00,
4295772093,000001DA,false,Rx,1,8,BA,32,58,00,00,01,02,45,
4295772335,000005BC,false,Rx,1,8,3D,80,F0,64,B0,01,00,32,
4295776908,0000011A,false,Rx,1,8,4E,40,00,AA,C0,00,00,6B,
4295777147,000001D4,false,Rx,1,8,F7,07,00,00,07,44,30,70,
4295777389,000001F2,false,Rx,1,8,30,64,20,AC,00,3C,00,8F,
4295777612,0000050B,false,Rx,1,7,00,00,06,C0,00,00,00,00,
4295780832,000001DB,false,Rx,1,8,FF,A0,BB,0A,26,00,02,99,
4295781061,000001DC,false,Rx,1,8,6E,04,C4,B5,E5,04,C6,96,
4295781699,000001DA,false,Rx,1,8,BA,72,58,00,00,01,03,62,
4295781869,00000120,false,Rx,1,4,00,00,0B,B9,00,00,00,00,
4295782888,000002B5,false,Rx,1,8,E0,00,32,00,00,00,00,D2,
4295783122,000002B6,false,Rx,1,8,E0,00,89,01,F0,00,74,EC,
4295786912,0000011A,false,Rx,1,8,4E,40,00,55,00,00,01,7D,
4295787151,000001D4,false,Rx,1,8,F7,07,00,00,47,44,30,B7,
4295787383,000001F2,false,Rx,1,8,30,64,20,AC,00,3C,01,8F,
4295787616,0000050B,false,Rx,1,7,00,00,06,C0,00,00,00,00,
4295790836,000001DB,false,Rx,1,8,FF,A0,BB,0A,26,00,03,1C,
4295791065,000001DC,false,Rx,1,8,6E,04,C4,B5,E8,C0,C3,2D,
4295791692,000001DA,false,Rx,1,8,BA,72,58,00,00,01,00,68,
4295791862,00000120,false,Rx,1,4,00,00,0C,28,00,00,00,00,
4295796913,0000011A,false,Rx,1,8,4E,40,00,55,40,00,02,B0,
4295797152,000001D4,false,Rx,1,8,F7,07,00,00,87,44,30,7B,
4295797394,000001F2,false,Rx,1,8,30,64,20,AC,00,3C,02,8F,
4295797617,0000050B,false,Rx,1,7,00,00,06,C0,00,00,00,00,
4295800838,000001DB,false,Rx,1,8,FF,A0,BB,0A,26,00,00,16,
851513,000002A0,false,Tx,1,8,8C,07,01,83,83,60,D8,1C,
4295801067,000001DC,false,Rx,1,8,6E,04,C4,B5,EC,DC,C8,C4,
4295801694,000001DA,false,Rx,1,8,BA,32,58,00,00,01,01,4F,
4295801864,00000120,false,Rx,1,4,00,00,0D,AD,00,00,00,00,
4295806914,0000011A,false,Rx,1,8,4E,40,00,AA,80,00,03,A6,
4295807142,000001D4,false,Rx,1,8,F7,07,00,00,C7,44,30,BC,
4295807374,000001F2,false,Rx,1,8,30,64,20,AC,00,3C,03,8F,
4295807607,0000050B,false,Rx,1,7,00,00,06,C0,00,00,00,00,
4295810838,000001DB,false,Rx,1,8,FF,A0,BB,0A,26,00,01,93,
4295811056,000001DC,false,Rx,1,8,6E,04,C4,B5,E1,0C,E1,81,
4295811694,000001DA,false,Rx,1,8,BA,32,58,00,00,01,02,45,
4295811864,00000120,false,Rx,1,4,00,00,0E,A7,00,00,00,00,
4295816907,0000011A,false,Rx,1,8,4E,40,00,AA,C0,00,00,6B,
4295817146,000001D4,false,Rx,1,8,F7,07,00,00,07,44,30,70,
4295817388,000001F2,false,Rx,1,8,30,64,20,AC,00,3C,00,8F,
4295817611,0000050B,false,Rx,1,7,00,00,06,C0,00,00,00,00,
4295820831,000001DB,false,Rx,1,8,FF,A0,BB,0A,26,00,02,99,
4295821060,000001DC,false,Rx,1,8,6E,04,C4,B5,E5,04,C6,96,
4295821698,000001DA,false,Rx,1,8,BA,72,58,00,00,01,03,62,
4295821867,00000120,false,Rx,1,4,00,00,0F,22,00,00,00,00,
4295826909,0000011A,false,Rx,1,8,4E,40,00,55,00,00,01,7D,
4295827149,000001D4,false,Rx,1,8,F7,07,00,00,47,44,30,B7,
4295827380,000001F2,false,Rx,1,8,30,64,20,AC,00,3C,01,8F,
4295827613,0000050B,false,Rx,1,7,00,00,06,C0,00,00,00,00,
4295831170,000001DB,false,Rx,1,8,FF,A0,BB,0A,26,00,03,1C,
4295831397,000001DC,false,Rx,1,8,6E,04,C4,B5,E8,C0,C3,2D,
4295831631,0000055B,false,Rx,1,8,6E,80,AA,00,D7,80,11,5E,
4295831811,00000120,false,Rx,1,4,00,00,00,00,00,00,00,00,
4295832042,000001DA,false,Rx,1,8,BA,72,58,00,00,01,00,68,
4295832284,000005BC,false,Rx,1,8,13,80,64,50,90,03,01,A4,
4295836914,0000011A,false,Rx,1,8,4E,40,00,55,40,00,02,B0,
4295837154,000001D4,false,Rx,1,8,F7,07,00,00,87,44,30,7B,
4295837396,000001F2,false,Rx,1,8,30,64,20,AC,00,3C,02,8F,
4295837618,0000050B,false,Rx,1,7,00,00,06,C0,00,00,00,00,
4295837861,00000390,false,Rx,1,8,24,00,01,02,00,00,00,05,
4295840826,000001DB,false,Rx,1,8,FF,80,BB,0A,26,00,00,47,
4295841054,000001DC,false,Rx,1,8,6E,04,C4,B5,EC,DC,C8,C4,
4295841702,000001DA,false,Rx,1,8,BA,32,58,00,00,01,01,4F,
4295841872,00000120,false,Rx,1,4,00,00,01,85,00,00,00,00,
4295842653,00000393,false,Rx,1,8,00,51,00,00,00,00,00,05,
4295846909,0000011A,false,Rx,1,8,4E,40,00,AA,80,00,03,A6,
4295847138,000001D4,false,Rx,1,8,F7,07,00,00,C7,44,30,BC,
4295847379,000001F2,false,Rx,1,8,30,64,20,AC,00,3C,03,8F,
4295847602,0000050B,false,Rx,1,7,00,00,06,C0,00,00,00,00,
4295850834,000001DB,false,Rx,1,8,FF,80,BB,0B,26,00,01,D4,
4295851062,000001DC,false,Rx,1,8,6E,04,C4,B5,E1,0C,E1,81,
4295851699,000001DA,false,Rx,1,8,BA,32,58,00,00,01,02,45,
4295851869,00000120,false,Rx,1,4,00,00,02,8F,00,00,00,00,
4295856912,0000011A,false,Rx,1,8,4E,40,00,AA,C0,00,00,6B,
4295857151,000001D4,false,Rx,1,8,F7,07,00,00,07,44,30,70,
4295857383,000001F2,false,Rx,1,8,30,64,20,AC,00,3C,00,8F,
4295857616,0000050B,false,Rx,1,7,00,00,06,C0,00,00,00,00,
4295860828,000001DB,false,Rx,1,8,FF,80,BB,0B,26,00,02,DE,
4295861055,000001DC,false,Rx,1,8,6E,04,C4,B5,E5,04,C6,96,
4295861693,000001DA,false,Rx,1,8,BA,72,58,00,00,01,03,62,
4295861863,00000120,false,Rx,1,4,00,00,03,0A,00,00,00,00,
4295862093,0000055A,false,Rx,1,8,19,36,37,35,55,00,5B,48,
4295866911,0000011A,false,Rx,1,8,4E,40,00,55,00,00,01,7D,
4295867140,000001D4,false,Rx,1,8,F7,07,00,00,47,44,30,B7,
4295867382,000001F2,false,Rx,1,8,30,64,20,AC,00,3C,01,8F,
4295867605,0000050B,false,Rx,1,7,00,00,06,C0,00,00,00,00,
4295870817,000001DB,false,Rx,1,8,FF,60,BB,0B,26,00,03,69,
4295871055,000001DC,false,Rx,1,8,6E,04,C4,B5,E8,C0,C3,2D,
4295871452,0000055B,false,Rx,1,8,A4,40,AA,00,DF,C0,12,1A,
4295871697,0000059E,false,Rx,1,8,00,00,0C,76,18,00,00,00,
4295871856,00000120,false,Rx,1,4,00,00,04,9B,00,00,00,00,
4295872097,000001DA,false,Rx,1,8,B9,72,58,00,00,01,00,61,
4295872340,000005BC,false,Rx,1,8,3D,80,F0,64,B0,01,00,32,
4295876912,0000011A,false,Rx,1,8,4E,40,00,55,40,00,02,B0,
926975,000002A0,false,Tx,1,8,0C,54,01,7D,44,60,70,57,
4295877152,000001D4,false,Rx,1,8,F7,07,00,00,87,44,30,7B,
4295877394,000001F2,false,Rx,1,8,30,64,20,AC,00,3C,02,8F,
4295877642,0000050B,false,Rx,1,7,00,00,06,C0,00,00,00,00,
4295880826,000001DB,false,Rx,1,8,FF,40,BB,0B,26,00,00,32,
4295881043,000001DC,false,Rx,1,8,6E,04,C4,B5,EC,DC,C8,C4,
4295881691,000001DA,false,Rx,1,8,B9,32,58,00,00,01,01,46,
4295881861,00000120,false,Rx,1,4,00,00,05,1E,00,00,00,00,
4295882953,000002B5,false,Rx,1,8,F0,00,34,80,01,92,00,D7,
4295883178,000002B6,false,Rx,1,8,F1,64,88,81,F0,00,74,18,
4295886902,0000011A,false,Rx,1,8,4E,40,00,AA,80,00,03,A6,
4295887142,000001D4,false,Rx,1,8,F7,07,00,00,C7,44,30,BC,
4295887373,000001F2,false,Rx,1,8,30,64,20,AC,00,3C,03,8F,
4295887597,0000050B,false,Rx,1,7,00,00,06,C0,00,00,00,00,
4295890818,000001DB,false,Rx,1,8,FF,20,BB,0B,26,00,01,44,
4295891056,000001DC,false,Rx,1,8,6E,04,C4,B5,E1,0C,E1,81,
4295891694,000001DA,false,Rx,1,8,B9,32,58,00,00,01,02,4C,
4295891864,00000120,false,Rx,1,4,00,00,06,14,00,00,00,00,
4295896907,0000011A,false,Rx,1,8,4E,40,00,AA,C0,00,00,6B,
4295897145,000001D4,false,Rx,1,8,F7,07,00,00,07,44,30,70,
4295897387,000001F2,false,Rx,1,8,30,64,20,AC,00,3C,00,8F,
4295897609,0000050B,false,Rx,1,7,00,00,06,C0,00,00,00,00,
4295900821,000001DB,false,Rx,1,8,FF,00,BB,0B,26,00,02,1F,
4295901048,000001DC,false,Rx,1,8,6E,04,C4,B5,E5,04,C6,96,
4295901697,000001DA,false,Rx,1,8,BA,72,58,00,00,01,03,62,
4295901866,00000120,false,Rx,1,4,00,00,07,91,00,00,00,00,
4295906910,0000011A,false,Rx,1,8,4E,40,00,55,00,00,01,7D,
4295907148,000001D4,false,Rx,1,8,F7,07,00,00,47,44,30,B7,
4295907379,000001F2,false,Rx,1,8,30,64,20,AC,00,3C,01,8F,
4295907612,0000050B,false,Rx,1,7,00,00,06,C0,00,00,00,00,
4295910824,000001DB,false,Rx,1,8,FF,00,BB,0B,26,00,03,9A,
4295911051,000001DC,false,Rx,1,8,6E,04,C4,B5,E8,C0,C3,2D,
4295911699,000001DA,false,Rx,1,8,BA,72,58,00,00,01,00,68,
4295911869,00000120,false,Rx,1,4,00,00,08,B3,00,00,00,00,
4295916914,0000011A,false,Rx,1,8,4E,40,00,55,40,00,02,B0,
4295917152,000001D4,false,Rx,1,8,F7,07,00,00,87,44,30,7B,
4295917383,000001F2,false,Rx,1,8,30,64,20,AC,00,3C,02,8F,
4295917617,0000050B,false,Rx,1,7,00,00,06,C0,00,00,00,00,
4295920818,000001DB,false,Rx,1,8,FE,E0,BB,0B,26,00,00,A5,
4295921046,000001DC,false,Rx,1,8,6E,04,C4,B5,EC,DC,C8,C4,
4295921694,000001DA,false,Rx,1,8,BA,32,58,00,00,01,01,4F,
4295921864,00000120,false,Rx,1,4,00,00,09,36,00,00,00,00,
4295926908,0000011A,false,Rx,1,8,4E,40,00,AA,80,00,03,A6,
4295927136,000001D4,false,Rx,1,8,F7,07,00,00,C7,44,30,BC,
4295927378,000001F2,false,Rx,1,8,30,64,20,AC,00,3C,03,8F,
4295927601,0000050B,false,Rx,1,7,00,00,06,C0,00,00,00,00,
4295931157,000001DB,false,Rx,1,8,FF,00,BB,0B,26,00,01,15,
4295931385,000001DC,false,Rx,1,8,6E,04,C4,B5,E1,0C,E1,81,
4295931619,0000055B,false,Rx,1,8,6E,80,AA,00,D7,80,12,54,
4295931788,00000120,false,Rx,1,4,00,00,0A,3C,00,00,00,00,
4295932019,000001DA,false,Rx,1,8,BA,32,58,00,00,01,02,45,
4295932262,000005BC,false,Rx,1,8,13,80,64,50,90,00,1F,FF,
4295936903,0000011A,false,Rx,1,8,4E,40,00,AA,C0,00,00,6B,
4295937141,000001D4,false,Rx,1,8,F7,07,00,00,07,44,30,70,
4295937383,000001F2,false,Rx,1,8,30,64,20,AC,00,3C,00,8F,
4295937607,0000050B,false,Rx,1,7,00,00,06,C0,00,00,00,00,
4295937849,00000390,false,Rx,1,8,24,00,01,02,00,00,00,16,
4295940813,000001DB,false,Rx,1,8,FF,20,BB,0B,26,00,02,4E,
4295941040,000001DC,false,Rx,1,8,6E,04,C4,B5,E5,04,C6,96,
4295941700,000001DA,false,Rx,1,8,BA,72,58,00,00,01,03,62,
4295941859,00000120,false,Rx,1,4,00,00,0B,B9,00,00,00,00,
4295942744,00000393,false,Rx,1,8,26,51,00,00,00,00,00,1E,
4295946908,0000011A,false,Rx,1,8,4E,40,00,55,00,00,01,7D,
4295947146,000001D4,false,Rx,1,8,F7,07,00,00,47,44,30,B7,
4295947378,000001F2,false,Rx,1,8,30,64,20,AC,00,3C,01,8F,
4295947613,0000050B,false,Rx,1,7,00,00,06,C0,00,00,00,00,
4295950813,000001DB,false,Rx,1,8,FF,20,BB,0B,26,00,03,CB,
4295951041,000001DC,false,Rx,1,8,6E,04,C4,B5,E8,C0,C3,2D,
4295951700,000001DA,false,Rx,1,8,BA,72,58,00,00,01,00,68,
4295951869,00000120,false,Rx,1,4,00,00,0C,28,00,00,00,00,
4295956913,0000011A,false,Rx,1,8,4E,40,00,55,40,00,02,B0,
4295957151,000001D4,false,Rx,1,8,F7,07,00,00,87,44,30,7B,
4295957383,000001F2,false,Rx,1,8,30,64,20,AC,00,3C,02,8F,
4295957617,0000050B,false,Rx,1,7,00,00,06,C0,00,00,00,00,
4295960817,000001DB,false,Rx,1,8,FF,20,BB,0B,26,00,00,C1,
4295961035,000001DC,false,Rx,1,8,6E,04,C4,B5,EC,DC,C8,C4,
4295961703,000001DA,false,Rx,1,8,BA,32,58,00,00,01,01,4F,
4295961873,00000120,false,Rx,1,4,00,00,0D,AD,00,00,00,00,
4295962104,0000055A,false,Rx,1,8,1A,36,37,35,55,00,5B,48,
4295966901,0000011A,false,Rx,1,8,4E,40,00,AA,80,00,03,A6,
4295967139,000001D4,false,Rx,1,8,F7,07,00,00,C7,44,30,BC,
4295967371,000001F2,false,Rx,1,8,30,64,20,AC,00,3C,03,8F,
4295967594,0000050B,false,Rx,1,7,00,00,06,C0,00,00,00,00,
4295970805,000001DB,false,Rx,1,8,FF,40,BB,0B,26,00,01,B7,
4295971033,000001DC,false,Rx,1,8,6E,04,C4,B5,E1,0C,E1,81,
4295971452,0000055B,false,Rx,1,8,A4,40,AA,00,DF,C0,13,9F,
4295971695,0000059E,false,Rx,1,8,00,00,0C,76,18,00,00,00,
4295971865,00000120,false,Rx,1,4,00,00,0E,A7,00,00,00,00,
4295972095,000001DA,false,Rx,1,8,BA,32,58,00,00,01,02,45,
4295972338,000005BC,false,Rx,1,8,3D,80,F0,64,B0,01,00,32,
4295976901,0000011A,false,Rx,1,8,4E,40,00,AA,C0,00,00,6B,
4295977139,000001D4,false,Rx,1,8,F7,07,00,00,07,44,30,70,
4295977381,000001F2,false,Rx,1,8,30,64,20,AC,00,3C,00,8F,
4295977605,0000050B,false,Rx,1,7,00,00,06,C0,00,00,00,00,
4295980805,000001DB,false,Rx,1,8,FF,60,BB,0B,26,00,02,EC,
4295981033,000001DC,false,Rx,1,8,6E,04,C4,B5,E5,04,C6,96,
4295981691,000001DA,false,Rx,1,8,BA,72,58,00,00,01,03,62,
4295981861,00000120,false,Rx,1,4,00,00,0F,22,00,00,00,00,
4295982901,000002B5,false,Rx,1,8,00,00,32,00,00,00,00,32,
4295983136,000002B6,false,Rx,1,8,00,00,89,01,F0,00,74,0C,
4295986914,0000011A,false,Rx,1,8,4E,40,00,55,00,00,01,7D,
4295987142,000001D4,false,Rx,1,8,F7,07,00,00,47,44,30,B7,
4295987384,000001F2,false,Rx,1,8,30,64,20,AC,00,3C,01,8F,
4295987608,0000050B,false,Rx,1,7,00,00,06,C0,00,00,00,00,
4295990808,000001DB,false,Rx,1,8,FF,80,BB,0B,26,00,03,5B,
4295991046,000001DC,false,Rx,1,8,6E,04,C4,B5,E8,C0,C3,2D,
4295991694,000001DA,false,Rx,1,8,BA,72,58,00,00,01,00,68,
4295991864,00000120,false,Rx,1,4,00,00,00,00,00,00,00,00,
4295996916,0000011A,false,Rx,1,8,4E,40,00,55,40,00,02,B0,
1048396,000002A0,false,Tx,1,8,B1,F4,01,86,6B,60,0C,6A,
4295997144,000001D4,false,Rx,1,8,F7,07,00,00,87,44,30,7B,
4295997386,000001F2,false,Rx,1,8,30,64,20,AC,00,3C,02,8F,
4295997610,0000050B,false,Rx,1,7,00,00,06,C0,00,00,00,00,
4296000807,000001DB,false,Rx,1,8,FF,A0,BB,0B,26,00,00,00,
4296001045,000001DC,false,Rx,1,8,6E,04,C4,B5,EC,DC,C8,C4,
4296001694,000001DA,false,Rx,1,8,BA,32,58,00,00,01,01,4F,
4296001864,00000120,false,Rx,1,4,00,00,01,85,00,00,00,00,
4296006906,0000011A,false,Rx,1,8,4E,40,00,AA,80,00,03,A6,
4296007134,000001D4,false,Rx,1,8,F7,07,00,00,C7,44,30,BC,
4296007376,000001F2,false,Rx,1,8,30,64,20,AC,00,3C,03,8F,
4296007600,0000050B,false,Rx,1,7,00,00,06,C0,00,00,00,00,
4296010810,000001DB,false,Rx,1,8,FF,A0,BB,0B,26,00,01,85,
4296011038,000001DC,false,Rx,1,8,6E,04,C4,B5,E1,0C,E1,81,
4296011686,000001DA,false,Rx,1,8,BA,32,58,00,00,01,02,45,
4296011855,00000120,false,Rx,1,4,00,00,02,8F,00,00,00,00,
4296016899,0000011A,false,Rx,1,8,4E,40,00,AA,C0,00,00,6B,
4296017137,000001D4,false,Rx,1,8,F7,07,00,00,07,44,30,70,
4296017380,000001F2,false,Rx,1,8,30,64,20,AC,00,3C,00,8F,
4296017603,0000050B,false,Rx,1,7,00,00,06,C0,00,00,00,00,
4296020814,000001DB,false,Rx,1,8,FF,C0,BB,0B,26,00,02,7C,
4296021041,000001DC,false,Rx,1,8,6E,04,C4,B5,E5,04,C6,96,
4296021689,000001DA,false,Rx,1,8,BA,72,58,00,00,01,03,62,
4296021859,00000120,false,Rx,1,4,00,00,03,0A,00,00,00,00,
4296026913,0000011A,false,Rx,1,8,4E,40,00,55,00,00,01,7D,
4296027141,000001D4,false,Rx,1,8,F7,07,00,00,47,44,30,B7,
4296027383,000001F2,false,Rx,1,8,30,64,20,AC,00,3C,01,8F,
4296027607,0000050B,false,Rx,1,7,00,00,06,C0,00,00,00,00,
4296031150,000001DB,false,Rx,1,8,FF,C0,BB,0B,26,00,03,F9,
4296031379,000001DC,false,Rx,1,8,6E,04,C4,B5,E8,C0,C3,2D,
4296031612,0000055B,false,Rx,1,8,6E,80,AA,00,D7,80,13,D1,
4296031782,00000120,false,Rx,1,4,00,00,04,9B,00,00,00,00,
4296032013,000001DA,false,Rx,1,8,BA,72,58,00,00,01,00,68,
4296032256,000005BC,false,Rx,1,8,13,80,64,50,90,00,A0,B4,
4296036907,0000011A,false,Rx,1,8,4E,40,00,55,40,00,02,B0,
4296037145,000001D4,false,Rx,1,8,F7,07,00,00,87,44,30,7B,
4296037387,000001F2,false,Rx,1,8,30,64,20,AC,00,3C,02,8F,
4296037612,0000050B,false,Rx,1,7,00,00,06,C0,00,00,00,00,
4296037864,00000390,false,Rx,1,8,24,00,01,02,00,00,00,27,
4296041048,000001DB,false,Rx,1,8,FF,C0,BB,0B,26,00,00,F3,
4296041276,000001DC,false,Rx,1,8,6E,04,C4,B5,EC,DC,C8,C4,
4296041520,0000059E,false,Rx,1,8,00,00,0A,11,F0,00,00,00,
4296041679,00000120,false,Rx,1,4,00,00,05,1E,00,00,00,00,
4296041920,000001DA,false,Rx,1,8,BA,32,58,00,00,01,01,4F,
4296042153,000005C0,false,Rx,1,8,40,64,64,00,72,08,1F,00,
4296042853,00000393,false,Rx,1,8,00,51,00,00,00,00,00,27,
4296046904,0000011A,false,Rx,1,8,4E,40,00,AA,80,00,03,A6,
4296047132,000001D4,false,Rx,1,8,F7,07,00,00,C7,44,30,BC,
4296047374,000001F2,false,Rx,1,8,30,64,20,AC,00,3C,03,8F,
4296047598,0000050B,false,Rx,1,7,00,00,06,C0,00,00,00,00,
4296050808,000001DB,false,Rx,1,8,FF,C0,BB,0B,26,00,01,76,
4296051036,000001DC,false,Rx,1,8,6E,04,C4,B5,E1,0C,E1,81,
4296051694,000001DA,false,Rx,1,8,BA,32,58,00,00,01,02,45,
4296051864,00000120,false,Rx,1,4,00,00,06,14,00,00,00,00,
4296056908,0000011A,false,Rx,1,8,4E,40,00,AA,C0,00,00,6B,
4296057136,000001D4,false,Rx,1,8,F7,07,00,00,07,44,30,70,
4296057378,000001F2,false,Rx,1,8,30,64,20,AC,00,3C,00,8F,
4296057612,0000050B,false,Rx,1,7,00,00,06,C0,00,00,00,00,
4296060801,000001DB,false,Rx,1,8,FF,C0,BB,0B,26,00,02,7C,
4296061029,000001DC,false,Rx,1,8,6E,04,C4,B5,E5,04,C6,96,
4296061698,000001DA,false,Rx,1,8,BA,72,58,00,00,01,03,62,
4296061867,00000120,false,Rx,1,4,00,00,07,91,00,00,00,00,
4296062099,0000055A,false,Rx,1,8,1F,36,37,35,55,00,5B,48,
4296066906,0000011A,false,Rx,1,8,4E,40,00,55,00,00,01,7D,
4296067144,000001D4,false,Rx,1,8,F7,07,00,00,47,44,30,B7,
4296067376,000001F2,false,Rx,1,8,30,64,20,AC,00,3C,01,8F,
4296067610,0000050B,false,Rx,1,7,00,00,06,C0,00,00,00,00,
4296070801,000001DB,false,Rx,1,8,FF,C0,BB,0B,26,00,03,F9,
4296071028,000001DC,false,Rx,1,8,6E,04,C4,B5,E8,C0,C3,2D,
4296071447,0000055B,false,Rx,1,8,A4,40,AA,00,DF,C0,10,95,
4296071691,0000059E,false,Rx,1,8,00,00,0C,76,18,00,00,00,
4296071860,00000120,false,Rx,1,4,00,00,08,B3,00,00,00,00,
4296072092,000001DA,false,Rx,1,8,BA,72,58,00,00,01,00,68,
4296072334,000005BC,false,Rx,1,8,3D,80,F0,64,B0,01,00,32,
1126126,000002A0,false,Tx,1,8,1F,D6,01,70,5C,60,B9,35,
4296076908,0000011A,false,Rx,1,8,4E,40,00,55,40,00,02,B0,
4296077144,000001D4,false,Rx,1,8,F7,07,00,00,87,44,30,7B,
4296077385,000001F2,false,Rx,1,8,30,64,20,AC,00,3C,02,8F,
4296077849,0000050B,false,Rx,1,7,00,00,06,C0,00,00,00,00,
4296080800,000001DB,false,Rx,1,8,FF,A0,BB,0B,26,00,00,00,
4296081028,000001DC,false,Rx,1,8,6E,04,C4,B5,EC,DC,C8,C4,
4296081697,000001DA,false,Rx,1,8,BA,32,58,00,00,01,01,4F,
4296081856,00000120,false,Rx,1,4,00,00,09,36,00,00,00,00,
4296082949,000002B5,false,Rx,1,8,10,00,32,00,00,00,00,22,
4296083183,000002B6,false,Rx,1,8,10,00,89,01,F0,00,74,1C,
4296086898,0000011A,false,Rx,1,8,4E,40,00,AA,80,00,03,A6,
4296087136,000001D4,false,Rx,1,8,F7,07,00,00,C7,44,30,BC,
4296087369,000001F2,false,Rx,1,8,30,64,20,AC,00,3C,03,8F,
4296087592,0000050B,false,Rx,1,7,00,00,06,C0,00,00,00,00,
4296090792,000001DB,false,Rx,1,8,FF,A0,BB,0B,26,00,01,85,
4296091023,000001DC,false,Rx,1,8,6E,04,C4,B5,E1,0C,E1,81,
4296091690,000001DA,false,Rx,1,8,BA,32,58,00,00,01,02,45,
4296091860,00000120,false,Rx,1,4,00,00,0A,3C,00,00,00,00,
4296096899,0000011A,false,Rx,1,8,4E,40,00,AA,C0,00,00,6B,
4296097137,000001D4,false,Rx,1,8,F7,07,00,00,07,44,30,70,
4296097381,000001F2,false,Rx,1,8,30,64,20,AC,00,3C,00,8F,
4296097603,0000050B,false,Rx,1,7,00,00,06,C0,00,00,00,00,
4296100793,000001DB,false,Rx,1,8,FF,A0,BB,0B,26,00,02,8F,
4296101020,000001DC,false,Rx,1,8,6E,04,C4,B5,E5,04,C6,96,
4296101689,000001DA,false,Rx,1,8,BA,72,58,00,00,01,03,62,
4296101859,00000120,false,Rx,1,4,00,00,0B,B9,00,00,00,00,
4296106903,0000011A,false,Rx,1,8,4E,40,00,55,00,00,01,7D,
4296107141,000001D4,false,Rx,1,8,F7,07,00,00,47,44,30,B7,
4296107374,000001F2,false,Rx,1,8,30,64,20,AC,00,3C,01,8F,
4296107607,0000050B,false,Rx,1,7,00,00,06,C0,00,00,00,00,
4296110786,000001DB,false,Rx,1,8,FF,A0,BB,0B,26,00,03,0A,
4296111024,000001DC,false,Rx,1,8,6E,04,C4,B5,E8,C0,C3,2D,
4296111693,000001DA,false,Rx,1,8,BA,72,58,00,00,01,00,68,
4296111862,00000120,false,Rx,1,4,00,00,0C,28,00,00,00,00,
4296116907,0000011A,false,Rx,1,8,4E,40,00,55,40,00,02,B0,
4296117144,000001D4,false,Rx,1,8,F7,07,00,00,87,44,30,7B,
4296117388,000001F2,false,Rx,1,8,30,64,20,AC,00,3C,02,8F,
4296117610,0000050B,false,Rx,1,7,00,00,06,C0,00,00,00,00,
4296120790,000001DB,false,Rx,1,8,FF,A0,BB,0B,26,00,00,00,
4296121018,000001DC,false,Rx,1,8,6E,04,C4,B5,EC,DC,C8,C4,
4296121686,000001DA,false,Rx,1,8,BA,32,58,00,00,01,01,4F,
4296121856,00000120,false,Rx,1,4,00,00,0D,AD,00,00,00,00,
4296126899,0000011A,false,Rx,1,8,4E,40,00,AA,80,00,03,A6,
4296127137,000001D4,false,Rx,1,8,F7,07,00,00,C7,44,30,BC,
4296127370,000001F2,false,Rx,1,8,30,64,20,AC,00,3C,03,8F,
4296127592,0000050B,false,Rx,1,7,00,00,06,C0,00,00,00,00,
4296131138,000001DB,false,Rx,1,8,FF,A0,BB,0B,26,00,01,85,
4296131366,000001DC,false,Rx,1,8,6E,04,C4,B5,E1,0C,E1,81,
4296131589,0000055B,false,Rx,1,8,6E,80,AA,00,DA,40,10,AD,
4296131758,00000120,false,Rx,1,4,00,00,0E,A7,00,00,00,00,
4296131990,000001DA,false,Rx,1,8,BA,32,58,00,00,01,02,45,
4296132222,000005BC,false,Rx,1,8,13,80,B5,50,91,01,01,0E,
4296136904,0000011A,false,Rx,1,8,4E,40,00,AA,C0,00,00,6B,
4296137142,000001D4,false,Rx,1,8,F7,07,00,00,07,44,30,70,
4296137375,000001F2,false,Rx,1,8,30,64,20,AC,00,3C,00,8F,
4296137608,0000050B,false,Rx,1,7,00,00,06,C0,00,00,00,00,
4296137984,00000390,false,Rx,1,8,24,00,01,02,00,00,00,38,
4296140793,000001DB,false,Rx,1,8,FF,A0,BB,0B,26,00,02,8F,
4296141021,000001DC,false,Rx,1,8,6E,04,C4,B5,E5,04,C6,96,
4296141689,000001DA,false,Rx,1,8,BA,72,58,00,00,01,03,62,
4296141859,00000120,false,Rx,1,4,00,00,0F,22,00,00,00,00,
4296142942,00000393,false,Rx,1,8,26,51,00,00,00,00,00,30,
4296146908,0000011A,false,Rx,1,8,4E,40,00,55,00,00,01,7D,
4296147136,000001D4,false,Rx,1,8,F7,07,00,00,47,44,30,B7,
4296147379,000001F2,false,Rx,1,8,30,64,20,AC,00,3C,01,8F,
4296147602,0000050B,false,Rx,1,7,00,00,06,C0,00,00,00,00,
4296150791,000001DB,false,Rx,1,8,FF,A0,BB,0B,26,00,03,0A,
4296151019,000001DC,false,Rx,1,8,6E,04,C4,B5,E8,C0,C3,2D,
4296151698,000001DA,false,Rx,1,8,BA,72,58,00,00,01,00,68,
4296151879,00000120,false,Rx,1,4,00,00,00,00,00,00,00,00,
4296156901,0000011A,false,Rx,1,8,4E,40,00,55,40,00,02,B0,
4296157139,000001D4,false,Rx,1,8,F7,07,00,00,87,44,30,7B,
4296157382,000001F2,false,Rx,1,8,30,64,20,AC,00,3C,02,8F,
4296157605,0000050B,false,Rx,1,7,00,00,06,C0,00,00,00,00,
4296160785,000001DB,false,Rx,1,8,FF,A0,BB,0B,26,00,00,00,
4296161012,000001DC,false,Rx,1,8,6E,04,C4,B5,EC,DC,C8,C4,
4296161702,000001DA,false,Rx,1,8,BA,32,58,00,00,01,01,4F,
4296161873,00000120,false,Rx,1,4,00,00,01,85,00,00,00,00,
4296162103,0000055A,false,Rx,1,8,14,36,37,35,55,00,5B,48,
4296166900,0000011A,false,Rx,1,8,4E,40,00,AA,80,00,03,A6,
4296167127,000001D4,false,Rx,1,8,F7,07,00,00,C7,44,30,BC,
4296167371,000001F2,false,Rx,1,8,30,64,20,AC,00,3C,03,8F,
4296167593,0000050B,false,Rx,1,7,00,00,06,C0,00,00,00,00,
4296170783,000001DB,false,Rx,1,8,FF,A0,BB,0B,26,00,01,85,
4296171011,000001DC,false,Rx,1,8,6E,04,C4,B5,E1,0C,E1,81,
4296171440,0000055B,false,Rx,1,8,A4,40,AA,00,DF,C0,11,10,
4296171684,0000059E,false,Rx,1,8,00,00,0C,76,18,00,00,00,
4296171854,00000120,false,Rx,1,4,00,00,02,8F,00,00,00,00,
4296172085,000001DA,false,Rx,1,8,BA,32,58,00,00,01,02,45,
4296172327,000005BC,false,Rx,1,8,3D,80,F0,64,B0,01,00,32,
4296176902,0000011A,false,Rx,1,8,4E,40,00,AA,C0,00,00,6B,
1227057,000002A0,false,Tx,1,8,34,3C,01,96,3D,60,3E,24,
4296177140,000001D4,false,Rx,1,8,F7,07,00,00,07,44,30,70,
4296177373,000001F2,false,Rx,1,8,30,64,20,AC,00,3C,00,8F,
4296177607,0000050B,false,Rx,1,7,00,00,06,C0,00,00,00,00,
4296180783,000001DB,false,Rx,1,8,FF,A0,BB,0B,26,00,02,8F,
4296181011,000001DC,false,Rx,1,8,6E,04,C4,B5,E5,04,C6,96,
4296181690,000001DA,false,Rx,1,8,BA,72,58,00,00,01,03,62,
4296181861,00000120,false,Rx,1,4,00,00,03,0A,00,00,00,00,
4296182974,000002B5,false,Rx,1,8,20,00,32,00,00,00,00,12,
4296183195,000002B6,false,Rx,1,8,20,00,89,01,F0,00,74,2C,
4296186902,0000011A,false,Rx,1,8,4E,40,00,55,00,00,01,7D,
4296187140,000001D4,false,Rx,1,8,F7,07,00,00,47,44,30,B7,
4296187373,000001F2,false,Rx,1,8,30,64,20,AC,00,3C,01,8F,
4296187606,0000050B,false,Rx,1,7,00,00,06,C0,00,00,00,00,
4296190776,000001DB,false,Rx,1,8,FF,A0,BB,0B,26,00,03,0A,
4296191008,000001DC,false,Rx,1,8,6E,04,C4,B5,E8,C0,C3,2D,
4296191685,000001DA,false,Rx,1,8,BA,72,58,00,00,01,00,68,
4296191855,00000120,false,Rx,1,4,00,00,04,9B,00,00,00,00,
4296196905,0000011A,false,Rx,1,8,4E,40,00,55,40,00,02,B0,
4296197144,000001D4,false,Rx,1,8,F7,07,00,00,87,44,30,7B,
4296197376,000001F2,false,Rx,1,8,30,64,20,AC,00,3C,02,8F,
4296197610,0000050B,false,Rx,1,7,00,00,06,C0,00,00,00,00,
4296200778,000001DB,false,Rx,1,8,FF,A0,BB,0B,26,00,00,00,
4296201006,000001DC,false,Rx,1,8,6E,04,C4,B5,EC,DC,C8,C4,
4296201695,000001DA,false,Rx,1,8,BA,32,58,00,00,01,01,4F,
4296201856,00000120,false,Rx,1,4,00,00,05,1E,00,00,00,00,
4296206898,0000011A,false,Rx,1,8,4E,40,00,AA,80,00,03,A6,
4296207136,000001D4,false,Rx,1,8,F7,07,00,00,C7,44,30,BC,
4296207369,000001F2,false,Rx,1,8,30,64,20,AC,00,3C,03,8F,
4296207591,0000050B,false,Rx,1,7,00,00,06,C0,00,00,00,00,
4296210781,000001DB,false,Rx,1,8,FF,A0,BB,0B,26,00,01,85,
4296211009,000001DC,false,Rx,1,8,6E,04,C4,B5,E1,0C,E1,81,
4296211687,000001DA,false,Rx,1,8,BA,32,58,00,00,01,02,45,
4296211858,00000120,false,Rx,1,4,00,00,06,14,00,00,00,00,
4296216901,0000011A,false,Rx,1,8,4E,40,00,AA,C0,00,00,6B,
4296217139,000001D4,false,Rx,1,8,F7,07,00,00,07,44,30,70,
4296217372,000001F2,false,Rx,1,8,30,64,20,AC,00,3C,00,8F,
4296217605,0000050B,false,Rx,1,7,00,00,06,C0,00,00,00,00,
4296220774,000001DB,false,Rx,1,8,FF,A0,BB,0B,26,00,02,8F,
4296221003,000001DC,false,Rx,1,8,6E,04,C4,B5,E5,04,C6,96,
4296221691,000001DA,false,Rx,1,8,BA,72,58,00,00,01,03,62,
4296221862,00000120,false,Rx,1,4,00,00,07,91,00,00,00,00,
4296226904,0000011A,false,Rx,1,8,4E,40,00,55,00,00,01,7D,
4296227133,000001D4,false,Rx,1,8,F7,07,00,00,47,44,30,B7,
4296227375,000001F2,false,Rx,1,8,30,64,20,AC,00,3C,01,8F,
4296227598,0000050B,false,Rx,1,7,00,00,06,C0,00,00,00,00,
4296231122,000001DB,false,Rx,1,8,FF,A0,BB,0B,26,00,03,0A,
4296231350,000001DC,false,Rx,1,8,6E,04,C4,B5,E8,C0,C3,2D,
4296231583,0000055B,false,Rx,1,8,6E,80,AA,00,DA,40,11,28,
4296231754,00000120,false,Rx,1,4,00,00,08,B3,00,00,00,00,
4296231984,000001DA,false,Rx,1,8,BA,72,58,00,00,01,00,68,
4296232216,000005BC,false,Rx,1,8,13,80,B5,50,91,01,62,B2,
4296236909,0000011A,false,Rx,1,8,4E,40,00,55,40,00,02,B0,
4296237138,000001D4,false,Rx,1,8,F7,07,00,00,87,44,30,7B,
4296237380,000001F2,false,Rx,1,8,30,64,20,AC,00,3C,02,8F,
4296237602,0000050B,false,Rx,1,7,00,00,06,C0,00,00,00,00,
4296238084,00000390,false,Rx,1,8,24,00,01,02,00,00,00,05,
4296240779,000001DB,false,Rx,1,8,FF,A0,BB,0B,26,00,00,00,
4296241008,000001DC,false,Rx,1,8,6E,04,C4,B5,EC,DC,C8,C4,
4296241696,000001DA,false,Rx,1,8,BA,32,58,00,00,01,01,4F,
4296241856,00000120,false,Rx,1,4,00,00,09,36,00,00,00,00,
4296243041,00000393,false,Rx,1,8,00,51,00,00,00,00,00,05,
4296246902,0000011A,false,Rx,1,8,4E,40,00,AA,80,00,03,A6,
4296247131,000001D4,false,Rx,1,8,F7,07,00,00,C7,44,30,BC,
4296247363,000001F2,false,Rx,1,8,30,64,20,AC,00,3C,03,8F,
4296247597,0000050B,false,Rx,1,7,00,00,06,C0,00,00,00,00,
4296250775,000001DB,false,Rx,1,8,FF,A0,BB,0B,26,00,01,85,
4296251008,000001DC,false,Rx,1,8,6E,04,C4,B5,E1,0C,E1,81,
4296251695,000001DA,false,Rx,1,8,BA,32,58,00,00,01,02,45,
4296251865,00000120,false,Rx,1,4,00,00,0A,3C,00,00,00,00,
4296256894,0000011A,false,Rx,1,8,4E,40,00,AA,C0,00,00,6B,
4296257133,000001D4,false,Rx,1,8,F7,07,00,00,07,44,30,70,
4296257375,000001F2,false,Rx,1,8,30,64,20,AC,00,3C,00,8F,
4296257598,0000050B,false,Rx,1,7,00,00,06,C0,00,00,00,00,
4296260767,000001DB,false,Rx,1,8,FF,A0,BB,0B,26,00,02,8F,
4296260996,000001DC,false,Rx,1,8,6E,04,C4,B5,E5,04,C6,96,
4296261696,000001DA,false,Rx,1,8,BA,72,58,00,00,01,03,62,
4296261855,00000120,false,Rx,1,4,00,00,0B,B9,00,00,00,00,
4296262086,0000055A,false,Rx,1,8,19,36,37,35,55,00,5B,48,
4296266903,0000011A,false,Rx,1,8,4E,40,00,55,00,00,01,7D,
4296267132,000001D4,false,Rx,1,8,F7,07,00,00,47,44,30,B7,
4296267374,000001F2,false,Rx,1,8,30,64,20,AC,00,3C,01,8F,
4296267597,0000050B,false,Rx,1,7,00,00,06,C0,00,00,00,00,
4296270776,000001DB,false,Rx,1,8,FF,A0,BB,0B,26,00,03,0A,
4296271005,000001DC,false,Rx,1,8,6E,04,C4,B5,E8,C0,C3,2D,
4296271444,0000055B,false,Rx,1,8,A4,40,AA,00,DF,C0,12,1A,
4296271688,0000059E,false,Rx,1,8,00,00,0C,76,18,00,00,00,
4296271847,00000120,false,Rx,1,4,00,00,0C,28,00,00,00,00,
4296272088,000001DA,false,Rx,1,8,BA,72,58,00,00,01,00,68,
4296272330,000005BC,false,Rx,1,8,3D,80,F0,64,B0,01,00,32,
4296276903,0000011A,false,Rx,1,8,4E,40,00,55,40,00,02,B0,
4296277142,000001D4,false,Rx,1,8,F7,07,00,00,87,44,30,7B,
4296277374,000001F2,false,Rx,1,8,30,64,20,AC,00,3C,02,8F,
4296277607,0000050B,false,Rx,1,7,00,00,06,C0,00,00,00,00,
4296280775,000001DB,false,Rx,1,8,FF,A0,BB,0B,26,00,00,00,
4296280994,000001DC,false,Rx,1,8,6E,04,C4,B5,EC,DC,C8,C4,
4296281683,000001DA,false,Rx,1,8,BA,32,58,00,00,01,01,4F,
4296281853,00000120,false,Rx,1,4,00,00,0D,AD,00,00,00,00,
4296282883,000002B5,false,Rx,1,8,30,00,32,00,00,00,00,02,
4296283117,000002B6,false,Rx,1,8,30,00,89,01,F0,00,74,3C,
4296286895,0000011A,false,Rx,1,8,4E,40,00,AA,80,00,03,A6,
4296287124,000001D4,false,Rx,1,8,F7,07,00,00,C7,44,30,BC,
4296287366,000001F2,false,Rx,1,8,30,64,20,AC,00,3C,03,8F,
4296287588,0000050B,false,Rx,1,7,00,00,06,C0,00,00,00,00,
4296290768,000001DB,false,Rx,1,8,FF,A0,BB,0B,26,00,01,85,
4296291001,000001DC,false,Rx,1,8,6E,04,C4,B5,E1,0C,E1,81,
4296291688,000001DA,false,Rx,1,8,BA,32,58,00,00,01,02,45,
4296291858,00000120,false,Rx,1,4,00,00,0E,A7,00,00,00,00,
4296296897,0000011A,false,Rx,1,8,4E,40,00,AA,C0,00,00,6B,
4296297136,000001D4,false,Rx,1,8,F7,07,00,00,07,44,30,70,
4296297378,000001F2,false,Rx,1,8,30,64,20,AC,00,3C,00,8F,
4296297601,0000050B,false,Rx,1,7,00,00,06,C0,00,00,00,00,
4296300770,000001DB,false,Rx,1,8,FF,A0,BB,0B,26,00,02,8F,
4296300989,000001DC,false,Rx,1,8,6E,04,C4,B5,E5,04,C6,96,
4296301689,000001DA,false,Rx,1,8,BA,72,58,00,00,01,03,62,
4296301858,00000120,false,Rx,1,4,00,00,0F,22,00,00,00,00,
1353191,000002A0,false,Tx,1,8,B1,F7,01,AC,19,60,9D,30,
4296306898,0000011A,false,Rx,1,8,4E,40,00,55,00,00,01,7D,
4296307137,000001D4,false,Rx,1,8,F7,07,00,00,47,44,30,B7,
4296307368,000001F2,false,Rx,1,8,30,64,20,AC,00,3C,01,8F,
4296307601,0000050B,false,Rx,1,7,00,00,06,C0,00,00,00,00,
4296310770,000001DB,false,Rx,1,8,FF,A0,BB,0B,26,00,03,0A,
4296310999,000001DC,false,Rx,1,8,6E,04,C4,B5,E8,C0,C3,2D,
4296311689,000001DA,false,Rx,1,8,BA,72,58,00,00,01,00,68,
4296311858,00000120,false,Rx,1,4,00,00,00,00,00,00,00,00,
4296316900,0000011A,false,Rx,1,8,4E,40,00,55,40,00,02,B0,
4296317139,000001D4,false,Rx,1,8,F7,07,00,00,87,44,30,7B,
4296317381,000001F2,false,Rx,1,8,30,64,20,AC,00,3C,02,8F,
4296317604,0000050B,false,Rx,1,7,00,00,06,C0,00,00,00,00,
4296320773,000001DB,false,Rx,1,8,FF,A0,BB,0B,26,00,00,00,
4296320992,000001DC,false,Rx,1,8,6E,04,C4,B5,EC,DC,C8,C4,
4296321681,000001DA,false,Rx,1,8,BA,32,58,00,00,01,01,4F,
4296321861,00000120,false,Rx,1,4,00,00,01,85,00,00,00,00,
4296326893,0000011A,false,Rx,1,8,4E,40,00,AA,80,00,03,A6,
4296327132,000001D4,false,Rx,1,8,F7,07,00,00,C7,44,30,BC,
4296327363,000001F2,false,Rx,1,8,30,64,20,AC,00,3C,03,8F,
4296327586,0000050B,false,Rx,1,7,00,00,06,C0,00,00,00,00,
4296331110,000001DB,false,Rx,1,8,FF,A0,BB,0B,26,00,01,85,
4296331338,000001DC,false,Rx,1,8,6E,04,C4,B5,E1,0C,E1,81,
4296331571,0000055B,false,Rx,1,8,6E,80,AA,00,DA,40,12,22,
4296331742,00000120,false,Rx,1,4,00,00,02,8F,00,00,00,00,
4296331972,000001DA,false,Rx,1,8,BA,32,58,00,00,01,02,45,
4296332204,000005BC,false,Rx,1,8,13,80,B5,50,91,02,40,5A,
4296336896,0000011A,false,Rx,1,8,4E,40,00,AA,C0,00,00,6B,
4296337136,000001D4,false,Rx,1,8,F7,07,00,00,07,44,30,70,
4296337367,000001F2,false,Rx,1,8,30,64,20,AC,00,3C,00,8F,
4296337601,0000050B,false,Rx,1,7,00,00,06,C0,00,00,00,00,
4296338186,00000390,false,Rx,1,8,24,00,01,02,00,00,00,16,
4296340767,000001DB,false,Rx,1,8,FF,A0,BB,0B,26,00,02,8F,
4296340996,000001DC,false,Rx,1,8,6E,04,C4,B5,E5,04,C6,96,
4296341685,000001DA,false,Rx,1,8,BA,72,58,00,00,01,03,62,
4296341855,00000120,false,Rx,1,4,00,00,03,0A,00,00,00,00,
4296343145,00000393,false,Rx,1,8,26,51,00,00,00,00,00,1E,
4296346901,0000011A,false,Rx,1,8,4E,40,00,55,00,00,01,7D,
4296347130,000001D4,false,Rx,1,8,F7,07,00,00,47,44,30,B7,
4296347373,000001F2,false,Rx,1,8,30,64,20,AC,00,3C,01,8F,
4296347595,0000050B,false,Rx,1,7,00,00,06,C0,00,00,00,00,
4296350764,000001DB,false,Rx,1,8,FF,A0,BB,0B,26,00,03,0A,
4296350987,000001DC,false,Rx,1,8,6E,04,C4,B5,E8,C0,C3,2D,
4296351696,000001DA,false,Rx,1,8,BA,72,58,00,00,01,00,68,
4296351865,00000120,false,Rx,1,4,00,00,04,9B,00,00,00,00,
4296356904,0000011A,false,Rx,1,8,4E,40,00,55,40,00,02,B0,
4296357133,000001D4,false,Rx,1,8,F7,07,00,00,87,44,30,7B,
4296357375,000001F2,false,Rx,1,8,30,64,20,AC,00,3C,02,8F,
4296357597,0000050B,false,Rx,1,7,00,00,06,C0,00,00,00,00,
4296360756,000001DB,false,Rx,1,8,FF,C0,BB,0B,26,00,00,F3,
4296360985,000001DC,false,Rx,1,8,6E,04,C4,B5,EC,DC,C8,C4,
4296361696,000001DA,false,Rx,1,8,BA,32,58,00,00,01,01,4F,
4296361865,00000120,false,Rx,1,4,00,00,05,1E,00,00,00,00,
4296362096,0000055A,false,Rx,1,8,1A,36,37,35,55,00,5B,48,
4296366892,0000011A,false,Rx,1,8,4E,40,00,AA,80,00,03,A6,
4296367131,000001D4,false,Rx,1,8,F7,07,00,00,C7,44,30,BC,
4296367363,000001F2,false,Rx,1,8,30,64,20,AC,00,3C,03,8F,
4296367586,0000050B,false,Rx,1,7,00,00,06,C0,00,00,00,00,
4296370756,000001DB,false,Rx,1,8,FF,C0,BB,0B,26,00,01,76,
4296370984,000001DC,false,Rx,1,8,6E,04,C4,B5,E1,0C,E1,81,
4296371443,0000055B,false,Rx,1,8,A4,40,AA,00,DF,C0,13,9F,
4296371688,0000059E,false,Rx,1,8,00,00,0C,76,18,00,00,00,
4296371847,00000120,false,Rx,1,4,00,00,06,14,00,00,00,00,
4296372088,000001DA,false,Rx,1,8,BA,32,58,00,00,01,02,45,
4296372321,000005BC,false,Rx,1,8,3D,80,F0,64,B0,01,00,32,
4296376894,0000011A,false,Rx,1,8,4E,40,00,AA,C0,00,00,6B,
1426983,000002A0,false,Tx,1,8,EF,E2,01,67,8C,60,B0,7D,
4296377132,000001D4,false,Rx,1,8,F7,07,00,00,07,44,30,70,
4296377374,000001F2,false,Rx,1,8,30,64,20,AC,00,3C,00,8F,
4296377685,0000050B,false,Rx,1,7,00,00,06,C0,00,00,00,00,
4296380764,000001DB,false,Rx,1,8,FF,C0,BB,0B,26,00,02,7C,
4296380992,000001DC,false,Rx,1,8,6E,04,C4,B5,E5,04,C6,96,
4296381692,000001DA,false,Rx,1,8,BA,72,58,00,00,01,03,62,
4296381851,00000120,false,Rx,1,4,00,00,07,91,00,00,00,00,
4296382953,000002B5,false,Rx,1,8,40,00,32,00,00,00,00,72,
4296383188,000002B6,false,Rx,1,8,40,00,89,01,F0,00,74,4C,
4296386904,0000011A,false,Rx,1,8,4E,40,00,55,00,00,01,7D,
4296387132,000001D4,false,Rx,1,8,F7,07,00,00,47,44,30,B7,
4296387374,000001F2,false,Rx,1,8,30,64,20,AC,00,3C,01,8F,
4296387596,0000050B,false,Rx,1,7,00,00,06,C0,00,00,00,00,
4296390756,000001DB,false,Rx,1,8,FF,C0,BB,0B,26,00,03,F9,
4296390988,000001DC,false,Rx,1,8,6E,04,C4,B5,E8,C0,C3,2D,
4296391686,000001DA,false,Rx,1,8,BA,72,58,00,00,01,00,68,
4296391855,00000120,false,Rx,1,4,00,00,08,B3,00,00,00,00,
4296396905,0000011A,false,Rx,1,8,4E,40,00,55,40,00,02,B0,
4296397143,000001D4,false,Rx,1,8,F7,07,00,00,87,44,30,7B,
4296397375,000001F2,false,Rx,1,8,30,64,20,AC,00,3C,02,8F,
4296397597,0000050B,false,Rx,1,7,00,00,06,C0,00,00,00,00,
4296400758,000001DB,false,Rx,1,8,FF,C0,BB,0B,26,00,00,F3,
4296400986,000001DC,false,Rx,1,8,6E,04,C4,B5,EC,DC,C8,C4,
4296401685,000001DA,false,Rx,1,8,BA,32,58,00,00,01,01,4F,
4296401855,00000120,false,Rx,1,4,00,00,09,36,00,00,00,00,
4296406887,0000011A,false,Rx,1,8,4E,40,00,AA,80,00,03,A6,
4296407125,000001D4,false,Rx,1,8,F7,07,00,00,C7,44,30,BC,
4296407357,000001F2,false,Rx,1,8,30,64,20,AC,00,3C,03,8F,
4296407591,0000050B,false,Rx,1,7,00,00,06,C0,00,00,00,00,
4296410751,000001DB,false,Rx,1,8,FF,C0,BB,0B,26,00,01,76,
4296410978,000001DC,false,Rx,1,8,6E,04,C4,B5,E1,0C,E1,81,
4296411678,000001DA,false,Rx,1,8,BA,32,58,00,00,01,02,45,
4296411848,00000120,false,Rx,1,4,00,00,0A,3C,00,00,00,00,
4296416892,0000011A,false,Rx,1,8,4E,40,00,AA,C0,00,00,6B,
4296417130,000001D4,false,Rx,1,8,F7,07,00,00,07,44,30,70,
4296417372,000001F2,false,Rx,1,8,30,64,20,AC,00,3C,00,8F,
4296417596,0000050B,false,Rx,1,7,00,00,06,C0,00,00,00,00,
4296420755,000001DB,false,Rx,1,8,FF,C0,BB,0B,26,00,02,7C,
4296420983,000001DC,false,Rx,1,8,6E,04,C4,B5,E5,04,C6,96,
4296421683,000001DA,false,Rx,1,8,BA,72,58,00,00,01,03,62,
4296421852,00000120,false,Rx,1,4,00,00,0B,B9,00,00,00,00,
4296426897,0000011A,false,Rx,1,8,4E,40,00,55,00,00,01,7D,
4296427135,000001D4,false,Rx,1,8,F7,07,00,00,47,44,30,B7,
4296427367,000001F2,false,Rx,1,8,30,64,20,AC,00,3C,01,8F,
4296427601,0000050B,false,Rx,1,7,00,00,06,C0,00,00,00,00,
4296431093,000001DB,false,Rx,1,8,FF,C0,BB,0B,26,00,03,F9,
4296431331,000001DC,false,Rx,1,8,6E,04,C4,B5,E8,C0,C3,2D,
4296431555,0000055B,false,Rx,1,8,6E,80,AA,00,DA,40,13,A7,
4296431725,00000120,false,Rx,1,4,00,00,0C,28,00,00,00,00,
4296431955,000001DA,false,Rx,1,8,BA,72,58,00,00,01,00,68,
4296432188,000005BC,false,Rx,1,8,13,80,B5,50,91,02,A0,96,
4296436903,0000011A,false,Rx,1,8,4E,40,00,55,40,00,02,B0,
4296437141,000001D4,false,Rx,1,8,F7,07,00,00,87,44,30,7B,
4296437372,000001F2,false,Rx,1,8,30,64,20,AC,00,3C,02,8F,
4296437596,0000050B,false,Rx,1,7,00,00,06,C0,00,00,00,00,
4296438283,00000390,false,Rx,1,8,24,00,01,02,00,00,00,27,
4296440750,000001DB,false,Rx,1,8,FF,C0,BB,0B,26,00,00,F3,
4296440978,000001DC,false,Rx,1,8,6E,04,C4,B5,EC,DC,C8,C4,
4296441688,000001DA,false,Rx,1,8,BA,32,58,00,00,01,01,4F,
4296441857,00000120,false,Rx,1,4,00,00,0D,AD,00,00,00,00,
4296443240,00000393,false,Rx,1,8,00,51,00,00,00,00,00,27,
4296446894,0000011A,false,Rx,1,8,4E,40,00,AA,80,00,03,A6,
4296447122,000001D4,false,Rx,1,8,F7,07,00,00,C7,44,30,BC,
4296447364,000001F2,false,Rx,1,8,30,64,20,AC,00,3C,03,8F,
4296447588,0000050B,false,Rx,1,7,00,00,06,C0,00,00,00,00,
4296450746,000001DB,false,Rx,1,8,FF,C0,BB,0B,26,00,01,76,
4296450977,000001DC,false,Rx,1,8,6E,04,C4,B5,E1,0C,E1,81,
4296451686,000001DA,false,Rx,1,8,BA,32,58,00,00,01,02,45,
4296451855,00000120,false,Rx,1,4,00,00,0E,A7,00,00,00,00,
4296456897,0000011A,false,Rx,1,8,4E,40,00,AA,C0,00,00,6B,
4296457125,000001D4,false,Rx,1,8,F7,07,00,00,07,44,30,70,
4296457367,000001F2,false,Rx,1,8,30,64,20,AC,00,3C,00,8F,
4296457601,0000050B,false,Rx,1,7,00,00,06,C0,00,00,00,00,
4296460750,000001DB,false,Rx,1,8,FF,C0,BB,0B,26,00,02,7C,
4296460977,000001DC,false,Rx,1,8,6E,04,C4,B5,E5,04,C6,96,
4296461687,000001DA,false,Rx,1,8,BA,72,58,00,00,01,03,62,
4296461857,00000120,false,Rx,1,4,00,00,0F,22,00,00,00,00,
4296462088,0000055A,false,Rx,1,8,1F,36,37,35,55,00,5B,48,
4296466896,0000011A,false,Rx,1,8,4E,40,00,55,00,00,01,7D,
4296467133,000001D4,false,Rx,1,8,F7,07,00,00,47,44,30,B7,
4296467365,000001F2,false,Rx,1,8,30,64,20,AC,00,3C,01,8F,
4296467599,0000050B,false,Rx,1,7,00,00,06,C0,00,00,00,00,
4296470747,000001DB,false,Rx,1,8,FF,C0,BB,0B,26,00,03,F9,
4296470975,000001DC,false,Rx,1,8,6E,04,C4,B5,E8,C0,C3,2D,
4296471436,0000055B,false,Rx,1,8,A4,40,AA,00,DF,C0,10,95,
4296471679,0000059E,false,Rx,1,8,00,00,0C,76,18,00,00,00,
4296471848,00000120,false,Rx,1,4,00,00,00,00,00,00,00,00,
4296472089,000001DA,false,Rx,1,8,BA,72,58,00,00,01,00,68,
4296472322,000005BC,false,Rx,1,8,3D,80,F0,64,B0,01,00,32,
4296476896,0000011A,false,Rx,1,8,4E,40,00,55,40,00,02,B0,
4296477134,000001D4,false,Rx,1,8,F7,07,00,00,87,44,30,7B,
4296477376,000001F2,false,Rx,1,8,30,64,20,AC,00,3C,02,8F,
4296477600,0000050B,false,Rx,1,7,00,00,06,C0,00,00,00,00,
4296480749,000001DB,false,Rx,1,8,FF,C0,BB,0B,26,00,00,F3,
4296480977,000001DC,false,Rx,1,8,6E,04,C4,B5,EC,DC,C8,C4,
4296481687,000001DA,false,Rx,1,8,BA,32,58,00,00,01,01,4F,
4296481856,00000120,false,Rx,1,4,00,00,01,85,00,00,00,00,
4296482877,000002B5,false,Rx,1,8,50,00,32,00,00,00,00,62,
4296483111,000002B6,false,Rx,1,8,50,00,89,01,F0,00,74,5C,
4296486889,0000011A,false,Rx,1,8,4E,40,00,AA,80,00,03,A6,
4296487127,000001D4,false,Rx,1,8,F7,07,00,00,C7,44,30,BC,
4296487358,000001F2,false,Rx,1,8,30,64,20,AC,00,3C,03,8F,
4296487582,0000050B,false,Rx,1,7,00,00,06,C0,00,00,00,00,
4296490741,000001DB,false,Rx,1,8,FF,C0,BB,0B,26,00,01,76,
4296490972,000001DC,false,Rx,1,8,6E,04,C4,B5,E1,0C,E1,81,
4296491681,000001DA,false,Rx,1,8,BA,32,58,00,00,01,02,45,
4296491850,00000120,false,Rx,1,4,00,00,02,8F,00,00,00,00,
1543701,000002A0,false,Tx,1,8,DB,63,01,25,30,60,D6,98,
4296496888,0000011A,false,Rx,1,8,4E,40,00,AA,C0,00,00,6B,
4296497126,000001D4,false,Rx,1,8,F7,07,00,00,07,44,30,70,
4296497368,000001F2,false,Rx,1,8,30,64,20,AC,00,3C,00,8F,
4296497591,0000050B,false,Rx,1,7,00,00,06,C0,00,00,00,00,
4296500750,000001DB,false,Rx,1,8,FF,C0,BB,0B,26,00,02,7C,
4296500978,000001DC,false,Rx,1,8,6E,04,C4,B5,E5,04,C6,96,
4296501688,000001DA,false,Rx,1,8,BA,72,58,00,00,01,03,62,
4296501857,00000120,false,Rx,1,4,00,00,03,0A,00,00,00,00,
4296506901,0000011A,false,Rx,1,8,4E,40,00,55,00,00,01,7D,
4296507128,000001D4,false,Rx,1,8,F7,07,00,00,47,44,30,B7,
4296507371,000001F2,false,Rx,1,8,30,64,20,AC,00,3C,01,8F,
4296507594,0000050B,false,Rx,1,7,00,00,06,C0,00,00,00,00,
4296510744,000001DB,false,Rx,1,8,FF,C0,BB,0B,26,00,03,F9,
4296510971,000001DC,false,Rx,1,8,6E,04,C4,B5,E8,C0,C3,2D,
4296511692,000001DA,false,Rx,1,8,BA,72,58,00,00,01,00,68,
4296511851,00000120,false,Rx,1,4,00,00,04,9B,00,00,00,00,
4296516894,0000011A,false,Rx,1,8,4E,40,00,55,40,00,02,B0,
4296517132,000001D4,false,Rx,1,8,F7,07,00,00,87,44,30,7B,
4296517374,000001F2,false,Rx,1,8,30,64,20,AC,00,3C,02,8F,
4296517597,0000050B,false,Rx,1,7,00,00,06,C0,00,00,00,00,
4296520736,000001DB,false,Rx,1,8,FF,C0,BB,0B,26,00,00,F3,
4296520963,000001DC,false,Rx,1,8,6E,04,C4,B5,EC,DC,C8,C4,
4296521684,000001DA,false,Rx,1,8,BA,32,58,00,00,01,01,4F,
4296521854,00000120,false,Rx,1,4,00,00,05,1E,00,00,00,00,
4296526887,0000011A,false,Rx,1,8,4E,40,00,AA,80,00,03,A6,
4296527125,000001D4,false,Rx,1,8,F7,07,00,00,C7,44,30,BC,
4296527356,000001F2,false,Rx,1,8,30,64,20,AC,00,3C,03,8F,
4296527580,0000050B,false,Rx,1,7,00,00,06,C0,00,00,00,00,
4296531093,000001DB,false,Rx,1,8,FF,C0,BB,0A,26,00,01,60,
4296531312,000001DC,false,Rx,1,8,6E,04,C4,B5,E1,0C,E1,81,
4296531545,0000055B,false,Rx,1,8,6E,80,AA,00,DA,40,10,AD,
4296531715,00000120,false,Rx,1,4,00,00,06,14,00,00,00,00,
4296531945,000001DA,false,Rx,1,8,BA,32,58,00,00,01,02,45,
4296532178,000005BC,false,Rx,1,8,13,80,B5,50,91,03,01,A4,
4296536892,0000011A,false,Rx,1,8,4E,40,00,AA,C0,00,00,6B,
4296537130,000001D4,false,Rx,1,8,F7,07,00,00,07,44,30,70,
4296537372,000001F2,false,Rx,1,8,30,64,20,AC,00,3C,00,8F,
4296537596,0000050B,false,Rx,1,7,00,00,06,C0,00,00,00,00,
4296538387,00000390,false,Rx,1,8,24,00,01,02,00,00,00,38,
4296540978,000001DB,false,Rx,1,8,FF,C0,BB,0A,26,00,02,6A,
4296541206,000001DC,false,Rx,1,8,6E,04,C4,B5,E5,04,C6,96,
4296541449,0000059E,false,Rx,1,8,00,00,0A,11,F0,00,00,00,
4296541693,000005C0,false,Rx,1,8,80,62,62,00,72,C8,1F,03,
4296541862,00000120,false,Rx,1,4,00,00,07,91,00,00,00,00,
4296542094,000001DA,false,Rx,1,8,BA,72,58,00,00,01,03,62,
4296543346,00000393,false,Rx,1,8,26,51,00,00,00,00,00,30,
4296546898,0000011A,false,Rx,1,8,4E,40,00,55,00,00,01,7D,
4296547126,000001D4,false,Rx,1,8,F7,07,00,00,47,44,30,B7,
4296547368,000001F2,false,Rx,1,8,30,64,20,AC,00,3C,01,8F,
4296547591,0000050B,false,Rx,1,7,00,00,06,C0,00,00,00,00,
4296550739,000001DB,false,Rx,1,8,FF,A0,BB,0A,26,00,03,1C,
4296550971,000001DC,false,Rx,1,8,6E,04,C4,B5,E8,C0,C3,2D,
4296551690,000001DA,false,Rx,1,8,BA,72,58,00,00,01,00,68,
4296551859,00000120,false,Rx,1,4,00,00,08,B3,00,00,00,00,
4296556898,0000011A,false,Rx,1,8,4E,40,00,55,40,00,02,B0,
4296557136,000001D4,false,Rx,1,8,F7,07,00,00,87,44,30,7B,
4296557369,000001F2,false,Rx,1,8,30,64,20,AC,00,3C,02,8F,
4296557602,0000050B,false,Rx,1,7,00,00,06,C0,00,00,00,00,
4296560740,000001DB,false,Rx,1,8,FF,A0,BB,0A,26,00,00,16,
4296560967,000001DC,false,Rx,1,8,6E,04,C4,B5,EC,DC,C8,C4,
4296561688,000001DA,false,Rx,1,8,BA,32,58,00,00,01,01,4F,
4296561857,00000120,false,Rx,1,4,00,00,09,36,00,00,00,00,
4296562089,0000055A,false,Rx,1,8,14,36,37,35,55,00,5B,48,
4296566886,0000011A,false,Rx,1,8,4E,40,00,AA,80,00,03,A6,
4296567124,000001D4,false,Rx,1,8,F7,07,00,00,C7,44,30,BC,
4296567357,000001F2,false,Rx,1,8,30,64,20,AC,00,3C,03,8F,
4296567579,0000050B,false,Rx,1,7,00,00,06,C0,00,00,00,00,
4296570738,000001DB,false,Rx,1,8,FF,A0,BB,0A,26,00,01,93,
4296570966,000001DC,false,Rx,1,8,6E,04,C4,B5,E1,0C,E1,81,
4296571437,0000055B,false,Rx,1,8,A4,40,AA,00,DF,C0,11,10,
4296571670,0000059E,false,Rx,1,8,00,00,0C,76,18,00,00,00,
4296571840,00000120,false,Rx,1,4,00,00,0A,3C,00,00,00,00,
4296572071,000001DA,false,Rx,1,8,BA,32,58,00,00,01,02,45,
4296572314,000005BC,false,Rx,1,8,3D,80,F0,64,B0,01,00,32,
4296576886,0000011A,false,Rx,1,8,4E,40,00,AA,C0,00,00,6B,
1627264,000002A0,false,Tx,1,8,1A,1B,01,71,E6,60,A9,83,
4296577124,000001D4,false,Rx,1,8,F7,07,00,00,07,44,30,70,
4296577368,000001F2,false,Rx,1,8,30,64,20,AC,00,3C,00,8F,
4296577591,0000050B,false,Rx,1,7,00,00,06,C0,00,00,00,00,
4296580726,000001DB,false,Rx,1,8,FF,A0,BB,0A,26,00,02,99,
4296580964,000001DC,false,Rx,1,8,6E,04,C4,B5,E5,04,C6,96,
4296581685,000001DA,false,Rx,1,8,BA,72,58,00,00,01,03,62,
4296581854,00000120,false,Rx,1,4,00,00,0B,B9,00,00,00,00,
4296582948,000002B5,false,Rx,1,8,60,00,32,00,00,00,00,52,
4296583181,000002B6,false,Rx,1,8,60,00,89,01,F0,00,74,6C,
4296586898,0000011A,false,Rx,1,8,4E,40,00,55,00,00,01,7D,
4296587125,000001D4,false,Rx,1,8,F7,07,00,00,47,44,30,B7,
4296587369,000001F2,false,Rx,1,8,30,64,20,AC,00,3C,01,8F,
4296587591,0000050B,false,Rx,1,7,00,00,06,C0,00,00,00,00,
4296590729,000001DB,false,Rx,1,8,FF,A0,BB,0A,26,00,03,1C,
4296590960,000001DC,false,Rx,1,8,6E,04,C4,B5,E8,C0,C3,2D,
4296591679,000001DA,false,Rx,1,8,BA,72,58,00,00,01,00,68,
4296591849,00000120,false,Rx,1,4,00,00,0C,28,00,00,00,00,
4296596899,0000011A,false,Rx,1,8,4E,40,00,55,40,00,02,B0,
4296597137,000001D4,false,Rx,1,8,F7,07,00,00,87,44,30,7B,
4296597370,000001F2,false,Rx,1,8,30,64,20,AC,00,3C,02,8F,
4296597592,0000050B,false,Rx,1,7,00,00,06,C0,00,00,00,00,
4296600731,000001DB,false,Rx,1,8,FF,A0,BB,0A,26,00,00,16,
4296600969,000001DC,false,Rx,1,8,6E,04,C4,B5,EC,DC,C8,C4,
4296601679,000001DA,false,Rx,1,8,BA,32,58,00,00,01,01,4F,
4296601849,00000120,false,Rx,1,4,00,00,0D,AD,00,00,00,00,
4296606882,0000011A,false,Rx,1,8,4E,40,00,AA,80,00,03,A6,
4296607120,000001D4,false,Rx,1,8,F7,07,00,00,C7,44,30,BC,
4296607353,000001F2,false,Rx,1,8,30,64,20,AC,00,3C,03,8F,
4296607586,0000050B,false,Rx,1,7,00,00,06,C0,00,00,00,00,
4296610724,000001DB,false,Rx,1,8,FF,A0,BB,0A,26,00,01,93,
4296610952,000001DC,false,Rx,1,8,6E,04,C4,B5,E1,0C,E1,81,
4296611682,000001DA,false,Rx,1,8,BA,32,58,00,00,01,02,45,
4296611852,00000120,false,Rx,1,4,00,00,0E,A7,00,00,00,00,
4296616885,0000011A,false,Rx,1,8,4E,40,00,AA,C0,00,00,6B,
4296617123,000001D4,false,Rx,1,8,F7,07,00,00,07,44,30,70,
4296617367,000001F2,false,Rx,1,8,30,64,20,AC,00,3C,00,8F,
4296617589,0000050B,false,Rx,1,7,00,00,06,C0,00,00,00,00,
4296620727,000001DB,false,Rx,1,8,FF,A0,BB,0A,26,00,02,99,
4296620954,000001DC,false,Rx,1,8,6E,04,C4,B5,E5,04,C6,96,
4296621685,000001DA,false,Rx,1,8,BA,72,58,00,00,01,03,62,
4296621855,00000120,false,Rx,1,4,00,00,0F,22,00,00,00,00,
4296626888,0000011A,false,Rx,1,8,4E,40,00,55,00,00,01,7D,
4296627126,000001D4,false,Rx,1,8,F7,07,00,00,47,44,30,B7,
4296627359,000001F2,false,Rx,1,8,30,64,20,AC,00,3C,01,8F,
4296627592,0000050B,false,Rx,1,7,00,00,06,C0,00,00,00,00,
4296631063,000001DB,false,Rx,1,8,FF,A0,BB,0A,26,00,03,1C,
4296631302,000001DC,false,Rx,1,8,6E,04,C4,B5,E8,C0,C3,2D,
4296631525,0000055B,false,Rx,1,8,6E,80,AA,00,DA,40,11,28,
4296631704,00000120,false,Rx,1,4,00,00,00,00,00,00,00,00,
4296631936,000001DA,false,Rx,1,8,BA,72,58,00,00,01,00,68,
4296632178,000005BC,false,Rx,1,8,13,80,64,50,90,00,1F,FF,
4296636893,0000011A,false,Rx,1,8,4E,40,00,55,40,00,02,B0,
4296637131,000001D4,false,Rx,1,8,F7,07,00,00,87,44,30,7B,
4296637364,000001F2,false,Rx,1,8,30,64,20,AC,00,3C,02,8F,
4296637597,0000050B,false,Rx,1,7,00,00,06,C0,00,00,00,00,
4296638492,00000390,false,Rx,1,8,24,00,01,02,00,00,00,05,
4296640731,000001DB,false,Rx,1,8,FF,A0,BB,0A,26,00,00,16,
4296640953,000001DC,false,Rx,1,8,6E,04,C4,B5,EC,DC,C8,C4,
4296641682,000001DA,false,Rx,1,8,BA,32,58,00,00,01,01,4F,
4296641852,00000120,false,Rx,1,4,00,00,01,85,00,00,00,00,
4296643451,00000393,false,Rx,1,8,00,51,00,00,00,00,00,05,
4296646886,0000011A,false,Rx,1,8,4E,40,00,AA,80,00,03,A6,
4296647114,000001D4,false,Rx,1,8,F7,07,00,00,C7,44,30,BC,
4296647357,000001F2,false,Rx,1,8,30,64,20,AC,00,3C,03,8F,
4296647581,0000050B,false,Rx,1,7,00,00,06,C0,00,00,00,00,
4296650729,000001DB,false,Rx,1,8,FF,A0,BB,0A,26,00,01,93,
4296650950,000001DC,false,Rx,1,8,6E,04,C4,B5,E1,0C,E1,81,
4296651689,000001DA,false,Rx,1,8,BA,32,58,00,00,01,02,45,
4296651860,00000120,false,Rx,1,4,00,00,02,8F,00,00,00,00,
4296656888,0000011A,false,Rx,1,8,4E,40,00,AA,C0,00,00,6B,
4296657126,000001D4,false,Rx,1,8,F7,07,00,00,07,44,30,70,
4296657369,000001F2,false,Rx,1,8,30,64,20,AC,00,3C,00,8F,
4296657592,0000050B,false,Rx,1,7,00,00,06,C0,00,00,00,00,
4296660719,000001DB,false,Rx,1,8,FF,A0,BB,0A,26,00,02,99,
4296660957,000001DC,false,Rx,1,8,6E,04,C4,B5,E5,04,C6,96,
4296661688,000001DA,false,Rx,1,8,BA,72,58,00,00,01,03,62,
4296661859,00000120,false,Rx,1,4,00,00,03,0A,00,00,00,00,
4296662079,0000055A,false,Rx,1,8,19,36,37,35,55,00,5B,48,
4296666887,0000011A,false,Rx,1,8,4E,40,00,55,00,00,01,7D,
4296667125,000001D4,false,Rx,1,8,F7,07,00,00,47,44,30,B7,
4296667358,000001F2,false,Rx,1,8,30,64,20,AC,00,3C,01,8F,
4296667591,0000050B,false,Rx,1,7,00,00,06,C0,00,00,00,00,
4296670719,000001DB,false,Rx,1,8,FF,A0,BB,0A,26,00,03,1C,
4296670957,000001DC,false,Rx,1,8,6E,04,C4,B5,E8,C0,C3,2D,
4296671428,0000055B,false,Rx,1,8,A4,40,AA,00,DF,C0,12,1A,
4296671671,0000059E,false,Rx,1,8,00,00,0C,76,18,00,00,00,
4296671842,00000120,false,Rx,1,4,00,00,04,9B,00,00,00,00,
4296672072,000001DA,false,Rx,1,8,BA,72,58,00,00,01,00,68,
4296672314,000005BC,false,Rx,1,8,3D,80,F0,64,B0,01,00,32,
4296676888,0000011A,false,Rx,1,8,4E,40,00,55,40,00,02,B0,
1727311,000002A0,false,Tx,1,8,B7,21,01,F2,B3,60,69,84,
4296677126,000001D4,false,Rx,1,8,F7,07,00,00,87,44,30,7B,
4296677370,000001F2,false,Rx,1,8,30,64,20,AC,00,3C,02,8F,
4296677592,0000050B,false,Rx,1,7,00,00,06,C0,00,00,00,00,
4296680727,000001DB,false,Rx,1,8,FF,A0,BB,0A,26,00,00,16,
4296680955,000001DC,false,Rx,1,8,6E,04,C4,B5,EC,DC,C8,C4,
4296681686,000001DA,false,Rx,1,8,BA,32,58,00,00,01,01,4F,
4296681846,00000120,false,Rx,1,4,00,00,05,1E,00,00,00,00,
4296682949,000002B5,false,Rx,1,8,70,00,32,00,00,00,00,42,
4296683183,000002B6,false,Rx,1,8,70,00,89,01,F0,00,74,7C,
4296686888,0000011A,false,Rx,1,8,4E,40,00,AA,80,00,03,A6,
4296687116,000001D4,false,Rx,1,8,F7,07,00,00,C7,44,30,BC,
4296687349,000001F2,false,Rx,1,8,30,64,20,AC,00,3C,03,8F,
4296687582,0000050B,false,Rx,1,7,00,00,06,C0,00,00,00,00,
4296690721,000001DB,false,Rx,1,8,FF,A0,BB,0A,26,00,01,93,
4296690942,000001DC,false,Rx,1,8,6E,04,C4,B5,E1,0C,E1,81,
4296691681,000001DA,false,Rx,1,8,BA,32,58,00,00,01,02,45,
4296691852,00000120,false,Rx,1,4,00,00,06,14,00,00,00,00,
4296696891,0000011A,false,Rx,1,8,4E,40,00,AA,C0,00,00,6B,
4296697129,000001D4,false,Rx,1,8,F7,07,00,00,07,44,30,70,
4296697362,000001F2,false,Rx,1,8,30,64,20,AC,00,3C,00,8F,
4296697595,0000050B,false,Rx,1,7,00,00,06,C0,00,00,00,00,
4296700712,000001DB,false,Rx,1,8,FF,A0,BB,0A,26,00,02,99,
4296700944,000001DC,false,Rx,1,8,6E,04,C4,B5,E5,04,C6,96,
4296701683,000001DA,false,Rx,1,8,BA,72,58,00,00,01,03,62,
4296701854,00000120,false,Rx,1,4,00,00,07,91,00,00,00,00,
4296706893,0000011A,false,Rx,1,8,4E,40,00,55,00,00,01,7D,
4296707121,000001D4,false,Rx,1,8,F7,07,00,00,47,44,30,B7,
4296707364,000001F2,false,Rx,1,8,30,64,20,AC,00,3C,01,8F,
4296707587,0000050B,false,Rx,1,7,00,00,06,C0,00,00,00,00,
4296710714,000001DB,false,Rx,1,8,FF,A0,BB,0A,26,00,03,1C,
4296710946,000001DC,false,Rx,1,8,6E,04,C4,B5,E8,C0,C3,2D,
4296711685,000001DA,false,Rx,1,8,BA,72,58,00,00,01,00,68,
4296711856,00000120,false,Rx,1,4,00,00,08,B3,00,00,00,00,
4296716896,0000011A,false,Rx,1,8,4E,40,00,55,40,00,02,B0,
4296717125,000001D4,false,Rx,1,8,F7,07,00,00,87,44,30,7B,
4296717367,000001F2,false,Rx,1,8,30,64,20,AC,00,3C,02,8F,
4296717589,0000050B,false,Rx,1,7,00,00,06,C0,00,00,00,00,
4296720717,000001DB,false,Rx,1,8,FF,A0,BB,0A,26,00,00,16,
4296720949,000001DC,false,Rx,1,8,6E,04,C4,B5,EC,DC,C8,C4,
4296721678,000001DA,false,Rx,1,8,BA,32,58,00,00,01,01,4F,
4296721848,00000120,false,Rx,1,4,00,00,09,36,00,00,00,00,
4296726888,0000011A,false,Rx,1,8,4E,40,00,AA,80,00,03,A6,
4296727117,000001D4,false,Rx,1,8,F7,07,00,00,C7,44,30,BC,
4296727348,000001F2,false,Rx,1,8,30,64,20,AC,00,3C,03,8F,
4296727581,0000050B,false,Rx,1,7,00,00,06,C0,00,00,00,00,
4296731053,000001DB,false,Rx,1,8,FF,A0,BB,0A,26,00,01,93,
4296731281,000001DC,false,Rx,1,8,6E,04,C4,B5,E1,0C,E1,81,
4296731513,0000055B,false,Rx,1,8,6E,80,AA,00,DA,40,12,22,
4296731683,00000120,false,Rx,1,4,00,00,0A,3C,00,00,00,00,
4296731915,000001DA,false,Rx,1,8,BA,32,58,00,00,01,02,45,
4296732157,000005BC,false,Rx,1,8,13,80,64,50,90,00,A0,B4,
4296736882,0000011A,false,Rx,1,8,4E,40,00,AA,C0,00,00,6B,
4296737121,000001D4,false,Rx,1,8,F7,07,00,00,07,44,30,70,
4296737363,000001F2,false,Rx,1,8,30,64,20,AC,00,3C,00,8F,
4296737586,0000050B,false,Rx,1,7,00,00,06,C0,00,00,00,00,
4296738586,00000390,false,Rx,1,8,24,00,01,02,00,00,00,16,
4296740710,000001DB,false,Rx,1,8,FF,A0,BB,0A,26,00,02,99,
4296740943,000001DC,false,Rx,1,8,6E,04,C4,B5,E5,04,C6,96,
4296741681,000001DA,false,Rx,1,8,BA,72,58,00,00,01,03,62,
4296741852,00000120,false,Rx,1,4,00,00,0B,B9,00,00,00,00,
4296743544,00000393,false,Rx,1,8,26,51,00,00,00,00,00,1E,
4296746886,0000011A,false,Rx,1,8,4E,40,00,55,00,00,01,7D,
4296747125,000001D4,false,Rx,1,8,F7,07,00,00,47,44,30,B7,
4296747357,000001F2,false,Rx,1,8,30,64,20,AC,00,3C,01,8F,
4296747590,0000050B,false,Rx,1,7,00,00,06,C0,00,00,00,00,
4296750707,000001DB,false,Rx,1,8,FF,A0,BB,0A,26,00,03,1C,
4296750940,000001DC,false,Rx,1,8,6E,04,C4,B5,E8,C0,C3,2D,
4296751689,000001DA,false,Rx,1,8,BA,72,58,00,00,01,00,68,
4296751859,00000120,false,Rx,1,4,00,00,0C,28,00,00,00,00,
4296756887,0000011A,false,Rx,1,8,4E,40,00,55,40,00,02,B0,
4296757126,000001D4,false,Rx,1,8,F7,07,00,00,87,44,30,7B,
4296757368,000001F2,false,Rx,1,8,30,64,20,AC,00,3C,02,8F,
4296757591,0000050B,false,Rx,1,7,00,00,06,C0,00,00,00,00,
4296760708,000001DB,false,Rx,1,8,FF,C0,BB,0A,26,00,00,E5,
4296760931,000001DC,false,Rx,1,8,6E,04,C4,B5,EC,DC,C8,C4,
4296761691,000001DA,false,Rx,1,8,BA,32,58,00,00,01,01,4F,
4296761860,00000120,false,Rx,1,4,00,00,0D,AD,00,00,00,00,
4296762081,0000055A,false,Rx,1,8,1A,36,37,35,55,00,5B,48,
4296766887,0000011A,false,Rx,1,8,4E,40,00,AA,80,00,03,A6,
4296767115,000001D4,false,Rx,1,8,F7,07,00,00,C7,44,30,BC,
4296767347,000001F2,false,Rx,1,8,30,64,20,AC,00,3C,03,8F,
4296767581,0000050B,false,Rx,1,7,00,00,06,C0,00,00,00,00,
4296770708,000001DB,false,Rx,1,8,FF,C0,BB,0A,26,00,01,60,
4296770941,000001DC,false,Rx,1,8,6E,04,C4,B5,E1,0C,E1,81,
4296771429,0000055B,false,Rx,1,8,A4,40,AA,00,DF,C0,13,9F,
4296771674,0000059E,false,Rx,1,8,00,00,0C,76,18,00,00,00,
4296771843,00000120,false,Rx,1,4,00,00,0E,A7,00,00,00,00,
4296772074,000001DA,false,Rx,1,8,BA,32,58,00,00,01,02,45,
4296772316,000005BC,false,Rx,1,8,3D,80,F0,64,B0,01,00,32,
4296776887,0000011A,false,Rx,1,8,4E,40,00,AA,C0,00,00,6B,
