Time Stamp,ID,Extended,Dir,Bus,LEN,D1,D2,D3,D4,D5,D6,D7,D8
4489041266,000001DB,false,Rx,1,8,FE,60,BA,0B,26,00,00,93,
4489041494,000001DC,false,Rx,1,8,6E,04,D4,ED,EC,DC,C8,5D,
4489042266,000001DA,false,Rx,1,8,B9,72,58,00,00,01,00,61,
4489042436,00000120,false,Rx,1,4,00,00,08,B3,00,00,00,00,
4489042824,0000011A,false,Rx,1,8,4E,40,00,55,40,00,02,B0,
4489043066,000001D4,false,Rx,1,8,F7,07,00,00,87,44,30,7B,
4489043298,000001F2,false,Rx,1,8,30,64,20,AC,00,3C,02,8F,
4489043528,0000050B,false,Rx,1,7,00,00,06,C0,00,00,00,00,
4489051261,000001DB,false,Rx,1,8,FE,60,BA,0B,26,00,01,16,
4489051489,000001DC,false,Rx,1,8,6E,04,D4,ED,E1,0C,E1,18,
4489052261,000001DA,false,Rx,1,8,B9,32,58,00,00,01,01,46,
4489052430,00000120,false,Rx,1,4,00,00,09,36,00,00,00,00,
4489052664,0000055A,false,Rx,1,8,14,36,37,35,55,00,5B,48,
4489052895,0000011A,false,Rx,1,8,4E,40,00,AA,80,00,03,A6,
4489053127,000001D4,false,Rx,1,8,F7,07,00,00,C7,44,30,BC,
4489053366,000001F2,false,Rx,1,8,30,64,20,AC,00,3C,03,8F,
4489053589,0000050B,false,Rx,1,7,00,00,06,C0,00,00,00,00,
4489057368,0000055B,false,Rx,1,8,A4,40,AA,00,DF,C0,11,10,
4489057607,0000059E,false,Rx,1,8,00,00,0C,76,18,00,00,00,
4489057849,000005BC,false,Rx,1,8,3D,80,F0,64,B0,01,00,32,
4489061256,000001DB,false,Rx,1,8,FE,60,BA,0B,26,00,02,1C,
4489061494,000001DC,false,Rx,1,8,6E,04,D4,ED,E5,04,C6,0F,
4489062246,000001DA,false,Rx,1,8,B9,32,58,00,00,01,02,4C,
4489062415,00000120,false,Rx,1,4,00,00,0A,3C,00,00,00,00,
4489062814,0000011A,false,Rx,1,8,4E,40,00,AA,C0,00,00,6B,
4489063056,000001D4,false,Rx,1,8,F7,07,00,00,07,44,30,70,
4489063298,000001F2,false,Rx,1,8,30,64,20,AC,00,3C,00,8F,
4489063528,0000050B,false,Rx,1,7,00,00,06,C0,00,00,00,00,
4489071598,000001DB,false,Rx,1,8,FE,60,BA,0B,26,00,03,99,
4489071827,000001DC,false,Rx,1,8,6E,04,D4,ED,E8,C0,C3,B4,
4489072058,0000055B,false,Rx,1,8,6C,C0,AA,00,D4,C0,11,E7,
4489072228,00000120,false,Rx,1,4,00,00,0B,B9,00,00,00,00,
4489072469,000001DA,false,Rx,1,8,B9,72,58,00,00,01,03,6B,
4489072703,000005BC,false,Rx,1,8,13,40,64,50,90,03,01,C2,
4489072945,0000011A,false,Rx,1,8,4E,40,00,55,00,00,01,7D,
4489073177,000001D4,false,Rx,1,8,F7,07,00,00,47,44,30,B7,
4489073420,000001F2,false,Rx,1,8,30,64,20,AC,00,3C,01,8F,
4489073663,0000050B,false,Rx,1,7,00,00,06,C0,00,00,00,00,
4489075409,000002B5,false,Rx,1,8,E0,00,3E,00,06,F4,00,2C,
4489075644,000002B6,false,Rx,1,8,E1,64,87,81,F8,00,82,F9,
4489081260,000001DB,false,Rx,1,8,FE,60,BA,0B,26,00,00,93,
3966,000002A0,false,Tx,1,8,00,04,01,00,00,60,00,00,
4489081488,000001DC,false,Rx,1,8,6E,04,D4,ED,EC,DC,C8,5D,
4489082250,000001DA,false,Rx,1,8,B9,72,58,00,00,01,00,61,
4489082419,00000120,false,Rx,1,4,00,00,0C,28,00,00,00,00,
4489082674,00000390,false,Rx,1,8,24,00,01,02,00,00,00,38,
4489082916,0000011A,false,Rx,1,8,4E,40,00,55,40,00,02,B0,
4489083158,000001D4,false,Rx,1,8,F7,07,00,00,87,44,30,7B,
4489083397,000001F2,false,Rx,1,8,30,64,20,AC,00,3C,02,8F,
4489083620,0000050B,false,Rx,1,7,00,00,06,C0,00,00,00,00,
4489087673,00000393,false,Rx,1,8,26,51,00,00,00,00,00,30,
4489091254,000001DB,false,Rx,1,8,FE,60,BA,0B,26,00,01,16,
4489091482,000001DC,false,Rx,1,8,6E,04,D4,ED,E1,0C,E1,18,
4489092255,000001DA,false,Rx,1,8,B9,32,58,00,00,01,01,46,
4489092424,00000120,false,Rx,1,4,00,00,0D,AD,00,00,00,00,
4489092823,0000011A,false,Rx,1,8,4E,40,00,AA,80,00,03,A6,
4489093054,000001D4,false,Rx,1,8,F7,07,00,00,C7,44,30,BC,
4489093287,000001F2,false,Rx,1,8,30,64,20,AC,00,3C,03,8F,
4489093516,0000050B,false,Rx,1,7,00,00,06,C0,00,00,00,00,
4489101260,000001DB,false,Rx,1,8,FE,60,BA,0B,26,00,02,1C,
4489101487,000001DC,false,Rx,1,8,6E,04,D4,ED,E5,04,C6,0F,
4489102249,000001DA,false,Rx,1,8,B9,32,58,00,00,01,02,4C,
4489102419,00000120,false,Rx,1,4,00,00,0E,A7,00,00,00,00,
4489102819,0000011A,false,Rx,1,8,4E,40,00,AA,C0,00,00,6B,
4489103050,000001D4,false,Rx,1,8,F7,07,00,00,07,44,30,70,
4489103294,000001F2,false,Rx,1,8,30,64,20,AC,00,3C,00,8F,
4489103522,0000050B,false,Rx,1,7,00,00,06,C0,00,00,00,00,
4489111256,000001DB,false,Rx,1,8,FE,60,BA,0B,26,00,03,99,
4489111483,000001DC,false,Rx,1,8,6E,04,D4,ED,E8,C0,C3,B4,
4489112256,000001DA,false,Rx,1,8,B9,72,58,00,00,01,03,6B,
4489112425,00000120,false,Rx,1,4,00,00,0F,22,00,00,00,00,
4489112824,0000011A,false,Rx,1,8,4E,40,00,55,00,00,01,7D,
4489113056,000001D4,false,Rx,1,8,F7,07,00,00,47,44,30,B7,
4489113289,000001F2,false,Rx,1,8,30,64,20,AC,00,3C,01,8F,
4489113517,0000050B,false,Rx,1,7,00,00,06,C0,00,00,00,00,
4489121251,000001DB,false,Rx,1,8,FE,60,BA,0B,26,00,00,93,
4489121479,000001DC,false,Rx,1,8,6E,04,D4,ED,EC,DC,C8,5D,
4489122261,000001DA,false,Rx,1,8,B9,72,58,00,00,01,00,61,
4489122443,00000120,false,Rx,1,4,00,00,00,00,00,00,00,00,
4489122819,0000011A,false,Rx,1,8,4E,40,00,55,40,00,02,B0,
4489123061,000001D4,false,Rx,1,8,F7,07,00,00,87,44,30,7B,
4489123309,000001F2,false,Rx,1,8,30,64,20,AC,00,3C,02,8F,
4489123521,0000050B,false,Rx,1,7,00,00,06,C0,00,00,00,00,
4489131247,000001DB,false,Rx,1,8,FE,60,BA,0B,26,00,01,16,
4489131474,000001DC,false,Rx,1,8,6E,04,D4,ED,E1,0C,E1,18,
4489132257,000001DA,false,Rx,1,8,B9,32,58,00,00,01,01,46,
4489132428,00000120,false,Rx,1,4,00,00,01,85,00,00,00,00,
4489132815,0000011A,false,Rx,1,8,4E,40,00,AA,80,00,03,A6,
4489133046,000001D4,false,Rx,1,8,F7,07,00,00,C7,44,30,BC,
4489133279,000001F2,false,Rx,1,8,30,64,20,AC,00,3C,03,8F,
4489133508,0000050B,false,Rx,1,7,00,00,06,C0,00,00,00,00,
4489141254,000001DB,false,Rx,1,8,FE,60,BA,0B,26,00,02,1C,
4489141482,000001DC,false,Rx,1,8,6E,04,D4,ED,E5,04,C6,0F,
4489142265,000001DA,false,Rx,1,8,B9,32,58,00,00,01,02,4C,
4489142436,00000120,false,Rx,1,4,00,00,02,8F,00,00,00,00,
4489142812,0000011A,false,Rx,1,8,4E,40,00,AA,C0,00,00,6B,
4489143054,000001D4,false,Rx,1,8,F7,07,00,00,07,44,30,70,
4489143287,000001F2,false,Rx,1,8,30,64,20,AC,00,3C,00,8F,
4489143516,0000050B,false,Rx,1,7,00,00,06,C0,00,00,00,00,
4489151250,000001DB,false,Rx,1,8,FE,60,BA,0B,26,00,03,99,
4489151478,000001DC,false,Rx,1,8,6E,04,D4,ED,E8,C0,C3,B4,
4489152260,000001DA,false,Rx,1,8,B9,72,58,00,00,01,03,6B,
4489152431,00000120,false,Rx,1,4,00,00,03,0A,00,00,00,00,
4489152653,0000055A,false,Rx,1,8,19,36,37,35,55,00,5B,48,
4489152895,0000011A,false,Rx,1,8,4E,40,00,55,00,00,01,7D,
4489153126,000001D4,false,Rx,1,8,F7,07,00,00,47,44,30,B7,
4489153366,000001F2,false,Rx,1,8,30,64,20,AC,00,3C,01,8F,
4489153588,0000050B,false,Rx,1,7,00,00,06,C0,00,00,00,00,
4489157357,0000055B,false,Rx,1,8,A4,40,AA,00,DF,C0,12,1A,
4489157596,0000059E,false,Rx,1,8,00,00,0C,76,18,00,00,00,
4489157840,000005BC,false,Rx,1,8,3D,80,F0,64,B0,01,00,32,
4489161246,000001DB,false,Rx,1,8,FE,60,BA,0B,26,00,00,93,
4489161474,000001DC,false,Rx,1,8,6E,04,D4,ED,EC,DC,C8,5D,
4489162256,000001DA,false,Rx,1,8,B9,72,58,00,00,01,00,61,
4489162417,00000120,false,Rx,1,4,00,00,04,9B,00,00,00,00,
4489162824,0000011A,false,Rx,1,8,4E,40,00,55,40,00,02,B0,
4489163056,000001D4,false,Rx,1,8,F7,07,00,00,87,44,30,7B,
4489163299,000001F2,false,Rx,1,8,30,64,20,AC,00,3C,02,8F,
4489163528,0000050B,false,Rx,1,7,00,00,06,C0,00,00,00,00,
4489171589,000001DB,false,Rx,1,8,FE,60,BA,0B,26,00,01,16,
83810,000002A0,false,Tx,1,8,00,08,01,00,00,60,00,00,
4489171818,000001DC,false,Rx,1,8,6E,04,D4,ED,E1,0C,E1,18,
4489172039,0000055B,false,Rx,1,8,6C,C0,AA,00,D4,C0,12,ED,
4489172209,00000120,false,Rx,1,4,00,00,05,1E,00,00,00,00,
4489172441,000001DA,false,Rx,1,8,B9,32,58,00,00,01,01,46,
4489172684,000005BC,false,Rx,1,8,13,40,64,50,90,00,1F,FF,
4489172916,0000011A,false,Rx,1,8,4E,40,00,AA,80,00,03,A6,
4489173149,000001D4,false,Rx,1,8,F7,07,00,00,C7,44,30,BC,
4489173380,000001F2,false,Rx,1,8,30,64,20,AC,00,3C,03,8F,
4489173622,0000050B,false,Rx,1,7,00,00,06,C0,00,00,00,00,
4489175464,000002B5,false,Rx,1,8,F0,00,3D,80,06,C8,00,83,
4489175703,000002B6,false,Rx,1,8,F1,64,87,81,F8,00,82,E9,
4489181245,000001DB,false,Rx,1,8,FE,60,BA,0B,26,00,02,1C,
4489181483,000001DC,false,Rx,1,8,6E,04,D4,ED,E5,04,C6,0F,
4489182256,000001DA,false,Rx,1,8,B9,32,58,00,00,01,02,4C,
4489182416,00000120,false,Rx,1,4,00,00,06,14,00,00,00,00,
4489182782,00000390,false,Rx,1,8,24,00,01,02,00,00,00,05,
4489183014,0000011A,false,Rx,1,8,4E,40,00,AA,C0,00,00,6B,
4489183247,000001D4,false,Rx,1,8,F7,07,00,00,07,44,30,70,
4489183495,000001F2,false,Rx,1,8,30,64,20,AC,00,3C,00,8F,
4489183718,0000050B,false,Rx,1,7,00,00,06,C0,00,00,00,00,
4489187784,00000393,false,Rx,1,8,00,51,00,00,00,00,00,05,
4489191240,000001DB,false,Rx,1,8,FE,60,BA,0B,26,00,03,99,
4489191467,000001DC,false,Rx,1,8,6E,04,D4,ED,E8,C0,C3,B4,
4489192250,000001DA,false,Rx,1,8,B9,72,58,00,00,01,03,6B,
4489192421,00000120,false,Rx,1,4,00,00,07,91,00,00,00,00,
4489192818,0000011A,false,Rx,1,8,4E,40,00,55,00,00,01,7D,
4489193050,000001D4,false,Rx,1,8,F7,07,00,00,47,44,30,B7,
4489193297,000001F2,false,Rx,1,8,30,64,20,AC,00,3C,01,8F,
4489193520,0000050B,false,Rx,1,7,00,00,06,C0,00,00,00,00,
4489201246,000001DB,false,Rx,1,8,FE,60,BA,0B,26,00,00,93,
4489201473,000001DC,false,Rx,1,8,6E,04,D4,ED,EC,DC,C8,5D,
4489202245,000001DA,false,Rx,1,8,B9,72,58,00,00,01,00,61,
4489202416,00000120,false,Rx,1,4,00,00,08,B3,00,00,00,00,
4489202824,0000011A,false,Rx,1,8,4E,40,00,55,40,00,02,B0,
4489203056,000001D4,false,Rx,1,8,F7,07,00,00,87,44,30,7B,
4489203303,000001F2,false,Rx,1,8,30,64,20,AC,00,3C,02,8F,
4489203526,0000050B,false,Rx,1,7,00,00,06,C0,00,00,00,00,
4489211252,000001DB,false,Rx,1,8,FE,60,BA,0A,26,00,01,00,
4489211480,000001DC,false,Rx,1,8,6E,04,D4,ED,E1,0C,E1,18,
4489212252,000001DA,false,Rx,1,8,B9,32,58,00,00,01,01,46,
4489212423,00000120,false,Rx,1,4,00,00,09,36,00,00,00,00,
4489212810,0000011A,false,Rx,1,8,4E,40,00,AA,80,00,03,A6,
4489213042,000001D4,false,Rx,1,8,F7,07,00,00,C7,44,30,BC,
4489213299,000001F2,false,Rx,1,8,30,64,20,AC,00,3C,03,8F,
4489213511,0000050B,false,Rx,1,7,00,00,06,C0,00,00,00,00,
4489221237,000001DB,false,Rx,1,8,FE,40,BA,0A,26,00,02,5B,
4295080475,000001DC,false,Rx,1,8,6E,04,D4,ED,E5,04,C6,0F,
4295081258,000001DA,false,Rx,1,8,B9,32,58,00,00,01,02,4C,
4295081428,00000120,false,Rx,1,4,00,00,0A,3C,00,00,00,00,
4295081815,0000011A,false,Rx,1,8,4E,40,00,AA,C0,00,00,6B,
4295082049,000001D4,false,Rx,1,8,F7,07,00,00,07,44,30,70,
4295082296,000001F2,false,Rx,1,8,30,64,20,AC,00,3C,00,8F,
4295082518,0000050B,false,Rx,1,7,00,00,06,C0,00,00,00,00,
4295090235,000001DB,false,Rx,1,8,FE,40,BA,0A,26,00,03,DE,
4295090473,000001DC,false,Rx,1,8,6E,04,D4,ED,E8,C0,C3,B4,
4295091255,000001DA,false,Rx,1,8,B9,72,58,00,00,01,03,6B,
4295091416,00000120,false,Rx,1,4,00,00,0B,B9,00,00,00,00,
4295091824,0000011A,false,Rx,1,8,4E,40,00,55,00,00,01,7D,
4295092057,000001D4,false,Rx,1,8,F7,07,00,00,47,44,30,B7,
4295092292,000001F2,false,Rx,1,8,30,64,20,AC,00,3C,01,8F,
4295092515,0000050B,false,Rx,1,7,00,00,06,C0,00,00,00,00,
4295100231,000001DB,false,Rx,1,8,FE,40,BA,0A,26,00,00,D4,
4295100458,000001DC,false,Rx,1,8,6E,04,D4,ED,EC,DC,C8,5D,
4295101263,000001DA,false,Rx,1,8,B9,72,58,00,00,01,00,61,
4295101433,00000120,false,Rx,1,4,00,00,0C,28,00,00,00,00,
4295101819,0000011A,false,Rx,1,8,4E,40,00,55,40,00,02,B0,
4295102052,000001D4,false,Rx,1,8,F7,07,00,00,87,44,30,7B,
4295102299,000001F2,false,Rx,1,8,30,64,20,AC,00,3C,02,8F,
4295102521,0000050B,false,Rx,1,7,00,00,06,C0,00,00,00,00,
4295110236,000001DB,false,Rx,1,8,FE,20,BA,0A,26,00,01,A2,
4295110465,000001DC,false,Rx,1,8,6E,04,D4,ED,E1,0C,E1,18,
4295111258,000001DA,false,Rx,1,8,B9,32,58,00,00,01,01,46,
4295111428,00000120,false,Rx,1,4,00,00,0D,AD,00,00,00,00,
4295111649,0000055A,false,Rx,1,8,1A,36,37,35,55,00,5B,48,
4295111892,0000011A,false,Rx,1,8,4E,40,00,AA,80,00,03,A6,
4295112125,000001D4,false,Rx,1,8,F7,07,00,00,C7,44,30,BC,
4295112352,000001F2,false,Rx,1,8,30,64,20,AC,00,3C,03,8F,
4295112585,0000050B,false,Rx,1,7,00,00,06,C0,00,00,00,00,
4295116365,0000055B,false,Rx,1,8,A4,40,AA,00,DF,C0,13,9F,
4295116604,0000059E,false,Rx,1,8,00,00,0C,76,18,00,00,00,
4295116848,000005BC,false,Rx,1,8,3D,80,F0,64,B0,01,00,32,
4295120242,000001DB,false,Rx,1,8,FE,20,BA,0A,26,00,02,A8,
4295120471,000001DC,false,Rx,1,8,6E,04,D4,ED,E5,04,C6,0F,
4295121254,000001DA,false,Rx,1,8,B9,32,58,00,00,01,02,4C,
4295121424,00000120,false,Rx,1,4,00,00,0E,A7,00,00,00,00,
4295121811,0000011A,false,Rx,1,8,4E,40,00,AA,C0,00,00,6B,
4295122054,000001D4,false,Rx,1,8,F7,07,00,00,07,44,30,70,
4295122286,000001F2,false,Rx,1,8,30,64,20,AC,00,3C,00,8F,
4295122515,0000050B,false,Rx,1,7,00,00,06,C0,00,00,00,00,
4295130577,000001DB,false,Rx,1,8,FE,20,BA,0A,26,00,03,2D,
4295130804,000001DC,false,Rx,1,8,6E,04,D4,ED,E8,C0,C3,B4,
4295131036,0000055B,false,Rx,1,8,6C,C0,AA,00,D4,C0,13,68,
4295131269,000001DA,false,Rx,1,8,B9,72,58,00,00,01,03,6B,
4295131438,00000120,false,Rx,1,4,00,00,0F,22,00,00,00,00,
4295131680,000005BC,false,Rx,1,8,13,40,64,50,90,00,A0,B4,
4295131912,0000011A,false,Rx,1,8,4E,40,00,55,00,00,01,7D,
4295132145,000001D4,false,Rx,1,8,F7,07,00,00,47,44,30,B7,
4295132387,000001F2,false,Rx,1,8,30,64,20,AC,00,3C,01,8F,
4295132610,0000050B,false,Rx,1,7,00,00,06,C0,00,00,00,00,
4295134411,000002B5,false,Rx,1,8,00,00,41,C0,09,37,00,BF,
4295134644,000002B6,false,Rx,1,8,01,64,87,81,F8,00,82,19,
4295140471,000001DB,false,Rx,1,8,FE,00,BA,0A,26,00,00,76,
4295140700,000001DC,false,Rx,1,8,6E,04,D4,ED,EC,DC,C8,5D,
4295140942,0000059E,false,Rx,1,8,00,00,0A,11,E8,00,00,00,
4295141185,000005C0,false,Rx,1,8,C0,60,62,FF,72,C8,1F,00,
4295141355,00000120,false,Rx,1,4,00,00,00,00,00,00,00,00,
4295141587,000001DA,false,Rx,1,8,B9,72,58,00,00,01,00,61,
4295141829,0000011A,false,Rx,1,8,4E,40,00,55,40,00,02,B0,
4295142072,000001D4,false,Rx,1,8,F7,07,00,00,87,44,30,7B,
4295142304,000001F2,false,Rx,1,8,30,64,20,AC,00,3C,02,8F,
4295142547,00000390,false,Rx,1,8,24,00,01,02,00,00,00,16,
4295142780,0000050B,false,Rx,1,7,00,00,06,C0,00,00,00,00,
4295146875,00000393,false,Rx,1,8,26,51,00,00,00,00,00,1E,
4295150234,000001DB,false,Rx,1,8,FE,00,BA,0A,26,00,01,F3,
4295150463,000001DC,false,Rx,1,8,6E,04,D4,ED,E1,0C,E1,18,
4295151246,000001DA,false,Rx,1,8,B9,32,58,00,00,01,01,46,
4295151416,00000120,false,Rx,1,4,00,00,01,85,00,00,00,00,
4295151813,0000011A,false,Rx,1,8,4E,40,00,AA,80,00,03,A6,
4295152046,000001D4,false,Rx,1,8,F7,07,00,00,C7,44,30,BC,
4295152293,000001F2,false,Rx,1,8,30,64,20,AC,00,3C,03,8F,
4295152504,0000050B,false,Rx,1,7,00,00,06,C0,00,00,00,00,
211382,000002A0,false,Tx,1,8,00,10,01,00,00,60,00,00,
4295160275,000001DB,false,Rx,1,8,FE,00,BA,0A,26,00,02,F9,
4295160460,000001DC,false,Rx,1,8,6E,04,D4,ED,E5,04,C6,0F,
4295161246,000001DA,false,Rx,1,8,B9,32,58,00,00,01,02,4C,
4295161416,00000120,false,Rx,1,4,00,00,02,8F,00,00,00,00,
4295161813,0000011A,false,Rx,1,8,4E,40,00,AA,C0,00,00,6B,
4295162046,000001D4,false,Rx,1,8,F7,07,00,00,07,44,30,70,
4295162288,000001F2,false,Rx,1,8,30,64,20,AC,00,3C,00,8F,
4295162517,0000050B,false,Rx,1,7,00,00,06,C0,00,00,00,00,
4295170231,000001DB,false,Rx,1,8,FD,E0,BA,0A,26,00,03,47,
4295170460,000001DC,false,Rx,1,8,6E,04,D4,ED,E8,C0,C3,B4,
4295171252,000001DA,false,Rx,1,8,B9,72,58,00,00,01,03,6B,
4295171422,00000120,false,Rx,1,4,00,00,03,0A,00,00,00,00,
4295171820,0000011A,false,Rx,1,8,4E,40,00,55,00,00,01,7D,
4295172052,000001D4,false,Rx,1,8,F7,07,00,00,47,44,30,B7,
4295172288,000001F2,false,Rx,1,8,30,64,20,AC,00,3C,01,8F,
4295172511,0000050B,false,Rx,1,7,00,00,06,C0,00,00,00,00,
4295180227,000001DB,false,Rx,1,8,FE,00,BA,0A,26,00,00,76,
4295180456,000001DC,false,Rx,1,8,6E,04,D4,ED,EC,DC,C8,5D,
4295181260,000001DA,false,Rx,1,8,B9,72,58,00,00,01,00,61,
4295181429,00000120,false,Rx,1,4,00,00,04,9B,00,00,00,00,
4295181816,0000011A,false,Rx,1,8,4E,40,00,55,40,00,02,B0,
4295182049,000001D4,false,Rx,1,8,F7,07,00,00,87,44,30,7B,
4295182295,000001F2,false,Rx,1,8,30,64,20,AC,00,3C,02,8F,
4295182518,0000050B,false,Rx,1,7,00,00,06,C0,00,00,00,00,
4295190224,000001DB,false,Rx,1,8,FD,E0,BA,0A,26,00,01,C8,
4295190453,000001DC,false,Rx,1,8,6E,04,D4,ED,E1,0C,E1,18,
4295191245,000001DA,false,Rx,1,8,B9,32,58,00,00,01,01,46,
4295191415,00000120,false,Rx,1,4,00,00,05,1E,00,00,00,00,
4295191812,0000011A,false,Rx,1,8,4E,40,00,AA,80,00,03,A6,
4295192045,000001D4,false,Rx,1,8,F7,07,00,00,C7,44,30,BC,
4295192281,000001F2,false,Rx,1,8,30,64,20,AC,00,3C,03,8F,
4295192502,0000050B,false,Rx,1,7,00,00,06,C0,00,00,00,00,
4295200230,000001DB,false,Rx,1,8,FE,20,BA,0A,26,00,02,A8,
4295200459,000001DC,false,Rx,1,8,6E,04,D4,ED,E5,04,C6,0F,
4295201252,000001DA,false,Rx,1,8,B9,32,58,00,00,01,02,4C,
4295201421,00000120,false,Rx,1,4,00,00,06,14,00,00,00,00,
4295201808,0000011A,false,Rx,1,8,4E,40,00,AA,C0,00,00,6B,
4295202052,000001D4,false,Rx,1,8,F7,07,00,00,07,44,30,70,
4295202287,000001F2,false,Rx,1,8,30,64,20,AC,00,3C,00,8F,
4295202520,0000050B,false,Rx,1,7,00,00,06,C0,00,00,00,00,
4295210225,000001DB,false,Rx,1,8,FE,40,BA,0A,26,00,03,DE,
4295210454,000001DC,false,Rx,1,8,6E,04,D4,ED,E8,C0,C3,B4,
4295211258,000001DA,false,Rx,1,8,B9,72,58,00,00,01,03,6B,
4295211417,00000120,false,Rx,1,4,00,00,07,91,00,00,00,00,
4295211649,0000055A,false,Rx,1,8,1F,36,37,35,55,00,5B,48,
4295211892,0000011A,false,Rx,1,8,4E,40,00,55,00,00,01,7D,
4295212124,000001D4,false,Rx,1,8,F7,07,00,00,47,44,30,B7,
4295212362,000001F2,false,Rx,1,8,30,64,20,AC,00,3C,01,8F,
4295212584,0000050B,false,Rx,1,7,00,00,06,C0,00,00,00,00,
4295216355,0000055B,false,Rx,1,8,A4,40,AA,00,DF,C0,10,95,
4295216596,0000059E,false,Rx,1,8,00,00,0C,76,18,00,00,00,
4295216838,000005BC,false,Rx,1,8,3D,80,F0,64,B0,01,00,32,
4295220224,000001DB,false,Rx,1,8,FE,60,BA,0A,26,00,00,85,
4295220452,000001DC,false,Rx,1,8,6E,04,D4,ED,EC,DC,C8,5D,
4295221256,000001DA,false,Rx,1,8,B9,72,58,00,00,01,00,61,
4295221425,00000120,false,Rx,1,4,00,00,08,B3,00,00,00,00,
4295221812,0000011A,false,Rx,1,8,4E,40,00,55,40,00,02,B0,
4295222056,000001D4,false,Rx,1,8,F7,07,00,00,87,44,30,7B,
4295222287,000001F2,false,Rx,1,8,30,64,20,AC,00,3C,02,8F,
4295222516,0000050B,false,Rx,1,7,00,00,06,C0,00,00,00,00,
4295230566,000001DB,false,Rx,1,8,FE,A0,BA,0A,26,00,01,63,
4295230794,000001DC,false,Rx,1,8,6E,04,D4,ED,E1,0C,E1,18,
4295231026,0000055B,false,Rx,1,8,6C,C0,AA,00,D4,00,10,40,
4295231259,000005BC,false,Rx,1,8,13,40,B5,50,91,01,01,0E,
4295231428,00000120,false,Rx,1,4,00,00,09,36,00,00,00,00,
4295231660,000001DA,false,Rx,1,8,B9,32,58,00,00,01,01,46,
4295231893,0000011A,false,Rx,1,8,4E,40,00,AA,80,00,03,A6,
4295232124,000001D4,false,Rx,1,8,F7,07,00,00,C7,44,30,BC,
4295232366,000001F2,false,Rx,1,8,30,64,20,AC,00,3C,03,8F,
4295232590,0000050B,false,Rx,1,7,00,00,06,C0,00,00,00,00,
4295234411,000002B5,false,Rx,1,8,10,00,32,00,00,00,00,22,
4295234661,000002B6,false,Rx,1,8,10,00,88,01,F8,00,82,E3,
4295240224,000001DB,false,Rx,1,8,FE,C0,BA,0A,26,00,02,9A,
4295240453,000001DC,false,Rx,1,8,6E,04,D4,ED,E5,04,C6,0F,
4295241256,000001DA,false,Rx,1,8,B9,32,58,00,00,01,02,4C,
4295241416,00000120,false,Rx,1,4,00,00,0A,3C,00,00,00,00,
4295241815,0000011A,false,Rx,1,8,4E,40,00,AA,C0,00,00,6B,
4295242047,000001D4,false,Rx,1,8,F7,07,00,00,07,44,30,70,
4295242293,000001F2,false,Rx,1,8,30,64,20,AC,00,3C,00,8F,
4295242536,00000390,false,Rx,1,8,24,00,01,02,00,00,00,27,
4295242759,0000050B,false,Rx,1,7,00,00,06,C0,00,00,00,00,
4295246976,00000393,false,Rx,1,8,00,51,00,00,00,00,00,27,
4295250220,000001DB,false,Rx,1,8,FF,00,BA,0A,26,00,03,7B,
303579,000002A0,false,Tx,1,8,00,20,01,00,00,60,00,00,
4295250449,000001DC,false,Rx,1,8,6E,04,D4,ED,E8,C0,C3,B4,
4295251252,000001DA,false,Rx,1,8,B9,72,58,00,00,01,03,6B,
4295251422,00000120,false,Rx,1,4,00,00,0B,B9,00,00,00,00,
4295251810,0000011A,false,Rx,1,8,4E,40,00,55,00,00,01,7D,
4295252042,000001D4,false,Rx,1,8,F7,07,00,00,47,44,30,B7,
4295252365,000001F2,false,Rx,1,8,30,64,20,AC,00,3C,01,8F,
4295252513,0000050B,false,Rx,1,7,00,00,06,C0,00,00,00,00,
4295260221,000001DB,false,Rx,1,8,FF,20,BA,0A,26,00,00,20,
4295260450,000001DC,false,Rx,1,8,6E,04,D4,ED,EC,DC,C8,5D,
4295261255,000001DA,false,Rx,1,8,B9,72,58,00,00,01,00,61,
4295261424,00000120,false,Rx,1,4,00,00,0C,28,00,00,00,00,
4295261812,0000011A,false,Rx,1,8,4E,40,00,55,40,00,02,B0,
4295262054,000001D4,false,Rx,1,8,F7,07,00,00,87,44,30,7B,
4295262290,000001F2,false,Rx,1,8,30,64,20,AC,00,3C,02,8F,
4295262523,0000050B,false,Rx,1,7,00,00,06,C0,00,00,00,00,
4295270220,000001DB,false,Rx,1,8,FF,40,BA,0A,26,00,01,56,
4295270448,000001DC,false,Rx,1,8,6E,04,D4,ED,E1,0C,E1,18,
4295271251,000001DA,false,Rx,1,8,B9,32,58,00,00,01,01,46,
4295271410,00000120,false,Rx,1,4,00,00,0D,AD,00,00,00,00,
4295271809,0000011A,false,Rx,1,8,4E,40,00,AA,80,00,03,A6,
4295272041,000001D4,false,Rx,1,8,F7,07,00,00,C7,44,30,BC,
4295272277,000001F2,false,Rx,1,8,30,64,20,AC,00,3C,03,8F,
4295272498,0000050B,false,Rx,1,7,00,00,06,C0,00,00,00,00,
4295280216,000001DB,false,Rx,1,8,FF,80,BA,0A,26,00,02,3F,
4295280444,000001DC,false,Rx,1,8,6E,04,D4,ED,E5,04,C6,0F,
4295281257,000001DA,false,Rx,1,8,B9,32,58,00,00,01,02,4C,
4295281427,00000120,false,Rx,1,4,00,00,0E,A7,00,00,00,00,
4295281805,0000011A,false,Rx,1,8,4E,40,00,AA,C0,00,00,6B,
4295282047,000001D4,false,Rx,1,8,F7,07,00,00,07,44,30,70,
4295282283,000001F2,false,Rx,1,8,30,64,20,AC,00,3C,00,8F,
4295282517,0000050B,false,Rx,1,7,00,00,06,C0,00,00,00,00,
4295290211,000001DB,false,Rx,1,8,FF,A0,BA,0A,26,00,03,EB,
4295290449,000001DC,false,Rx,1,8,6E,04,D4,ED,E8,C0,C3,B4,
4295291253,000001DA,false,Rx,1,8,B9,72,58,00,00,01,03,6B,
4295291422,00000120,false,Rx,1,4,00,00,0F,22,00,00,00,00,
4295291811,0000011A,false,Rx,1,8,4E,40,00,55,00,00,01,7D,
4295292042,000001D4,false,Rx,1,8,F7,07,00,00,47,44,30,B7,
4295292278,000001F2,false,Rx,1,8,30,64,20,AC,00,3C,01,8F,
4295292513,0000050B,false,Rx,1,7,00,00,06,C0,00,00,00,00,
4295300208,000001DB,false,Rx,1,8,FF,A0,BA,0A,26,00,00,E1,
4295300436,000001DC,false,Rx,1,8,6E,04,D4,ED,EC,DC,C8,5D,
4295301260,000001DA,false,Rx,1,8,B9,72,58,00,00,01,00,61,
4295301429,00000120,false,Rx,1,4,00,00,00,00,00,00,00,00,
4295301818,0000011A,false,Rx,1,8,4E,40,00,55,40,00,02,B0,
4295302049,000001D4,false,Rx,1,8,F7,07,00,00,87,44,30,7B,
4295302285,000001F2,false,Rx,1,8,30,64,20,AC,00,3C,02,8F,
4295302519,0000050B,false,Rx,1,7,00,00,06,C0,00,00,00,00,
4295310215,000001DB,false,Rx,1,8,FF,A0,BA,0A,26,00,01,64,
4295310443,000001DC,false,Rx,1,8,6E,04,D4,ED,E1,0C,E1,18,
4295311256,000001DA,false,Rx,1,8,B9,32,58,00,00,01,01,46,
4295311426,00000120,false,Rx,1,4,00,00,01,85,00,00,00,00,
4295311658,0000055A,false,Rx,1,8,14,36,37,35,55,00,5B,48,
4295311891,0000011A,false,Rx,1,8,4E,40,00,AA,80,00,03,A6,
4295312123,000001D4,false,Rx,1,8,F7,07,00,00,C7,44,30,BC,
4295312361,000001F2,false,Rx,1,8,30,64,20,AC,00,3C,03,8F,
4295312585,0000050B,false,Rx,1,7,00,00,06,C0,00,00,00,00,
4295316354,0000055B,false,Rx,1,8,A4,40,AA,00,DF,C0,11,10,
4295316593,0000059E,false,Rx,1,8,00,00,0C,76,18,00,00,00,
4295316835,000005BC,false,Rx,1,8,3D,80,F0,64,B0,01,00,32,
4295320210,000001DB,false,Rx,1,8,FF,A0,BA,0A,26,00,02,6E,
4295320438,000001DC,false,Rx,1,8,6E,04,D4,ED,E5,04,C6,0F,
4295321252,000001DA,false,Rx,1,8,B9,32,58,00,00,01,02,4C,
4295321421,00000120,false,Rx,1,4,00,00,02,8F,00,00,00,00,
4295321809,0000011A,false,Rx,1,8,4E,40,00,AA,C0,00,00,6B,
4295322041,000001D4,false,Rx,1,8,F7,07,00,00,07,44,30,70,
4295322283,000001F2,false,Rx,1,8,30,64,20,AC,00,3C,00,8F,
4295322513,0000050B,false,Rx,1,7,00,00,06,C0,00,00,00,00,
4295330552,000001DB,false,Rx,1,8,FF,A0,BA,0A,26,00,03,EB,
4295330780,000001DC,false,Rx,1,8,6E,04,D4,ED,E8,C0,C3,B4,
4295331013,0000055B,false,Rx,1,8,6C,C0,AA,00,D4,00,11,C5,
4295331245,000005BC,false,Rx,1,8,13,40,B5,50,91,01,62,B2,
4295331414,00000120,false,Rx,1,4,00,00,03,0A,00,00,00,00,
4295331646,000001DA,false,Rx,1,8,B9,72,58,00,00,01,03,6B,
4295331889,0000011A,false,Rx,1,8,4E,40,00,55,00,00,01,7D,
4295332134,000001D4,false,Rx,1,8,F7,07,00,00,47,44,30,B7,
4295332364,000001F2,false,Rx,1,8,30,64,20,AC,00,3C,01,8F,
4295332588,0000050B,false,Rx,1,7,00,00,06,C0,00,00,00,00,
4295334398,000002B5,false,Rx,1,8,20,00,32,00,00,00,00,12,
4295334641,000002B6,false,Rx,1,8,20,00,88,81,F8,00,82,53,
388454,000002A0,false,Tx,1,8,00,40,01,00,00,60,00,00,
4295340211,000001DB,false,Rx,1,8,FF,A0,BA,0A,26,00,00,E1,
4295340439,000001DC,false,Rx,1,8,6E,04,D4,ED,EC,DC,C8,5D,
4295341252,000001DA,false,Rx,1,8,B9,72,58,00,00,01,00,61,
4295341422,00000120,false,Rx,1,4,00,00,04,9B,00,00,00,00,
4295341810,0000011A,false,Rx,1,8,4E,40,00,55,40,00,02,B0,
4295342052,000001D4,false,Rx,1,8,F7,07,00,00,87,44,30,7B,
4295342288,000001F2,false,Rx,1,8,30,64,20,AC,00,3C,02,8F,
4295342532,00000390,false,Rx,1,8,24,00,01,02,00,00,00,38,
4295342764,0000050B,false,Rx,1,7,00,00,06,C0,00,00,00,00,
4295347076,00000393,false,Rx,1,8,26,51,00,00,00,00,00,30,
4295350205,000001DB,false,Rx,1,8,FF,A0,BA,0A,26,00,01,64,
4295350433,000001DC,false,Rx,1,8,6E,04,D4,ED,E1,0C,E1,18,
4295351246,000001DA,false,Rx,1,8,B9,32,58,00,00,01,01,46,
4295351416,00000120,false,Rx,1,4,00,00,05,1E,00,00,00,00,
4295351804,0000011A,false,Rx,1,8,4E,40,00,AA,80,00,03,A6,
4295352036,000001D4,false,Rx,1,8,F7,07,00,00,C7,44,30,BC,
4295352272,000001F2,false,Rx,1,8,30,64,20,AC,00,3C,03,8F,
4295352506,0000050B,false,Rx,1,7,00,00,06,C0,00,00,00,00,
4295360202,000001DB,false,Rx,1,8,FF,C0,BA,0A,26,00,02,9D,
4295360440,000001DC,false,Rx,1,8,6E,04,D4,ED,E5,04,C6,0F,
4295361244,000001DA,false,Rx,1,8,B9,32,58,00,00,01,02,4C,
4295361414,00000120,false,Rx,1,4,00,00,06,14,00,00,00,00,
4295361802,0000011A,false,Rx,1,8,4E,40,00,AA,C0,00,00,6B,
4295362044,000001D4,false,Rx,1,8,F7,07,00,00,07,44,30,70,
4295362280,000001F2,false,Rx,1,8,30,64,20,AC,00,3C,00,8F,
4295362514,0000050B,false,Rx,1,7,00,00,06,C0,00,00,00,00,
4295370199,000001DB,false,Rx,1,8,FF,C0,BA,0A,26,00,03,18,
4295370437,000001DC,false,Rx,1,8,6E,04,D4,ED,E8,C0,C3,B4,
4295371251,000001DA,false,Rx,1,8,B9,72,58,00,00,01,03,6B,
4295371420,00000120,false,Rx,1,4,00,00,07,91,00,00,00,00,
4295371809,0000011A,false,Rx,1,8,4E,40,00,55,00,00,01,7D,
4295372041,000001D4,false,Rx,1,8,F7,07,00,00,47,44,30,B7,
4295372277,000001F2,false,Rx,1,8,30,64,20,AC,00,3C,01,8F,
4295372511,0000050B,false,Rx,1,7,00,00,06,C0,00,00,00,00,
4295380205,000001DB,false,Rx,1,8,FF,C0,BA,0A,26,00,00,12,
4295380433,000001DC,false,Rx,1,8,6E,04,D4,ED,EC,DC,C8,5D,
4295381257,000001DA,false,Rx,1,8,B9,72,58,00,00,01,00,61,
4295381426,00000120,false,Rx,1,4,00,00,08,B3,00,00,00,00,
4295381815,0000011A,false,Rx,1,8,4E,40,00,55,40,00,02,B0,
4295382046,000001D4,false,Rx,1,8,F7,07,00,00,87,44,30,7B,
4295382282,000001F2,false,Rx,1,8,30,64,20,AC,00,3C,02,8F,
4295382516,0000050B,false,Rx,1,7,00,00,06,C0,00,00,00,00,
4295390203,000001DB,false,Rx,1,8,FF,C0,BA,0A,26,00,01,97,
4295390431,000001DC,false,Rx,1,8,6E,04,D4,ED,E1,0C,E1,18,
4295391244,000001DA,false,Rx,1,8,B9,32,58,00,00,01,01,46,
4295391414,00000120,false,Rx,1,4,00,00,09,36,00,00,00,00,
4295391802,0000011A,false,Rx,1,8,4E,40,00,AA,80,00,03,A6,
4295392034,000001D4,false,Rx,1,8,F7,07,00,00,C7,44,30,BC,
4295392270,000001F2,false,Rx,1,8,30,64,20,AC,00,3C,03,8F,
4295392503,0000050B,false,Rx,1,7,00,00,06,C0,00,00,00,00,
4295400199,000001DB,false,Rx,1,8,FF,C0,BA,0A,26,00,02,9D,
4295400437,000001DC,false,Rx,1,8,6E,04,D4,ED,E5,04,C6,0F,
4295401251,000001DA,false,Rx,1,8,B9,32,58,00,00,01,02,4C,
4295401420,00000120,false,Rx,1,4,00,00,0A,3C,00,00,00,00,
4295401809,0000011A,false,Rx,1,8,4E,40,00,AA,C0,00,00,6B,
4295402040,000001D4,false,Rx,1,8,F7,07,00,00,07,44,30,70,
4295402287,000001F2,false,Rx,1,8,30,64,20,AC,00,3C,00,8F,
4295402510,0000050B,false,Rx,1,7,00,00,06,C0,00,00,00,00,
4295410195,000001DB,false,Rx,1,8,FF,C0,BA,0A,26,00,03,18,
4295410433,000001DC,false,Rx,1,8,6E,04,D4,ED,E8,C0,C3,B4,
4295411247,000001DA,false,Rx,1,8,B9,72,58,00,00,01,03,6B,
4295411416,00000120,false,Rx,1,4,00,00,0B,B9,00,00,00,00,
4295411639,0000055A,false,Rx,1,8,19,36,37,35,55,00,5B,48,
4295411881,0000011A,false,Rx,1,8,4E,40,00,55,00,00,01,7D,
4295412113,000001D4,false,Rx,1,8,F7,07,00,00,47,44,30,B7,
4295412352,000001F2,false,Rx,1,8,30,64,20,AC,00,3C,01,8F,
4295412585,0000050B,false,Rx,1,7,00,00,06,C0,00,00,00,00,
4295416354,0000055B,false,Rx,1,8,A4,40,AA,00,DF,C0,12,1A,
4295416593,0000059E,false,Rx,1,8,00,00,0C,76,18,00,00,00,
4295416825,000005BC,false,Rx,1,8,3D,80,F0,64,B0,01,00,32,
4295420200,000001DB,false,Rx,1,8,FF,C0,BA,0A,26,00,00,12,
4295420428,000001DC,false,Rx,1,8,6E,04,D4,ED,EC,DC,C8,5D,
4295421241,000001DA,false,Rx,1,8,B9,72,58,00,00,01,00,61,
4295421411,00000120,false,Rx,1,4,00,00,0C,28,00,00,00,00,
4295421810,0000011A,false,Rx,1,8,4E,40,00,55,40,00,02,B0,
4295422052,000001D4,false,Rx,1,8,F7,07,00,00,87,44,30,7B,
4295422285,000001F2,false,Rx,1,8,30,64,20,AC,00,3C,02,8F,
4295422513,0000050B,false,Rx,1,7,00,00,06,C0,00,00,00,00,
4295430542,000001DB,false,Rx,1,8,FF,C0,BA,0A,26,00,01,97,
4295430771,000001DC,false,Rx,1,8,6E,04,D4,ED,E1,0C,E1,18,
4295430992,0000055B,false,Rx,1,8,6C,C0,AA,00,D4,C0,12,ED,
4295431224,000005BC,false,Rx,1,8,13,40,B5,50,91,02,40,5A,
4295431393,00000120,false,Rx,1,4,00,00,0D,AD,00,00,00,00,
4295431628,000001DA,false,Rx,1,8,B9,32,58,00,00,01,01,46,
4295431859,0000011A,false,Rx,1,8,4E,40,00,AA,80,00,03,A6,
4295432091,000001D4,false,Rx,1,8,F7,07,00,00,C7,44,30,BC,
4295432334,000001F2,false,Rx,1,8,30,64,20,AC,00,3C,03,8F,
4295432557,0000050B,false,Rx,1,7,00,00,06,C0,00,00,00,00,
4295434398,000002B5,false,Rx,1,8,30,00,32,00,00,00,00,02,
4295434628,000002B6,false,Rx,1,8,30,00,88,81,F8,00,82,43,
4295440202,000001DB,false,Rx,1,8,FF,C0,BA,0A,26,00,02,9D,
4295440429,000001DC,false,Rx,1,8,6E,04,D4,ED,E5,04,C6,0F,
4295441243,000001DA,false,Rx,1,8,B9,32,58,00,00,01,02,4C,
4295441412,00000120,false,Rx,1,4,00,00,0E,A7,00,00,00,00,
4295441801,0000011A,false,Rx,1,8,4E,40,00,AA,C0,00,00,6B,
4295442043,000001D4,false,Rx,1,8,F7,07,00,00,07,44,30,70,
4295442280,000001F2,false,Rx,1,8,30,64,20,AC,00,3C,00,8F,
4295442534,00000390,false,Rx,1,8,24,00,01,02,00,00,00,05,
4295442756,0000050B,false,Rx,1,7,00,00,06,C0,00,00,00,00,
4295447183,00000393,false,Rx,1,8,00,51,00,00,00,00,00,05,
4295450196,000001DB,false,Rx,1,8,FF,C0,BA,0A,26,00,03,18,
4295450423,000001DC,false,Rx,1,8,6E,04,D4,ED,E8,C0,C3,B4,
4295451247,000001DA,false,Rx,1,8,B9,72,58,00,00,01,03,6B,
4295451417,00000120,false,Rx,1,4,00,00,0F,22,00,00,00,00,
4295451805,0000011A,false,Rx,1,8,4E,40,00,55,00,00,01,7D,
4295452037,000001D4,false,Rx,1,8,F7,07,00,00,47,44,30,B7,
4295452274,000001F2,false,Rx,1,8,30,64,20,AC,00,3C,01,8F,
4295452507,0000050B,false,Rx,1,7,00,00,06,C0,00,00,00,00,
507572,000002A0,false,Tx,1,8,00,80,01,00,00,60,00,00,
4295460198,000001DB,false,Rx,1,8,FF,C0,BA,0A,26,00,00,12,
4295460426,000001DC,false,Rx,1,8,6E,04,D4,ED,EC,DC,C8,5D,
4295461250,000001DA,false,Rx,1,8,B9,72,58,00,00,01,00,61,
4295461419,00000120,false,Rx,1,4,00,00,00,00,00,00,00,00,
4295461808,0000011A,false,Rx,1,8,4E,40,00,55,40,00,02,B0,
4295462050,000001D4,false,Rx,1,8,F7,07,00,00,87,44,30,7B,
4295462287,000001F2,false,Rx,1,8,30,64,20,AC,00,3C,02,8F,
4295462510,0000050B,false,Rx,1,7,00,00,06,C0,00,00,00,00,
4295470194,000001DB,false,Rx,1,8,FF,C0,BA,0A,26,00,01,97,
4295470422,000001DC,false,Rx,1,8,6E,04,D4,ED,E1,0C,E1,18,
4295471246,000001DA,false,Rx,1,8,B9,32,58,00,00,01,01,46,
4295471415,00000120,false,Rx,1,4,00,00,01,85,00,00,00,00,
4295471804,0000011A,false,Rx,1,8,4E,40,00,AA,80,00,03,A6,
4295472035,000001D4,false,Rx,1,8,F7,07,00,00,C7,44,30,BC,
4295472272,000001F2,false,Rx,1,8,30,64,20,AC,00,3C,03,8F,
4295472494,0000050B,false,Rx,1,7,00,00,06,C0,00,00,00,00,
4295480190,000001DB,false,Rx,1,8,FF,C0,BA,0A,26,00,02,9D,
4295480417,000001DC,false,Rx,1,8,6E,04,D4,ED,E5,04,C6,0F,
4295481252,000001DA,false,Rx,1,8,B9,32,58,00,00,01,02,4C,
4295481423,00000120,false,Rx,1,4,00,00,02,8F,00,00,00,00,
4295481799,0000011A,false,Rx,1,8,4E,40,00,AA,C0,00,00,6B,
4295482041,000001D4,false,Rx,1,8,F7,07,00,00,07,44,30,70,
4295482278,000001F2,false,Rx,1,8,30,64,20,AC,00,3C,00,8F,
4295482511,0000050B,false,Rx,1,7,00,00,06,C0,00,00,00,00,
4295490186,000001DB,false,Rx,1,8,FF,C0,BA,0A,26,00,03,18,
4295490414,000001DC,false,Rx,1,8,6E,04,D4,ED,E8,C0,C3,B4,
4295491248,000001DA,false,Rx,1,8,B9,72,58,00,00,01,03,6B,
4295491419,00000120,false,Rx,1,4,00,00,03,0A,00,00,00,00,
4295491806,0000011A,false,Rx,1,8,4E,40,00,55,00,00,01,7D,
4295492038,000001D4,false,Rx,1,8,F7,07,00,00,47,44,30,B7,
4295492275,000001F2,false,Rx,1,8,30,64,20,AC,00,3C,01,8F,
4295492508,0000050B,false,Rx,1,7,00,00,06,C0,00,00,00,00,
4295500193,000001DB,false,Rx,1,8,FF,C0,BA,0A,26,00,00,12,
4295500421,000001DC,false,Rx,1,8,6E,04,D4,ED,EC,DC,C8,5D,
4295501255,000001DA,false,Rx,1,8,B9,72,58,00,00,01,00,61,
4295501416,00000120,false,Rx,1,4,00,00,04,9B,00,00,00,00,
4295501803,0000011A,false,Rx,1,8,4E,40,00,55,40,00,02,B0,
4295502045,000001D4,false,Rx,1,8,F7,07,00,00,87,44,30,7B,
4295502282,000001F2,false,Rx,1,8,30,64,20,AC,00,3C,02,8F,
4295502515,0000050B,false,Rx,1,7,00,00,06,C0,00,00,00,00,
4295510180,000001DB,false,Rx,1,8,FF,A0,BA,0A,26,00,01,64,
4295510418,000001DC,false,Rx,1,8,6E,04,D4,ED,E1,0C,E1,18,
4295511252,000001DA,false,Rx,1,8,B9,32,58,00,00,01,01,46,
4295511423,00000120,false,Rx,1,4,00,00,05,1E,00,00,00,00,
4295511644,0000055A,false,Rx,1,8,1A,36,37,35,55,00,5B,48,
4295511886,0000011A,false,Rx,1,8,4E,40,00,AA,80,00,03,A6,
4295512118,000001D4,false,Rx,1,8,F7,07,00,00,C7,44,30,BC,
4295512347,000001F2,false,Rx,1,8,30,64,20,AC,00,3C,03,8F,
4295512580,0000050B,false,Rx,1,7,00,00,06,C0,00,00,00,00,
4295516350,0000055B,false,Rx,1,8,A4,40,AA,00,DF,C0,13,9F,
4295516590,0000059E,false,Rx,1,8,00,00,0C,76,18,00,00,00,
4295516833,000005BC,false,Rx,1,8,3D,80,F0,64,B0,01,00,32,
4295520186,000001DB,false,Rx,1,8,FF,A0,BA,0A,26,00,02,6E,
4295520414,000001DC,false,Rx,1,8,6E,04,D4,ED,E5,04,C6,0F,
4295521248,000001DA,false,Rx,1,8,B9,32,58,00,00,01,02,4C,
4295521408,00000120,false,Rx,1,4,00,00,06,14,00,00,00,00,
4295521806,0000011A,false,Rx,1,8,4E,40,00,AA,C0,00,00,6B,
4295522038,000001D4,false,Rx,1,8,F7,07,00,00,07,44,30,70,
4295522281,000001F2,false,Rx,1,8,30,64,20,AC,00,3C,00,8F,
4295522510,0000050B,false,Rx,1,7,00,00,06,C0,00,00,00,00,
4295530528,000001DB,false,Rx,1,8,FF,A0,BA,0A,26,00,03,EB,
583497,000002A0,false,Tx,1,8,01,00,01,00,00,60,00,00,
4295530757,000001DC,false,Rx,1,8,6E,04,D4,ED,E8,C0,C3,B4,
4295530989,0000055B,false,Rx,1,8,6C,C0,AA,00,D4,C0,13,68,
4295531220,000005BC,false,Rx,1,8,13,40,B5,50,91,02,A0,96,
4295531391,00000120,false,Rx,1,4,00,00,07,91,00,00,00,00,
4295531623,000001DA,false,Rx,1,8,B9,72,58,00,00,01,03,6B,
4295531865,0000011A,false,Rx,1,8,4E,40,00,55,00,00,01,7D,
4295532098,000001D4,false,Rx,1,8,F7,07,00,00,47,44,30,B7,
4295532355,000001F2,false,Rx,1,8,30,64,20,AC,00,3C,01,8F,
4295532554,0000050B,false,Rx,1,7,00,00,06,C0,00,00,00,00,
4295534463,000002B5,false,Rx,1,8,40,00,32,00,00,00,00,72,
4295534702,000002B6,false,Rx,1,8,40,00,88,81,F8,00,82,33,
4295540182,000001DB,false,Rx,1,8,FF,A0,BA,0A,26,00,00,E1,
4295540410,000001DC,false,Rx,1,8,6E,04,D4,ED,EC,DC,C8,5D,
4295541244,000001DA,false,Rx,1,8,B9,72,58,00,00,01,00,61,
4295541415,00000120,false,Rx,1,4,00,00,08,B3,00,00,00,00,
4295541803,0000011A,false,Rx,1,8,4E,40,00,55,40,00,02,B0,
4295542045,000001D4,false,Rx,1,8,F7,07,00,00,87,44,30,7B,
4295542283,000001F2,false,Rx,1,8,30,64,20,AC,00,3C,02,8F,
4295542527,00000390,false,Rx,1,8,24,00,01,02,00,00,00,16,
4295542748,0000050B,false,Rx,1,7,00,00,06,C0,00,00,00,00,
4295547281,00000393,false,Rx,1,8,26,51,00,00,00,00,00,1E,
4295550178,000001DB,false,Rx,1,8,FF,A0,BA,0A,26,00,01,64,
4295550406,000001DC,false,Rx,1,8,6E,04,D4,ED,E1,0C,E1,18,
4295551240,000001DA,false,Rx,1,8,B9,32,58,00,00,01,01,46,
4295551411,00000120,false,Rx,1,4,00,00,09,36,00,00,00,00,
4295551798,0000011A,false,Rx,1,8,4E,40,00,AA,80,00,03,A6,
4295552030,000001D4,false,Rx,1,8,F7,07,00,00,C7,44,30,BC,
4295552267,000001F2,false,Rx,1,8,30,64,20,AC,00,3C,03,8F,
4295552498,0000050B,false,Rx,1,7,00,00,06,C0,00,00,00,00,
4295560173,000001DB,false,Rx,1,8,FF,80,BA,0A,26,00,02,3F,
4295560411,000001DC,false,Rx,1,8,6E,04,D4,ED,E5,04,C6,0F,
4295561246,000001DA,false,Rx,1,8,B9,32,58,00,00,01,02,4C,
4295561406,00000120,false,Rx,1,4,00,00,0A,3C,00,00,00,00,
4295561804,0000011A,false,Rx,1,8,4E,40,00,AA,C0,00,00,6B,
4295562035,000001D4,false,Rx,1,8,F7,07,00,00,07,44,30,70,
4295562283,000001F2,false,Rx,1,8,30,64,20,AC,00,3C,00,8F,
4295562506,0000050B,false,Rx,1,7,00,00,06,C0,00,00,00,00,
4295570171,000001DB,false,Rx,1,8,FF,60,BA,0A,26,00,03,88,
4295570409,000001DC,false,Rx,1,8,6E,04,D4,ED,E8,C0,C3,B4,
4295571244,000001DA,false,Rx,1,8,B9,72,58,00,00,01,03,6B,
4295571415,00000120,false,Rx,1,4,00,00,0B,B9,00,00,00,00,
4295571802,0000011A,false,Rx,1,8,4E,40,00,55,00,00,01,7D,
4295572035,000001D4,false,Rx,1,8,F7,07,00,00,47,44,30,B7,
4295572270,000001F2,false,Rx,1,8,30,64,20,AC,00,3C,01,8F,
4295572502,0000050B,false,Rx,1,7,00,00,06,C0,00,00,00,00,
4295580177,000001DB,false,Rx,1,8,FF,60,BA,0A,26,00,00,82,
4295580405,000001DC,false,Rx,1,8,6E,04,D4,ED,EC,DC,C8,5D,
4295581251,000001DA,false,Rx,1,8,B9,72,58,00,00,01,00,61,
4295581420,00000120,false,Rx,1,4,00,00,0C,28,00,00,00,00,
4295581830,0000011A,false,Rx,1,8,4E,40,00,55,40,00,02,B0,
4295582042,000001D4,false,Rx,1,8,F7,07,00,00,87,44,30,7B,
4295582278,000001F2,false,Rx,1,8,30,64,20,AC,00,3C,02,8F,
4295582511,0000050B,false,Rx,1,7,00,00,06,C0,00,00,00,00,
4295590174,000001DB,false,Rx,1,8,FF,60,BA,0A,26,00,01,07,
4295590402,000001DC,false,Rx,1,8,6E,04,D4,ED,E1,0C,E1,18,
4295591247,000001DA,false,Rx,1,8,B9,32,58,00,00,01,01,46,
4295591407,00000120,false,Rx,1,4,00,00,0D,AD,00,00,00,00,
4295591804,0000011A,false,Rx,1,8,4E,40,00,AA,80,00,03,A6,
4295592037,000001D4,false,Rx,1,8,F7,07,00,00,C7,44,30,BC,
4295592273,000001F2,false,Rx,1,8,30,64,20,AC,00,3C,03,8F,
4295592494,0000050B,false,Rx,1,7,00,00,06,C0,00,00,00,00,
4295600170,000001DB,false,Rx,1,8,FF,20,BA,0A,26,00,02,AF,
4295600398,000001DC,false,Rx,1,8,6E,04,D4,ED,E5,04,C6,0F,
4295601244,000001DA,false,Rx,1,8,B9,32,58,00,00,01,02,4C,
4295601414,00000120,false,Rx,1,4,00,00,0E,A7,00,00,00,00,
4295601801,0000011A,false,Rx,1,8,4E,40,00,AA,C0,00,00,6B,
4295602034,000001D4,false,Rx,1,8,F7,07,00,00,07,44,30,70,
4295602280,000001F2,false,Rx,1,8,30,64,20,AC,00,3C,00,8F,
4295602501,0000050B,false,Rx,1,7,00,00,06,C0,00,00,00,00,
4295610177,000001DB,false,Rx,1,8,FF,00,BA,0A,26,00,03,7B,
4295610405,000001DC,false,Rx,1,8,6E,04,D4,ED,E8,C0,C3,B4,
4295611251,000001DA,false,Rx,1,8,B9,72,58,00,00,01,03,6B,
4295611420,00000120,false,Rx,1,4,00,00,0F,22,00,00,00,00,
4295611653,0000055A,false,Rx,1,8,1F,36,37,35,55,00,5B,48,
4295611885,0000011A,false,Rx,1,8,4E,40,00,55,00,00,01,7D,
4295612118,000001D4,false,Rx,1,8,F7,07,00,00,47,44,30,B7,
4295612356,000001F2,false,Rx,1,8,30,64,20,AC,00,3C,01,8F,
4295612588,0000050B,false,Rx,1,7,00,00,06,C0,00,00,00,00,
4295616347,0000055B,false,Rx,1,8,A4,40,AA,00,DF,C0,10,95,
4295616588,0000059E,false,Rx,1,8,00,00,0C,76,18,00,00,00,
4295616820,000005BC,false,Rx,1,8,3D,80,F0,64,B0,01,00,32,
4295620173,000001DB,false,Rx,1,8,FE,E0,BA,0A,26,00,00,44,
4295620394,000001DC,false,Rx,1,8,6E,04,D4,ED,EC,DC,C8,5D,
4295621248,000001DA,false,Rx,1,8,B9,72,58,00,00,01,00,61,
4295621418,00000120,false,Rx,1,4,00,00,00,00,00,00,00,00,
4295621805,0000011A,false,Rx,1,8,4E,40,00,55,40,00,02,B0,
4295622038,000001D4,false,Rx,1,8,F7,07,00,00,87,44,30,7B,
4295622280,000001F2,false,Rx,1,8,30,64,20,AC,00,3C,02,8F,
4295622507,0000050B,false,Rx,1,7,00,00,06,C0,00,00,00,00,
4295630515,000001DB,false,Rx,1,8,FE,C0,BA,0A,26,00,01,90,
4295630742,000001DC,false,Rx,1,8,6E,04,D4,ED,E1,0C,E1,18,
4295630974,0000055B,false,Rx,1,8,6C,C0,AA,00,D4,C0,10,62,
4295631207,000005BC,false,Rx,1,8,13,40,B5,50,91,03,01,C2,
4295631376,00000120,false,Rx,1,4,00,00,01,85,00,00,00,00,
4295631618,000001DA,false,Rx,1,8,B9,32,58,00,00,01,01,46,
4295631850,0000011A,false,Rx,1,8,4E,40,00,AA,80,00,03,A6,
4295632083,000001D4,false,Rx,1,8,F7,07,00,00,C7,44,30,BC,
4295632315,000001F2,false,Rx,1,8,30,64,20,AC,00,3C,03,8F,
4295632569,0000050B,false,Rx,1,7,00,00,06,C0,00,00,00,00,
4295634389,000002B5,false,Rx,1,8,50,00,3F,80,07,D8,00,30,
4295634620,000002B6,false,Rx,1,8,51,64,87,81,F8,00,82,49,
4295640416,000001DB,false,Rx,1,8,FE,80,BA,0A,26,00,02,38,
4295640645,000001DC,false,Rx,1,8,6E,04,D4,ED,E5,04,C6,0F,
4295640887,0000059E,false,Rx,1,8,00,00,0A,11,E8,00,00,00,
4295641119,000005C0,false,Rx,1,8,40,64,64,FF,72,08,1F,03,
4295641289,00000120,false,Rx,1,4,00,00,02,8F,00,00,00,00,
4295641532,000001DA,false,Rx,1,8,B9,32,58,00,00,01,02,4C,
4295641794,0000011A,false,Rx,1,8,4E,40,00,AA,C0,00,00,6B,
4295642037,000001D4,false,Rx,1,8,F7,07,00,00,07,44,30,70,
4295642279,000001F2,false,Rx,1,8,30,64,20,AC,00,3C,00,8F,
4295642523,00000390,false,Rx,1,8,24,00,01,02,00,00,00,27,
4295642745,0000050B,false,Rx,1,7,00,00,06,C0,00,00,00,00,
4295647378,00000393,false,Rx,1,8,00,51,00,00,00,00,00,27,
4295650170,000001DB,false,Rx,1,8,FE,60,BA,0A,26,00,03,8F,
4295650399,000001DC,false,Rx,1,8,6E,04,D4,ED,E8,C0,C3,B4,
4295651244,000001DA,false,Rx,1,8,B9,72,58,00,00,01,03,6B,
4295651414,00000120,false,Rx,1,4,00,00,03,0A,00,00,00,00,
4295651801,0000011A,false,Rx,1,8,4E,40,00,55,00,00,01,7D,
4295652033,000001D4,false,Rx,1,8,F7,07,00,00,47,44,30,B7,
4295652269,000001F2,false,Rx,1,8,30,64,20,AC,00,3C,01,8F,
4295652501,0000050B,false,Rx,1,7,00,00,06,C0,00,00,00,00,
707367,000002A0,false,Tx,1,8,02,00,01,00,00,60,00,00,
4295660165,000001DB,false,Rx,1,8,FE,60,BA,0A,26,00,00,85,
4295660394,000001DC,false,Rx,1,8,6E,04,D4,ED,EC,DC,C8,5D,
4295661250,000001DA,false,Rx,1,8,B9,72,58,00,00,01,00,61,
4295661409,00000120,false,Rx,1,4,00,00,04,9B,00,00,00,00,
4295661806,0000011A,false,Rx,1,8,4E,40,00,55,40,00,02,B0,
4295662039,000001D4,false,Rx,1,8,F7,07,00,00,87,44,30,7B,
4295662275,000001F2,false,Rx,1,8,30,64,20,AC,00,3C,02,8F,
4295662508,0000050B,false,Rx,1,7,00,00,06,C0,00,00,00,00,
4295670172,000001DB,false,Rx,1,8,FE,60,BA,0A,26,00,01,00,
4295670401,000001DC,false,Rx,1,8,6E,04,D4,ED,E1,0C,E1,18,
4295671246,000001DA,false,Rx,1,8,B9,32,58,00,00,01,01,46,
4295671405,00000120,false,Rx,1,4,00,00,05,1E,00,00,00,00,
4295671793,0000011A,false,Rx,1,8,4E,40,00,AA,80,00,03,A6,
4295672026,000001D4,false,Rx,1,8,F7,07,00,00,C7,44,30,BC,
4295672262,000001F2,false,Rx,1,8,30,64,20,AC,00,3C,03,8F,
4295672493,0000050B,false,Rx,1,7,00,00,06,C0,00,00,00,00,
4295680158,000001DB,false,Rx,1,8,FE,40,BA,0A,26,00,02,5B,
4295680387,000001DC,false,Rx,1,8,6E,04,D4,ED,E5,04,C6,0F,
4295681253,000001DA,false,Rx,1,8,B9,32,58,00,00,01,02,4C,
4295681422,00000120,false,Rx,1,4,00,00,06,14,00,00,00,00,
4295681799,0000011A,false,Rx,1,8,4E,40,00,AA,C0,00,00,6B,
4295682032,000001D4,false,Rx,1,8,F7,07,00,00,07,44,30,70,
4295682278,000001F2,false,Rx,1,8,30,64,20,AC,00,3C,00,8F,
4295682499,0000050B,false,Rx,1,7,00,00,06,C0,00,00,00,00,
4295690165,000001DB,false,Rx,1,8,FE,00,BA,0A,26,00,03,7C,
4295690394,000001DC,false,Rx,1,8,6E,04,D4,ED,E8,C0,C3,B4,
4295691249,000001DA,false,Rx,1,8,B9,72,58,00,00,01,03,6B,
4295691409,00000120,false,Rx,1,4,00,00,07,91,00,00,00,00,
4295691806,0000011A,false,Rx,1,8,4E,40,00,55,00,00,01,7D,
4295692029,000001D4,false,Rx,1,8,F7,07,00,00,47,44,30,B7,
4295692275,000001F2,false,Rx,1,8,30,64,20,AC,00,3C,01,8F,
4295692496,0000050B,false,Rx,1,7,00,00,06,C0,00,00,00,00,
4295700162,000001DB,false,Rx,1,8,FE,00,BA,0A,26,00,00,76,
4295700391,000001DC,false,Rx,1,8,6E,04,D4,ED,EC,DC,C8,5D,
4295701256,000001DA,false,Rx,1,8,B9,72,58,00,00,01,00,61,
4295701426,00000120,false,Rx,1,4,00,00,08,B3,00,00,00,00,
4295701803,0000011A,false,Rx,1,8,4E,40,00,55,40,00,02,B0,
4295702036,000001D4,false,Rx,1,8,F7,07,00,00,87,44,30,7B,
4295702282,000001F2,false,Rx,1,8,30,64,20,AC,00,3C,02,8F,
4295702503,0000050B,false,Rx,1,7,00,00,06,C0,00,00,00,00,
4295710159,000001DB,false,Rx,1,8,FE,00,BA,0A,26,00,01,F3,
4295710388,000001DC,false,Rx,1,8,6E,04,D4,ED,E1,0C,E1,18,
4295711244,000001DA,false,Rx,1,8,B9,32,58,00,00,01,01,46,
4295711414,00000120,false,Rx,1,4,00,00,09,36,00,00,00,00,
4295711646,0000055A,false,Rx,1,8,14,36,37,35,55,00,5B,48,
4295711879,0000011A,false,Rx,1,8,4E,40,00,AA,80,00,03,A6,
4295712110,000001D4,false,Rx,1,8,F7,07,00,00,C7,44,30,BC,
4295712348,000001F2,false,Rx,1,8,30,64,20,AC,00,3C,03,8F,
4295712571,0000050B,false,Rx,1,7,00,00,06,C0,00,00,00,00,
4295716340,0000055B,false,Rx,1,8,A4,40,AA,00,DF,C0,11,10,
4295716581,0000059E,false,Rx,1,8,00,00,0C,76,18,00,00,00,
4295716823,000005BC,false,Rx,1,8,3D,80,F0,64,B0,01,00,32,
4295720166,000001DB,false,Rx,1,8,FE,00,BA,0A,26,00,02,F9,
4295720388,000001DC,false,Rx,1,8,6E,04,D4,ED,E5,04,C6,0F,
4295721241,000001DA,false,Rx,1,8,B9,32,58,00,00,01,02,4C,
4295721411,00000120,false,Rx,1,4,00,00,0A,3C,00,00,00,00,
4295721799,0000011A,false,Rx,1,8,4E,40,00,AA,C0,00,00,6B,
4295722031,000001D4,false,Rx,1,8,F7,07,00,00,07,44,30,70,
4295722273,000001F2,false,Rx,1,8,30,64,20,AC,00,3C,00,8F,
4295722499,0000050B,false,Rx,1,7,00,00,06,C0,00,00,00,00,
4295730497,000001DB,false,Rx,1,8,FE,00,BA,0A,26,00,03,7C,
783737,000002A0,false,Tx,1,8,04,00,01,00,00,60,00,00,
4295730725,000001DC,false,Rx,1,8,6E,04,D4,ED,E8,C0,C3,B4,
4295730957,0000055B,false,Rx,1,8,6C,C0,AA,00,D7,00,11,4D,
4295731200,000005BC,false,Rx,1,8,13,40,64,50,90,00,1F,FF,
4295731359,00000120,false,Rx,1,4,00,00,0B,B9,00,00,00,00,
4295731602,000001DA,false,Rx,1,8,B9,72,58,00,00,01,03,6B,
4295731845,0000011A,false,Rx,1,8,4E,40,00,55,00,00,01,7D,
4295732077,000001D4,false,Rx,1,8,F7,07,00,00,47,44,30,B7,
4295732308,000001F2,false,Rx,1,8,30,64,20,AC,00,3C,01,8F,
4295732609,0000050B,false,Rx,1,7,00,00,06,C0,00,00,00,00,
4295734443,000002B5,false,Rx,1,8,60,00,41,80,09,0B,00,A3,
4295734683,000002B6,false,Rx,1,8,61,64,87,81,F8,00,82,79,
4295740151,000001DB,false,Rx,1,8,FE,00,BA,0A,26,00,00,76,
4295740380,000001DC,false,Rx,1,8,6E,04,D4,ED,EC,DC,C8,5D,
4295741246,000001DA,false,Rx,1,8,B9,72,58,00,00,01,00,61,
4295741405,00000120,false,Rx,1,4,00,00,0C,28,00,00,00,00,
4295741805,0000011A,false,Rx,1,8,4E,40,00,55,40,00,02,B0,
4295742036,000001D4,false,Rx,1,8,F7,07,00,00,87,44,30,7B,
4295742272,000001F2,false,Rx,1,8,30,64,20,AC,00,3C,02,8F,
4295742528,00000390,false,Rx,1,8,24,00,01,02,00,00,00,38,
4295742749,0000050B,false,Rx,1,7,00,00,06,C0,00,00,00,00,
4295747471,00000393,false,Rx,1,8,26,51,00,00,00,00,00,30,
4295750168,000001DB,false,Rx,1,8,FE,00,BA,0B,26,00,01,E5,
4295750387,000001DC,false,Rx,1,8,6E,04,D4,ED,E1,0C,E1,18,
4295751242,000001DA,false,Rx,1,8,B9,32,58,00,00,01,01,46,
4295751411,00000120,false,Rx,1,4,00,00,0D,AD,00,00,00,00,
4295751789,0000011A,false,Rx,1,8,4E,40,00,AA,80,00,03,A6,
4295752031,000001D4,false,Rx,1,8,F7,07,00,00,C7,44,30,BC,
4295752267,000001F2,false,Rx,1,8,30,64,20,AC,00,3C,03,8F,
4295752488,0000050B,false,Rx,1,7,00,00,06,C0,00,00,00,00,
4295760155,000001DB,false,Rx,1,8,FE,00,BA,0B,26,00,02,EF,
4295760384,000001DC,false,Rx,1,8,6E,04,D4,ED,E5,04,C6,0F,
4295761239,000001DA,false,Rx,1,8,B9,32,58,00,00,01,02,4C,
4295761408,00000120,false,Rx,1,4,00,00,0E,A7,00,00,00,00,
4295761797,0000011A,false,Rx,1,8,4E,40,00,AA,C0,00,00,6B,
4295762028,000001D4,false,Rx,1,8,F7,07,00,00,07,44,30,70,
4295762274,000001F2,false,Rx,1,8,30,64,20,AC,00,3C,00,8F,
4295762497,0000050B,false,Rx,1,7,00,00,06,C0,00,00,00,00,
4295770151,000001DB,false,Rx,1,8,FE,00,BA,0B,26,00,03,6A,
4295770379,000001DC,false,Rx,1,8,6E,04,D4,ED,E8,C0,C3,B4,
4295771245,000001DA,false,Rx,1,8,B9,72,58,00,00,01,03,6B,
4295771415,00000120,false,Rx,1,4,00,00,0F,22,00,00,00,00,
4295771803,0000011A,false,Rx,1,8,4E,40,00,55,00,00,01,7D,
4295772035,000001D4,false,Rx,1,8,F7,07,00,00,47,44,30,B7,
4295772271,000001F2,false,Rx,1,8,30,64,20,AC,00,3C,01,8F,
4295772503,0000050B,false,Rx,1,7,00,00,06,C0,00,00,00,00,
4295780147,000001DB,false,Rx,1,8,FE,00,BA,0B,26,00,00,60,
4295780376,000001DC,false,Rx,1,8,6E,04,D4,ED,EC,DC,C8,5D,
4295781251,000001DA,false,Rx,1,8,B9,72,58,00,00,01,00,61,
4295781421,00000120,false,Rx,1,4,00,00,00,00,00,00,00,00,
4295781799,0000011A,false,Rx,1,8,4E,40,00,55,40,00,02,B0,
4295782041,000001D4,false,Rx,1,8,F7,07,00,00,87,44,30,7B,
4295782277,000001F2,false,Rx,1,8,30,64,20,AC,00,3C,02,8F,
4295782499,0000050B,false,Rx,1,7,00,00,06,C0,00,00,00,00,
4295790154,000001DB,false,Rx,1,8,FE,00,BA,0B,26,00,01,E5,
4295790382,000001DC,false,Rx,1,8,6E,04,D4,ED,E1,0C,E1,18,
4295791236,000001DA,false,Rx,1,8,B9,32,58,00,00,01,01,46,
4295791416,00000120,false,Rx,1,4,00,00,01,85,00,00,00,00,
4295791794,0000011A,false,Rx,1,8,4E,40,00,AA,80,00,03,A6,
4295792026,000001D4,false,Rx,1,8,F7,07,00,00,C7,44,30,BC,
4295792262,000001F2,false,Rx,1,8,30,64,20,AC,00,3C,03,8F,
4295792484,0000050B,false,Rx,1,7,00,00,06,C0,00,00,00,00,
4295800150,000001DB,false,Rx,1,8,FE,00,BA,0B,26,00,02,EF,
4295800378,000001DC,false,Rx,1,8,6E,04,D4,ED,E5,04,C6,0F,
4295801244,000001DA,false,Rx,1,8,B9,32,58,00,00,01,02,4C,
4295801414,00000120,false,Rx,1,4,00,00,02,8F,00,00,00,00,
4295801792,0000011A,false,Rx,1,8,4E,40,00,AA,C0,00,00,6B,
4295802034,000001D4,false,Rx,1,8,F7,07,00,00,07,44,30,70,
4295802270,000001F2,false,Rx,1,8,30,64,20,AC,00,3C,00,8F,
4295802503,0000050B,false,Rx,1,7,00,00,06,C0,00,00,00,00,
4295810147,000001DB,false,Rx,1,8,FE,00,BA,0B,26,00,03,6A,
4295810375,000001DC,false,Rx,1,8,6E,04,D4,ED,E8,C0,C3,B4,
4295811240,000001DA,false,Rx,1,8,B9,72,58,00,00,01,03,6B,
4295811410,00000120,false,Rx,1,4,00,00,03,0A,00,00,00,00,
4295811643,0000055A,false,Rx,1,8,19,36,37,35,55,00,5B,48,
4295811886,0000011A,false,Rx,1,8,4E,40,00,55,00,00,01,7D,
4295812118,000001D4,false,Rx,1,8,F7,07,00,00,47,44,30,B7,
4295812356,000001F2,false,Rx,1,8,30,64,20,AC,00,3C,01,8F,
4295812580,0000050B,false,Rx,1,7,00,00,06,C0,00,00,00,00,
4295816339,0000055B,false,Rx,1,8,A4,40,AA,00,DF,C0,12,1A,
4295816578,0000059E,false,Rx,1,8,00,00,0C,76,18,00,00,00,
4295816820,000005BC,false,Rx,1,8,3D,80,F0,64,B0,01,00,32,
4295820143,000001DB,false,Rx,1,8,FE,00,BA,0B,26,00,00,60,
4295820375,000001DC,false,Rx,1,8,6E,04,D4,ED,EC,DC,C8,5D,
4295821239,000001DA,false,Rx,1,8,B9,72,58,00,00,01,00,61,
4295821409,00000120,false,Rx,1,4,00,00,04,9B,00,00,00,00,
4295821797,0000011A,false,Rx,1,8,4E,40,00,55,40,00,02,B0,
4295822039,000001D4,false,Rx,1,8,F7,07,00,00,87,44,30,7B,
4295822281,000001F2,false,Rx,1,8,30,64,20,AC,00,3C,02,8F,
4295822497,0000050B,false,Rx,1,7,00,00,06,C0,00,00,00,00,
4295830494,000001DB,false,Rx,1,8,FE,00,BA,0B,26,00,01,E5,
884185,000002A0,false,Tx,1,8,08,00,01,00,00,60,00,00,
4295830723,000001DC,false,Rx,1,8,6E,04,D4,ED,E1,0C,E1,18,
4295830956,0000055B,false,Rx,1,8,6C,C0,AA,00,D7,00,12,47,
4295831187,000005BC,false,Rx,1,8,13,40,64,50,90,00,A0,B4,
4295831357,00000120,false,Rx,1,4,00,00,05,1E,00,00,00,00,
4295831589,000001DA,false,Rx,1,8,B9,32,58,00,00,01,01,46,
4295831822,0000011A,false,Rx,1,8,4E,40,00,AA,80,00,03,A6,
4295832054,000001D4,false,Rx,1,8,F7,07,00,00,C7,44,30,BC,
4295832286,000001F2,false,Rx,1,8,30,64,20,AC,00,3C,03,8F,
4295832520,0000050B,false,Rx,1,7,00,00,06,C0,00,00,00,00,
4295834442,000002B5,false,Rx,1,8,70,00,41,40,08,DE,00,A7,
4295834681,000002B6,false,Rx,1,8,71,64,87,81,F8,00,82,69,
4295840143,000001DB,false,Rx,1,8,FE,00,BA,0B,26,00,02,EF,
4295840380,000001DC,false,Rx,1,8,6E,04,D4,ED,E5,04,C6,0F,
4295841235,000001DA,false,Rx,1,8,B9,32,58,00,00,01,02,4C,
4295841405,00000120,false,Rx,1,4,00,00,06,14,00,00,00,00,
4295841794,0000011A,false,Rx,1,8,4E,40,00,AA,C0,00,00,6B,
4295842036,000001D4,false,Rx,1,8,F7,07,00,00,07,44,30,70,
4295842272,000001F2,false,Rx,1,8,30,64,20,AC,00,3C,00,8F,
4295842494,0000050B,false,Rx,1,7,00,00,06,C0,00,00,00,00,
4295842748,00000390,false,Rx,1,8,24,00,01,02,00,00,00,05,
4295847576,00000393,false,Rx,1,8,00,51,00,00,00,00,00,05,
4295850138,000001DB,false,Rx,1,8,FE,00,BA,0B,26,00,03,6A,
4295850366,000001DC,false,Rx,1,8,6E,04,D4,ED,E8,C0,C3,B4,
4295851241,000001DA,false,Rx,1,8,B9,72,58,00,00,01,03,6B,
4295851411,00000120,false,Rx,1,4,00,00,07,91,00,00,00,00,
4295851799,0000011A,false,Rx,1,8,4E,40,00,55,00,00,01,7D,
4295852031,000001D4,false,Rx,1,8,F7,07,00,00,47,44,30,B7,
4295852267,000001F2,false,Rx,1,8,30,64,20,AC,00,3C,01,8F,
4295852500,0000050B,false,Rx,1,7,00,00,06,C0,00,00,00,00,
4295860145,000001DB,false,Rx,1,8,FE,20,BA,0B,26,00,00,31,
4295860373,000001DC,false,Rx,1,8,6E,04,D4,ED,EC,DC,C8,5D,
4295861239,000001DA,false,Rx,1,8,B9,72,58,00,00,01,00,61,
4295861409,00000120,false,Rx,1,4,00,00,08,B3,00,00,00,00,
4295861797,0000011A,false,Rx,1,8,4E,40,00,55,40,00,02,B0,
4295862039,000001D4,false,Rx,1,8,F7,07,00,00,87,44,30,7B,
4295862275,000001F2,false,Rx,1,8,30,64,20,AC,00,3C,02,8F,
4295862497,0000050B,false,Rx,1,7,00,00,06,C0,00,00,00,00,
4295870133,000001DB,false,Rx,1,8,FE,20,BA,0B,26,00,01,B4,
4295870360,000001DC,false,Rx,1,8,6E,04,D4,ED,E1,0C,E1,18,
4295871236,000001DA,false,Rx,1,8,B9,32,58,00,00,01,01,46,
4295871406,00000120,false,Rx,1,4,00,00,09,36,00,00,00,00,
4295871794,0000011A,false,Rx,1,8,4E,40,00,AA,80,00,03,A6,
4295872026,000001D4,false,Rx,1,8,F7,07,00,00,C7,44,30,BC,
4295872261,000001F2,false,Rx,1,8,30,64,20,AC,00,3C,03,8F,
4295872484,0000050B,false,Rx,1,7,00,00,06,C0,00,00,00,00,
4295880139,000001DB,false,Rx,1,8,FE,20,BA,0B,26,00,02,BE,
4295880366,000001DC,false,Rx,1,8,6E,04,D4,ED,E5,04,C6,0F,
4295881242,000001DA,false,Rx,1,8,B9,32,58,00,00,01,02,4C,
4295881412,00000120,false,Rx,1,4,00,00,0A,3C,00,00,00,00,
4295881790,0000011A,false,Rx,1,8,4E,40,00,AA,C0,00,00,6B,
4295882032,000001D4,false,Rx,1,8,F7,07,00,00,07,44,30,70,
4295882267,000001F2,false,Rx,1,8,30,64,20,AC,00,3C,00,8F,
4295882500,0000050B,false,Rx,1,7,00,00,06,C0,00,00,00,00,
4295890135,000001DB,false,Rx,1,8,FE,20,BA,0B,26,00,03,3B,
4295890363,000001DC,false,Rx,1,8,6E,04,D4,ED,E8,C0,C3,B4,
4295891239,000001DA,false,Rx,1,8,B9,72,58,00,00,01,03,6B,
4295891409,00000120,false,Rx,1,4,00,00,0B,B9,00,00,00,00,
4295891797,0000011A,false,Rx,1,8,4E,40,00,55,00,00,01,7D,
4295892029,000001D4,false,Rx,1,8,F7,07,00,00,47,44,30,B7,
4295892265,000001F2,false,Rx,1,8,30,64,20,AC,00,3C,01,8F,
4295892498,0000050B,false,Rx,1,7,00,00,06,C0,00,00,00,00,
4295900132,000001DB,false,Rx,1,8,FE,40,BA,0B,26,00,00,C2,
4295900360,000001DC,false,Rx,1,8,6E,04,D4,ED,EC,DC,C8,5D,
4295901246,000001DA,false,Rx,1,8,B9,72,58,00,00,01,00,61,
4295901416,00000120,false,Rx,1,4,00,00,0C,28,00,00,00,00,
4295901794,0000011A,false,Rx,1,8,4E,40,00,55,40,00,02,B0,
4295902036,000001D4,false,Rx,1,8,F7,07,00,00,87,44,30,7B,
4295902273,000001F2,false,Rx,1,8,30,64,20,AC,00,3C,02,8F,
4295902494,0000050B,false,Rx,1,7,00,00,06,C0,00,00,00,00,
4295910129,000001DB,false,Rx,1,8,FE,40,BA,0B,26,00,01,47,
4295910357,000001DC,false,Rx,1,8,6E,04,D4,ED,E1,0C,E1,18,
4295911243,000001DA,false,Rx,1,8,B9,32,58,00,00,01,01,46,
4295911412,00000120,false,Rx,1,4,00,00,0D,AD,00,00,00,00,
4295911645,0000055A,false,Rx,1,8,1A,36,37,35,55,00,5B,48,
4295911877,0000011A,false,Rx,1,8,4E,40,00,AA,80,00,03,A6,
4295912109,000001D4,false,Rx,1,8,F7,07,00,00,C7,44,30,BC,
4295912348,000001F2,false,Rx,1,8,30,64,20,AC,00,3C,03,8F,
4295912570,0000050B,false,Rx,1,7,00,00,06,C0,00,00,00,00,
4295916340,0000055B,false,Rx,1,8,A4,40,AA,00,DF,C0,13,9F,
4295916581,0000059E,false,Rx,1,8,00,00,0C,76,18,00,00,00,
4295916823,000005BC,false,Rx,1,8,3D,80,F0,64,B0,01,00,32,
4295920137,000001DB,false,Rx,1,8,FE,40,BA,0B,26,00,02,4D,
4295920368,000001DC,false,Rx,1,8,6E,04,D4,ED,E5,04,C6,0F,
4295921242,000001DA,false,Rx,1,8,B9,32,58,00,00,01,02,4C,
4295921412,00000120,false,Rx,1,4,00,00,0E,A7,00,00,00,00,
4295921789,0000011A,false,Rx,1,8,4E,40,00,AA,C0,00,00,6B,
4295922031,000001D4,false,Rx,1,8,F7,07,00,00,07,44,30,70,
4295922264,000001F2,false,Rx,1,8,30,64,20,AC,00,3C,00,8F,
4295922500,0000050B,false,Rx,1,7,00,00,06,C0,00,00,00,00,
4295930475,000001DB,false,Rx,1,8,FE,40,BA,0B,26,00,03,C8,
4295930706,000001DC,false,Rx,1,8,6E,04,D4,ED,E8,C0,C3,B4,
4295930938,0000055B,false,Rx,1,8,6C,C0,AA,00,D9,40,13,83,
4295931169,000005BC,false,Rx,1,8,13,40,64,50,90,01,01,0E,
4295931339,00000120,false,Rx,1,4,00,00,0F,22,00,00,00,00,
4295931572,000001DA,false,Rx,1,8,B9,72,58,00,00,01,03,6B,
4295931814,0000011A,false,Rx,1,8,4E,40,00,55,00,00,01,7D,
4295932046,000001D4,false,Rx,1,8,F7,07,00,00,47,44,30,B7,
4295932289,000001F2,false,Rx,1,8,30,64,20,AC,00,3C,01,8F,
4295932512,0000050B,false,Rx,1,7,00,00,06,C0,00,00,00,00,
4295934384,000002B5,false,Rx,1,8,80,00,40,80,08,85,00,CD,
4295934625,000002B6,false,Rx,1,8,81,64,87,81,F8,00,82,99,
4295940136,000001DB,false,Rx,1,8,FE,40,BA,0B,26,00,00,C2,
4295940363,000001DC,false,Rx,1,8,6E,04,D4,ED,EC,DC,C8,5D,
4295941239,000001DA,false,Rx,1,8,B9,72,58,00,00,01,00,61,
4295941419,00000120,false,Rx,1,4,00,00,00,00,00,00,00,00,
4295941798,0000011A,false,Rx,1,8,4E,40,00,55,40,00,02,B0,
4295942030,000001D4,false,Rx,1,8,F7,07,00,00,87,44,30,7B,
4295942277,000001F2,false,Rx,1,8,30,64,20,AC,00,3C,02,8F,
4295942498,0000050B,false,Rx,1,7,00,00,06,C0,00,00,00,00,
4295942741,00000390,false,Rx,1,8,24,00,01,02,00,00,00,16,
4295947677,00000393,false,Rx,1,8,26,51,00,00,00,00,00,1E,
4295950132,000001DB,false,Rx,1,8,FE,40,BA,0B,26,00,01,47,
4295950359,000001DC,false,Rx,1,8,6E,04,D4,F1,E1,0C,E1,15,
4295951235,000001DA,false,Rx,1,8,B9,32,58,00,00,01,01,46,
4295951405,00000120,false,Rx,1,4,00,00,01,85,00,00,00,00,
4295951793,0000011A,false,Rx,1,8,4E,40,00,AA,80,00,03,A6,
4295952025,000001D4,false,Rx,1,8,F7,07,00,00,C7,44,30,BC,
4295952252,000001F2,false,Rx,1,8,30,64,20,AC,00,3C,03,8F,
4295952483,0000050B,false,Rx,1,7,00,00,06,C0,00,00,00,00,
1007351,000002A0,false,Tx,1,8,10,00,01,00,00,60,00,00,
4295960125,000001DB,false,Rx,1,8,FE,40,BA,0B,26,00,02,4D,
4295960353,000001DC,false,Rx,1,8,6E,04,D4,F1,E5,04,C6,02,
4295961239,000001DA,false,Rx,1,8,B9,32,58,00,00,01,02,4C,
4295961410,00000120,false,Rx,1,4,00,00,02,8F,00,00,00,00,
4295961786,0000011A,false,Rx,1,8,4E,40,00,AA,C0,00,00,6B,
4295962028,000001D4,false,Rx,1,8,F7,07,00,00,07,44,30,70,
4295962265,000001F2,false,Rx,1,8,30,64,20,AC,00,3C,00,8F,
4295962497,0000050B,false,Rx,1,7,00,00,06,C0,00,00,00,00,
4295970131,000001DB,false,Rx,1,8,FE,40,BA,0B,26,00,03,C8,
4295970359,000001DC,false,Rx,1,8,6E,04,D4,F1,E8,C0,C3,B9,
4295971234,000001DA,false,Rx,1,8,B9,72,58,00,00,01,03,6B,
4295971405,00000120,false,Rx,1,4,00,00,03,0A,00,00,00,00,
4295971793,0000011A,false,Rx,1,8,4E,40,00,55,00,00,01,7D,
4295972025,000001D4,false,Rx,1,8,F7,07,00,00,47,44,30,B7,
4295972262,000001F2,false,Rx,1,8,30,64,20,AC,00,3C,01,8F,
4295972493,0000050B,false,Rx,1,7,00,00,06,C0,00,00,00,00,
4295980127,000001DB,false,Rx,1,8,FE,40,BA,0B,26,00,00,C2,
4295980355,000001DC,false,Rx,1,8,6E,04,D4,F1,EC,DC,C8,50,
4295981251,000001DA,false,Rx,1,8,B9,72,58,00,00,01,00,61,
4295981412,00000120,false,Rx,1,4,00,00,04,9B,00,00,00,00,
4295981799,0000011A,false,Rx,1,8,4E,40,00,55,40,00,02,B0,
4295982030,000001D4,false,Rx,1,8,F7,07,00,00,87,44,30,7B,
4295982267,000001F2,false,Rx,1,8,30,64,20,AC,00,3C,02,8F,
4295982499,0000050B,false,Rx,1,7,00,00,06,C0,00,00,00,00,
4295990123,000001DB,false,Rx,1,8,FE,40,BA,0B,26,00,01,47,
4295990351,000001DC,false,Rx,1,8,6E,04,D4,F1,E1,0C,E1,15,
4295991237,000001DA,false,Rx,1,8,B9,32,58,00,00,01,01,46,
4295991408,00000120,false,Rx,1,4,00,00,05,1E,00,00,00,00,
4295991785,0000011A,false,Rx,1,8,4E,40,00,AA,80,00,03,A6,
4295992027,000001D4,false,Rx,1,8,F7,07,00,00,C7,44,30,BC,
4295992253,000001F2,false,Rx,1,8,30,64,20,AC,00,3C,03,8F,
4295992485,0000050B,false,Rx,1,7,00,00,06,C0,00,00,00,00,
4296000119,000001DB,false,Rx,1,8,FE,40,BA,0B,26,00,02,4D,
4296000357,000001DC,false,Rx,1,8,6E,04,D4,F1,E5,04,C6,02,
4296001243,000001DA,false,Rx,1,8,B9,32,58,00,00,01,02,4C,
4296001413,00000120,false,Rx,1,4,00,00,06,14,00,00,00,00,
4296001790,0000011A,false,Rx,1,8,4E,40,00,AA,C0,00,00,6B,
4296002022,000001D4,false,Rx,1,8,F7,07,00,00,07,44,30,70,
4296002269,000001F2,false,Rx,1,8,30,64,20,AC,00,3C,00,8F,
4296002490,0000050B,false,Rx,1,7,00,00,06,C0,00,00,00,00,
4296010126,000001DB,false,Rx,1,8,FE,40,BA,0B,26,00,03,C8,
4296010354,000001DC,false,Rx,1,8,6E,04,D4,F1,E8,C0,C3,B9,
4296011240,000001DA,false,Rx,1,8,B9,72,58,00,00,01,03,6B,
4296011410,00000120,false,Rx,1,4,00,00,07,91,00,00,00,00,
4296011642,0000055A,false,Rx,1,8,1F,36,37,35,55,00,5B,48,
4296011884,0000011A,false,Rx,1,8,4E,40,00,55,00,00,01,7D,
4296012117,000001D4,false,Rx,1,8,F7,07,00,00,47,44,30,B7,
4296012355,000001F2,false,Rx,1,8,30,64,20,AC,00,3C,01,8F,
4296012578,0000050B,false,Rx,1,7,00,00,06,C0,00,00,00,00,
4296016338,0000055B,false,Rx,1,8,A4,40,AA,00,DF,C0,10,95,
4296016577,0000059E,false,Rx,1,8,00,00,0C,76,18,00,00,00,
4296016810,000005BC,false,Rx,1,8,3D,80,F0,64,B0,01,00,32,
4296020122,000001DB,false,Rx,1,8,FE,60,BA,0B,26,00,00,93,
4296020343,000001DC,false,Rx,1,8,6E,04,D4,F1,EC,DC,C8,50,
4296021238,000001DA,false,Rx,1,8,B9,72,58,00,00,01,00,61,
4296021409,00000120,false,Rx,1,4,00,00,08,B3,00,00,00,00,
4296021796,0000011A,false,Rx,1,8,4E,40,00,55,40,00,02,B0,
4296022027,000001D4,false,Rx,1,8,F7,07,00,00,87,44,30,7B,
4296022271,000001F2,false,Rx,1,8,30,64,20,AC,00,3C,02,8F,
4296022496,0000050B,false,Rx,1,7,00,00,06,C0,00,00,00,00,
4296030462,000001DB,false,Rx,1,8,FE,60,BA,0B,26,00,01,16,
1083896,000002A0,false,Tx,1,8,20,00,01,00,00,60,00,00,
4296030692,000001DC,false,Rx,1,8,6E,04,D4,F1,E1,0C,E1,15,
4296030913,0000055B,false,Rx,1,8,6C,C0,AA,00,D9,40,10,89,
4296031145,000005BC,false,Rx,1,8,13,40,64,50,90,01,62,B2,
4296031316,00000120,false,Rx,1,4,00,00,09,36,00,00,00,00,
4296031548,000001DA,false,Rx,1,8,B9,32,58,00,00,01,01,46,
4296031790,0000011A,false,Rx,1,8,4E,40,00,AA,80,00,03,A6,
4296032022,000001D4,false,Rx,1,8,F7,07,00,00,C7,44,30,BC,
4296032255,000001F2,false,Rx,1,8,30,64,20,AC,00,3C,03,8F,
4296032486,0000050B,false,Rx,1,7,00,00,06,C0,00,00,00,00,
4296034452,000002B5,false,Rx,1,8,90,00,40,00,08,2C,00,F4,
4296034692,000002B6,false,Rx,1,8,91,64,87,81,F8,00,82,89,
4296040120,000001DB,false,Rx,1,8,FE,60,BA,0B,26,00,02,1C,
4296040348,000001DC,false,Rx,1,8,6E,04,D4,F1,E5,04,C6,02,
4296041234,000001DA,false,Rx,1,8,B9,32,58,00,00,01,02,4C,
4296041404,00000120,false,Rx,1,4,00,00,0A,3C,00,00,00,00,
4296041791,0000011A,false,Rx,1,8,4E,40,00,AA,C0,00,00,6B,
4296042023,000001D4,false,Rx,1,8,F7,07,00,00,07,44,30,70,
4296042260,000001F2,false,Rx,1,8,30,64,20,AC,00,3C,00,8F,
4296042492,0000050B,false,Rx,1,7,00,00,06,C0,00,00,00,00,
4296042798,00000390,false,Rx,1,8,24,00,01,02,00,00,00,27,
4296047775,00000393,false,Rx,1,8,00,51,00,00,00,00,00,27,
4296050115,000001DB,false,Rx,1,8,FE,60,BA,0B,26,00,03,99,
4296050343,000001DC,false,Rx,1,8,6E,04,D4,F1,E8,C0,C3,B9,
4296051239,000001DA,false,Rx,1,8,B9,72,58,00,00,01,03,6B,
4296051410,00000120,false,Rx,1,4,00,00,0B,B9,00,00,00,00,
4296051798,0000011A,false,Rx,1,8,4E,40,00,55,00,00,01,7D,
4296052030,000001D4,false,Rx,1,8,F7,07,00,00,47,44,30,B7,
4296052267,000001F2,false,Rx,1,8,30,64,20,AC,00,3C,01,8F,
4296052488,0000050B,false,Rx,1,7,00,00,06,C0,00,00,00,00,
4296060111,000001DB,false,Rx,1,8,FE,60,BA,0B,26,00,00,93,
4296060339,000001DC,false,Rx,1,8,6E,04,D4,F1,EC,DC,C8,50,
4296061235,000001DA,false,Rx,1,8,B9,72,58,00,00,01,00,61,
4296061406,00000120,false,Rx,1,4,00,00,0C,28,00,00,00,00,
4296061793,0000011A,false,Rx,1,8,4E,40,00,55,40,00,02,B0,
4296062026,000001D4,false,Rx,1,8,F7,07,00,00,87,44,30,7B,
4296062273,000001F2,false,Rx,1,8,30,64,20,AC,00,3C,02,8F,
4296062494,0000050B,false,Rx,1,7,00,00,06,C0,00,00,00,00,
4296070107,000001DB,false,Rx,1,8,FE,60,BA,0B,26,00,01,16,
4296070335,000001DC,false,Rx,1,8,6E,04,D4,F1,E1,0C,E1,15,
4296071232,000001DA,false,Rx,1,8,B9,32,58,00,00,01,01,46,
4296071402,00000120,false,Rx,1,4,00,00,0D,AD,00,00,00,00,
4296071789,0000011A,false,Rx,1,8,4E,40,00,AA,80,00,03,A6,
4296072022,000001D4,false,Rx,1,8,F7,07,00,00,C7,44,30,BC,
4296072258,000001F2,false,Rx,1,8,30,64,20,AC,00,3C,03,8F,
4296072479,0000050B,false,Rx,1,7,00,00,06,C0,00,00,00,00,
4296080113,000001DB,false,Rx,1,8,FE,60,BA,0B,26,00,02,1C,
4296080341,000001DC,false,Rx,1,8,6E,04,D4,F1,E5,04,C6,02,
4296081239,000001DA,false,Rx,1,8,B9,32,58,00,00,01,02,4C,
4296081409,00000120,false,Rx,1,4,00,00,0E,A7,00,00,00,00,
4296081787,0000011A,false,Rx,1,8,4E,40,00,AA,C0,00,00,6B,
4296082020,000001D4,false,Rx,1,8,F7,07,00,00,07,44,30,70,
4296082266,000001F2,false,Rx,1,8,30,64,20,AC,00,3C,00,8F,
4296082487,0000050B,false,Rx,1,7,00,00,06,C0,00,00,00,00,
4296090111,000001DB,false,Rx,1,8,FE,60,BA,0B,26,00,03,99,
4296090339,000001DC,false,Rx,1,8,6E,04,D4,F1,E8,C0,C3,B9,
4296091236,000001DA,false,Rx,1,8,B9,72,58,00,00,01,03,6B,
4296091406,00000120,false,Rx,1,4,00,00,0F,22,00,00,00,00,
4296091793,0000011A,false,Rx,1,8,4E,40,00,55,00,00,01,7D,
4296092026,000001D4,false,Rx,1,8,F7,07,00,00,47,44,30,B7,
4296092261,000001F2,false,Rx,1,8,30,64,20,AC,00,3C,01,8F,
4296092483,0000050B,false,Rx,1,7,00,00,06,C0,00,00,00,00,
4296100107,000001DB,false,Rx,1,8,FE,40,BA,0B,26,00,00,C2,
4296100335,000001DC,false,Rx,1,8,6E,04,D4,F1,EC,DC,C8,50,
4296101243,000001DA,false,Rx,1,8,B9,72,58,00,00,01,00,61,
4296101413,00000120,false,Rx,1,4,00,00,00,00,00,00,00,00,
4296101789,0000011A,false,Rx,1,8,4E,40,00,55,40,00,02,B0,
4296102033,000001D4,false,Rx,1,8,F7,07,00,00,87,44,30,7B,
4296102269,000001F2,false,Rx,1,8,30,64,20,AC,00,3C,02,8F,
4296102490,0000050B,false,Rx,1,7,00,00,06,C0,00,00,00,00,
4296110105,000001DB,false,Rx,1,8,FE,40,BA,0B,26,00,01,47,
4296110333,000001DC,false,Rx,1,8,6E,04,D4,F1,E1,0C,E1,15,
4296111241,000001DA,false,Rx,1,8,B9,32,58,00,00,01,01,46,
4296111411,00000120,false,Rx,1,4,00,00,01,85,00,00,00,00,
4296111642,0000055A,false,Rx,1,8,14,36,37,35,55,00,5B,48,
4296111874,0000011A,false,Rx,1,8,4E,40,00,AA,80,00,03,A6,
4296112107,000001D4,false,Rx,1,8,F7,07,00,00,C7,44,30,BC,
4296112345,000001F2,false,Rx,1,8,30,64,20,AC,00,3C,03,8F,
4296112567,0000050B,false,Rx,1,7,00,00,06,C0,00,00,00,00,
4296116327,0000055B,false,Rx,1,8,A4,40,AA,00,DF,C0,11,10,
4296116567,0000059E,false,Rx,1,8,00,00,0C,76,18,00,00,00,
4296116810,000005BC,false,Rx,1,8,3D,80,F0,64,B0,01,00,32,
4296120111,000001DB,false,Rx,1,8,FE,40,BA,0B,26,00,02,4D,
4296120343,000001DC,false,Rx,1,8,6E,04,D4,F1,E5,04,C6,02,
4296121239,000001DA,false,Rx,1,8,B9,32,58,00,00,01,02,4C,
4296121409,00000120,false,Rx,1,4,00,00,02,8F,00,00,00,00,
4296121785,0000011A,false,Rx,1,8,4E,40,00,AA,C0,00,00,6B,
4296122018,000001D4,false,Rx,1,8,F7,07,00,00,07,44,30,70,
4296122260,000001F2,false,Rx,1,8,30,64,20,AC,00,3C,00,8F,
4296122486,0000050B,false,Rx,1,7,00,00,06,C0,00,00,00,00,
4296130441,000001DB,false,Rx,1,8,FE,60,BA,0B,26,00,03,99,
4296130680,000001DC,false,Rx,1,8,6E,04,D4,F1,E8,C0,C3,B9,
4296130902,0000055B,false,Rx,1,8,6C,C0,AA,00,D9,40,11,0C,
4296131145,000005BC,false,Rx,1,8,13,40,64,50,90,02,40,5A,
4296131315,00000120,false,Rx,1,4,00,00,03,0A,00,00,00,00,
4296131547,000001DA,false,Rx,1,8,B9,72,58,00,00,01,03,6B,
4296131789,0000011A,false,Rx,1,8,4E,40,00,55,00,00,01,7D,
4296132022,000001D4,false,Rx,1,8,F7,07,00,00,47,44,30,B7,
4296132264,000001F2,false,Rx,1,8,30,64,20,AC,00,3C,01,8F,
4296132507,0000050B,false,Rx,1,7,00,00,06,C0,00,00,00,00,
4296134389,000002B5,false,Rx,1,8,A0,00,3F,00,07,A6,00,3E,
4296134620,000002B6,false,Rx,1,8,A1,64,87,81,F8,00,82,B9,
4296140342,000001DB,false,Rx,1,8,FE,60,BA,0B,26,00,00,93,
4296140572,000001DC,false,Rx,1,8,6E,04,D4,F1,EC,DC,C8,50,
4296140814,0000059E,false,Rx,1,8,00,00,0A,11,E8,00,00,00,
4296141056,000005C0,false,Rx,1,8,80,62,62,FF,72,C8,1F,00,
4296141216,00000120,false,Rx,1,4,00,00,04,9B,00,00,00,00,
4296141457,000001DA,false,Rx,1,8,B9,72,58,00,00,01,00,61,
4296141794,0000011A,false,Rx,1,8,4E,40,00,55,40,00,02,B0,
4296142027,000001D4,false,Rx,1,8,F7,07,00,00,87,44,30,7B,
4296142268,000001F2,false,Rx,1,8,30,64,20,AC,00,3C,02,8F,
4296142490,0000050B,false,Rx,1,7,00,00,06,C0,00,00,00,00,
4296142921,00000390,false,Rx,1,8,24,00,01,02,00,00,00,38,
4296147873,00000393,false,Rx,1,8,26,51,00,00,00,00,00,30,
4296150108,000001DB,false,Rx,1,8,FE,60,BA,0B,26,00,01,16,
4296150336,000001DC,false,Rx,1,8,6E,04,D4,F1,E1,0C,E1,15,
4296151234,000001DA,false,Rx,1,8,B9,32,58,00,00,01,01,46,
4296151404,00000120,false,Rx,1,4,00,00,05,1E,00,00,00,00,
4296151780,0000011A,false,Rx,1,8,4E,40,00,AA,80,00,03,A6,
4296152013,000001D4,false,Rx,1,8,F7,07,00,00,C7,44,30,BC,
4296152249,000001F2,false,Rx,1,8,30,64,20,AC,00,3C,03,8F,
4296152481,0000050B,false,Rx,1,7,00,00,06,C0,00,00,00,00,
1208111,000002A0,false,Tx,1,8,40,00,01,00,00,60,00,00,
4296160099,000001DB,false,Rx,1,8,FE,60,BA,0B,26,00,02,1C,
4296160339,000001DC,false,Rx,1,8,6E,04,D4,F1,E5,04,C6,02,
4296161235,000001DA,false,Rx,1,8,B9,32,58,00,00,01,02,4C,
4296161405,00000120,false,Rx,1,4,00,00,06,14,00,00,00,00,
4296161782,0000011A,false,Rx,1,8,4E,40,00,AA,C0,00,00,6B,
4296162025,000001D4,false,Rx,1,8,F7,07,00,00,07,44,30,70,
4296162261,000001F2,false,Rx,1,8,30,64,20,AC,00,3C,00,8F,
4296162493,0000050B,false,Rx,1,7,00,00,06,C0,00,00,00,00,
4296170097,000001DB,false,Rx,1,8,FE,60,BA,0B,26,00,03,99,
4296170326,000001DC,false,Rx,1,8,6E,04,D4,F1,E8,C0,C3,B9,
4296171233,000001DA,false,Rx,1,8,B9,72,58,00,00,01,03,6B,
4296171402,00000120,false,Rx,1,4,00,00,07,91,00,00,00,00,
4296171789,0000011A,false,Rx,1,8,4E,40,00,55,00,00,01,7D,
4296172022,000001D4,false,Rx,1,8,F7,07,00,00,47,44,30,B7,
4296172258,000001F2,false,Rx,1,8,30,64,20,AC,00,3C,01,8F,
4296172490,0000050B,false,Rx,1,7,00,00,06,C0,00,00,00,00,
4296180095,000001DB,false,Rx,1,8,FE,60,BA,0B,26,00,00,93,
4296180324,000001DC,false,Rx,1,8,6E,04,D4,F1,EC,DC,C8,50,
4296181251,000001DA,false,Rx,1,8,B9,72,58,00,00,01,00,61,
4296181421,00000120,false,Rx,1,4,00,00,08,B3,00,00,00,00,
4296181787,0000011A,false,Rx,1,8,4E,40,00,55,40,00,02,B0,
4296182031,000001D4,false,Rx,1,8,F7,07,00,00,87,44,30,7B,
4296182266,000001F2,false,Rx,1,8,30,64,20,AC,00,3C,02,8F,
4296182488,0000050B,false,Rx,1,7,00,00,06,C0,00,00,00,00,
4296190091,000001DB,false,Rx,1,8,FE,60,BA,0B,26,00,01,16,
4296190320,000001DC,false,Rx,1,8,6E,04,D4,F1,E1,0C,E1,15,
4296191227,000001DA,false,Rx,1,8,B9,32,58,00,00,01,01,46,
4296191397,00000120,false,Rx,1,4,00,00,09,36,00,00,00,00,
4296191784,0000011A,false,Rx,1,8,4E,40,00,AA,80,00,03,A6,
4296192017,000001D4,false,Rx,1,8,F7,07,00,00,C7,44,30,BC,
4296192253,000001F2,false,Rx,1,8,30,64,20,AC,00,3C,03,8F,
4296192474,0000050B,false,Rx,1,7,00,00,06,C0,00,00,00,00,
4296200098,000001DB,false,Rx,1,8,FE,60,BA,0B,26,00,02,1C,
4296200327,000001DC,false,Rx,1,8,6E,04,D4,F1,E5,04,C6,02,
4296201234,000001DA,false,Rx,1,8,B9,32,58,00,00,01,02,4C,
4296201404,00000120,false,Rx,1,4,00,00,0A,3C,00,00,00,00,
4296201781,0000011A,false,Rx,1,8,4E,40,00,AA,C0,00,00,6B,
4296202024,000001D4,false,Rx,1,8,F7,07,00,00,07,44,30,70,
4296202260,000001F2,false,Rx,1,8,30,64,20,AC,00,3C,00,8F,
4296202491,0000050B,false,Rx,1,7,00,00,06,C0,00,00,00,00,
4296210095,000001DB,false,Rx,1,8,FE,60,BA,0B,26,00,03,99,
4296210323,000001DC,false,Rx,1,8,6E,04,D4,F1,E8,C0,C3,B9,
4296211240,000001DA,false,Rx,1,8,B9,72,58,00,00,01,03,6B,
4296211410,00000120,false,Rx,1,4,00,00,0B,B9,00,00,00,00,
4296211632,0000055A,false,Rx,1,8,19,36,37,35,55,00,5B,48,
4296211875,0000011A,false,Rx,1,8,4E,40,00,55,00,00,01,7D,
4296212107,000001D4,false,Rx,1,8,F7,07,00,00,47,44,30,B7,
4296212345,000001F2,false,Rx,1,8,30,64,20,AC,00,3C,01,8F,
4296212569,0000050B,false,Rx,1,7,00,00,06,C0,00,00,00,00,
4296216328,0000055B,false,Rx,1,8,A4,40,AA,00,DF,C0,12,1A,
4296216568,0000059E,false,Rx,1,8,00,00,0C,76,18,00,00,00,
4296216810,000005BC,false,Rx,1,8,3D,80,F0,64,B0,01,00,32,
4296220091,000001DB,false,Rx,1,8,FE,60,BA,0B,26,00,00,93,
4296220324,000001DC,false,Rx,1,8,6E,04,D4,F1,EC,DC,C8,50,
4296221229,000001DA,false,Rx,1,8,B9,72,58,00,00,01,00,61,
4296221399,00000120,false,Rx,1,4,00,00,0C,28,00,00,00,00,
4296221787,0000011A,false,Rx,1,8,4E,40,00,55,40,00,02,B0,
4296222029,000001D4,false,Rx,1,8,F7,07,00,00,87,44,30,7B,
4296222261,000001F2,false,Rx,1,8,30,64,20,AC,00,3C,02,8F,
4296222486,0000050B,false,Rx,1,7,00,00,06,C0,00,00,00,00,
4296230431,000001DB,false,Rx,1,8,FE,60,BA,0B,26,00,01,16,
4296230659,000001DC,false,Rx,1,8,6E,04,D4,F1,E1,0C,E1,15,
4296230891,0000055B,false,Rx,1,8,6C,C0,AA,00,D8,C0,12,42,
4296231124,000005BC,false,Rx,1,8,13,40,B5,50,91,02,A0,96,
4296231293,00000120,false,Rx,1,4,00,00,0D,AD,00,00,00,00,
4296231525,000001DA,false,Rx,1,8,B9,32,58,00,00,01,01,46,
4296231789,0000011A,false,Rx,1,8,4E,40,00,AA,80,00,03,A6,
4296232021,000001D4,false,Rx,1,8,F7,07,00,00,C7,44,30,BC,
4296232253,000001F2,false,Rx,1,8,30,64,20,AC,00,3C,03,8F,
4296232495,0000050B,false,Rx,1,7,00,00,06,C0,00,00,00,00,
4296234378,000002B5,false,Rx,1,8,B0,00,3E,C0,07,7A,00,33,
4296234609,000002B6,false,Rx,1,8,B1,64,87,81,F8,00,82,A9,
4296240090,000001DB,false,Rx,1,8,FE,60,BA,0B,26,00,02,1C,
4296240329,000001DC,false,Rx,1,8,6E,04,D4,F1,E5,04,C6,02,
4296241236,000001DA,false,Rx,1,8,B9,32,58,00,00,01,02,4C,
4296241406,00000120,false,Rx,1,4,00,00,0E,A7,00,00,00,00,
4296241784,0000011A,false,Rx,1,8,4E,40,00,AA,C0,00,00,6B,
4296242015,000001D4,false,Rx,1,8,F7,07,00,00,07,44,30,70,
4296242261,000001F2,false,Rx,1,8,30,64,20,AC,00,3C,00,8F,
4296242483,0000050B,false,Rx,1,7,00,00,06,C0,00,00,00,00,
4296243027,00000390,false,Rx,1,8,24,00,01,02,00,00,00,05,
4296247977,00000393,false,Rx,1,8,00,51,00,00,00,00,00,05,
4296250083,000001DB,false,Rx,1,8,FE,60,BA,0B,26,00,03,99,
4296250312,000001DC,false,Rx,1,8,6E,04,D4,F1,E8,C0,C3,B9,
4296251230,000001DA,false,Rx,1,8,B9,72,58,00,00,01,03,6B,
4296251399,00000120,false,Rx,1,4,00,00,0F,22,00,00,00,00,
4296251787,0000011A,false,Rx,1,8,4E,40,00,55,00,00,01,7D,
4296252019,000001D4,false,Rx,1,8,F7,07,00,00,47,44,30,B7,
1304647,000002A0,false,Tx,1,8,80,00,01,00,00,60,00,00,
4296252255,000001F2,false,Rx,1,8,30,64,20,AC,00,3C,01,8F,
4296252488,0000050B,false,Rx,1,7,00,00,06,C0,00,00,00,00,
4296260087,000001DB,false,Rx,1,8,FE,60,BA,0B,26,00,00,93,
4296260316,000001DC,false,Rx,1,8,6E,04,D4,F1,EC,DC,C8,50,
4296261233,000001DA,false,Rx,1,8,B9,72,58,00,00,01,00,61,
4296261413,00000120,false,Rx,1,4,00,00,00,00,00,00,00,00,
4296261791,0000011A,false,Rx,1,8,4E,40,00,55,40,00,02,B0,
4296262022,000001D4,false,Rx,1,8,F7,07,00,00,87,44,30,7B,
4296262268,000001F2,false,Rx,1,8,30,64,20,AC,00,3C,02,8F,
4296262491,0000050B,false,Rx,1,7,00,00,06,C0,00,00,00,00,
4296270084,000001DB,false,Rx,1,8,FE,60,BA,0B,26,00,01,16,
4296270313,000001DC,false,Rx,1,8,6E,04,D4,F1,E1,0C,E1,15,
4296271231,000001DA,false,Rx,1,8,B9,32,58,00,00,01,01,46,
4296271400,00000120,false,Rx,1,4,00,00,01,85,00,00,00,00,
4296271778,0000011A,false,Rx,1,8,4E,40,00,AA,80,00,03,A6,
4296272010,000001D4,false,Rx,1,8,F7,07,00,00,C7,44,30,BC,
4296272246,000001F2,false,Rx,1,8,30,64,20,AC,00,3C,03,8F,
4296272479,0000050B,false,Rx,1,7,00,00,06,C0,00,00,00,00,
4296280091,000001DB,false,Rx,1,8,FE,60,BA,0B,26,00,02,1C,
4296280320,000001DC,false,Rx,1,8,6E,04,D4,F1,E5,04,C6,02,
4296281237,000001DA,false,Rx,1,8,B9,32,58,00,00,01,02,4C,
4296281417,00000120,false,Rx,1,4,00,00,02,8F,00,00,00,00,
4296281785,0000011A,false,Rx,1,8,4E,40,00,AA,C0,00,00,6B,
4296282017,000001D4,false,Rx,1,8,F7,07,00,00,07,44,30,70,
4296282263,000001F2,false,Rx,1,8,30,64,20,AC,00,3C,00,8F,
4296282485,0000050B,false,Rx,1,7,00,00,06,C0,00,00,00,00,
4296290087,000001DB,false,Rx,1,8,FE,60,BA,0B,26,00,03,99,
4296290316,000001DC,false,Rx,1,8,6E,04,D4,F1,E8,C0,C3,B9,
4296291233,000001DA,false,Rx,1,8,B9,72,58,00,00,01,03,6B,
4296291403,00000120,false,Rx,1,4,00,00,03,0A,00,00,00,00,
4296291791,0000011A,false,Rx,1,8,4E,40,00,55,00,00,01,7D,
4296292023,000001D4,false,Rx,1,8,F7,07,00,00,47,44,30,B7,
4296292259,000001F2,false,Rx,1,8,30,64,20,AC,00,3C,01,8F,
4296292482,0000050B,false,Rx,1,7,00,00,06,C0,00,00,00,00,
4296300084,000001DB,false,Rx,1,8,FE,60,BA,0B,26,00,00,93,
4296300313,000001DC,false,Rx,1,8,6E,04,D4,F1,EC,DC,C8,50,
4296301240,000001DA,false,Rx,1,8,B9,72,58,00,00,01,00,61,
4296301410,00000120,false,Rx,1,4,00,00,04,9B,00,00,00,00,
4296301789,0000011A,false,Rx,1,8,4E,40,00,55,40,00,02,B0,
4296302021,000001D4,false,Rx,1,8,F7,07,00,00,87,44,30,7B,
4296302267,000001F2,false,Rx,1,8,30,64,20,AC,00,3C,02,8F,
4296302489,0000050B,false,Rx,1,7,00,00,06,C0,00,00,00,00,
4296310083,000001DB,false,Rx,1,8,FE,60,BA,0B,26,00,01,16,
4296310310,000001DC,false,Rx,1,8,6E,04,D4,F1,E1,0C,E1,15,
4296311238,000001DA,false,Rx,1,8,B9,32,58,00,00,01,01,46,
4296311408,00000120,false,Rx,1,4,00,00,05,1E,00,00,00,00,
4296311641,0000055A,false,Rx,1,8,1A,36,37,35,55,00,5B,48,
4296311872,0000011A,false,Rx,1,8,4E,40,00,AA,80,00,03,A6,
4296312104,000001D4,false,Rx,1,8,F7,07,00,00,C7,44,30,BC,
4296312342,000001F2,false,Rx,1,8,30,64,20,AC,00,3C,03,8F,
4296312566,0000050B,false,Rx,1,7,00,00,06,C0,00,00,00,00,
4296316326,0000055B,false,Rx,1,8,A4,40,AA,00,DF,C0,13,9F,
4296316565,0000059E,false,Rx,1,8,00,00,0C,76,18,00,00,00,
4296316807,000005BC,false,Rx,1,8,3D,80,F0,64,B0,01,00,32,
4296320081,000001DB,false,Rx,1,8,FE,60,BA,0B,26,00,02,1C,
4296320313,000001DC,false,Rx,1,8,6E,04,D4,F1,E5,04,C6,02,
4296321229,000001DA,false,Rx,1,8,B9,32,58,00,00,01,02,4C,
4296321398,00000120,false,Rx,1,4,00,00,06,14,00,00,00,00,
4296321776,0000011A,false,Rx,1,8,4E,40,00,AA,C0,00,00,6B,
4296322018,000001D4,false,Rx,1,8,F7,07,00,00,07,44,30,70,
4296322260,000001F2,false,Rx,1,8,30,64,20,AC,00,3C,00,8F,
4296322487,0000050B,false,Rx,1,7,00,00,06,C0,00,00,00,00,
4296330421,000001DB,false,Rx,1,8,FE,60,BA,0B,26,00,03,99,
1384089,000002A0,false,Tx,1,8,00,01,01,00,00,60,00,00,
4296330650,000001DC,false,Rx,1,8,6E,04,D4,F1,E8,C0,C3,B9,
4296330883,0000055B,false,Rx,1,8,6C,C0,AA,00,D8,C0,13,C7,
4296331114,000005BC,false,Rx,1,8,13,40,B5,50,91,03,01,C2,
4296331284,00000120,false,Rx,1,4,00,00,07,91,00,00,00,00,
4296331516,000001DA,false,Rx,1,8,B9,72,58,00,00,01,03,6B,
4296331790,0000011A,false,Rx,1,8,4E,40,00,55,00,00,01,7D,
4296332044,000001D4,false,Rx,1,8,F7,07,00,00,47,44,30,B7,
4296332254,000001F2,false,Rx,1,8,30,64,20,AC,00,3C,01,8F,
4296332488,0000050B,false,Rx,1,7,00,00,06,C0,00,00,00,00,
4296334439,000002B5,false,Rx,1,8,C0,00,3E,40,07,21,00,98,
4296334682,000002B6,false,Rx,1,8,C1,64,87,81,F8,00,82,D9,
4296340079,000001DB,false,Rx,1,8,FE,60,BA,0B,26,00,00,93,
4296340307,000001DC,false,Rx,1,8,6E,04,D4,F1,EC,DC,C8,50,
4296341234,000001DA,false,Rx,1,8,B9,72,58,00,00,01,00,61,
4296341404,00000120,false,Rx,1,4,00,00,08,B3,00,00,00,00,
4296341782,0000011A,false,Rx,1,8,4E,40,00,55,40,00,02,B0,
4296342024,000001D4,false,Rx,1,8,F7,07,00,00,87,44,30,7B,
4296342260,000001F2,false,Rx,1,8,30,64,20,AC,00,3C,02,8F,
4296342493,0000050B,false,Rx,1,7,00,00,06,C0,00,00,00,00,
4296343120,00000390,false,Rx,1,8,24,00,01,02,00,00,00,16,
4296348071,00000393,false,Rx,1,8,26,51,00,00,00,00,00,1E,
4296350074,000001DB,false,Rx,1,8,FE,60,BA,0B,26,00,01,16,
4296350302,000001DC,false,Rx,1,8,6E,04,D4,F1,E1,0C,E1,15,
4296351229,000001DA,false,Rx,1,8,B9,32,58,00,00,01,01,46,
4296351399,00000120,false,Rx,1,4,00,00,09,36,00,00,00,00,
4296351777,0000011A,false,Rx,1,8,4E,40,00,AA,80,00,03,A6,
4296352009,000001D4,false,Rx,1,8,F7,07,00,00,C7,44,30,BC,
4296352244,000001F2,false,Rx,1,8,30,64,20,AC,00,3C,03,8F,
4296352477,0000050B,false,Rx,1,7,00,00,06,C0,00,00,00,00,
4296360080,000001DB,false,Rx,1,8,FE,60,BA,0B,26,00,02,1C,
4296360308,000001DC,false,Rx,1,8,6E,04,D4,F1,E5,04,C6,02,
4296361225,000001DA,false,Rx,1,8,B9,32,58,00,00,01,02,4C,
4296361395,00000120,false,Rx,1,4,00,00,0A,3C,00,00,00,00,
4296361774,0000011A,false,Rx,1,8,4E,40,00,AA,C0,00,00,6B,
4296362016,000001D4,false,Rx,1,8,F7,07,00,00,07,44,30,70,
4296362251,000001F2,false,Rx,1,8,30,64,20,AC,00,3C,00,8F,
4296362484,0000050B,false,Rx,1,7,00,00,06,C0,00,00,00,00,
4296370078,000001DB,false,Rx,1,8,FE,60,BA,0B,26,00,03,99,
4296370305,000001DC,false,Rx,1,8,6E,04,D4,F1,E8,C0,C3,B9,
4296371234,000001DA,false,Rx,1,8,B9,72,58,00,00,01,03,6B,
4296371393,00000120,false,Rx,1,4,00,00,0B,B9,00,00,00,00,
4296371781,0000011A,false,Rx,1,8,4E,40,00,55,00,00,01,7D,
4296372013,000001D4,false,Rx,1,8,F7,07,00,00,47,44,30,B7,
4296372249,000001F2,false,Rx,1,8,30,64,20,AC,00,3C,01,8F,
4296372482,0000050B,false,Rx,1,7,00,00,06,C0,00,00,00,00,
4296380066,000001DB,false,Rx,1,8,FE,60,BA,0B,26,00,00,93,
4296380294,000001DC,false,Rx,1,8,6E,04,D4,F1,EC,DC,C8,50,
4296381242,000001DA,false,Rx,1,8,B9,72,58,00,00,01,00,61,
4296381412,00000120,false,Rx,1,4,00,00,0C,28,00,00,00,00,
4296381779,0000011A,false,Rx,1,8,4E,40,00,55,40,00,02,B0,
4296382021,000001D4,false,Rx,1,8,F7,07,00,00,87,44,30,7B,
4296382257,000001F2,false,Rx,1,8,30,64,20,AC,00,3C,02,8F,
4296382490,0000050B,false,Rx,1,7,00,00,06,C0,00,00,00,00,
4296390073,000001DB,false,Rx,1,8,FE,60,BA,0B,26,00,01,16,
4296390300,000001DC,false,Rx,1,8,6E,04,D4,F1,E1,0C,E1,15,
4296391229,000001DA,false,Rx,1,8,B9,32,58,00,00,01,01,46,
4296391398,00000120,false,Rx,1,4,00,00,0D,AD,00,00,00,00,
4296391777,0000011A,false,Rx,1,8,4E,40,00,AA,80,00,03,A6,
4296392009,000001D4,false,Rx,1,8,F7,07,00,00,C7,44,30,BC,
4296392245,000001F2,false,Rx,1,8,30,64,20,AC,00,3C,03,8F,
4296392467,0000050B,false,Rx,1,7,00,00,06,C0,00,00,00,00,
4296400072,000001DB,false,Rx,1,8,FE,60,BA,0B,26,00,02,1C,
4296400300,000001DC,false,Rx,1,8,6E,04,D4,F1,E5,04,C6,02,
4296401237,000001DA,false,Rx,1,8,B9,32,58,00,00,01,02,4C,
4296401407,00000120,false,Rx,1,4,00,00,0E,A7,00,00,00,00,
4296401775,0000011A,false,Rx,1,8,4E,40,00,AA,C0,00,00,6B,
4296402017,000001D4,false,Rx,1,8,F7,07,00,00,07,44,30,70,
4296402254,000001F2,false,Rx,1,8,30,64,20,AC,00,3C,00,8F,
4296402485,0000050B,false,Rx,1,7,00,00,06,C0,00,00,00,00,
4296410068,000001DB,false,Rx,1,8,FE,60,BA,0B,26,00,03,99,
4296410295,000001DC,false,Rx,1,8,6E,04,D4,F1,E8,C0,C3,B9,
4296411234,000001DA,false,Rx,1,8,B9,72,58,00,00,01,03,6B,
4296411403,00000120,false,Rx,1,4,00,00,0F,22,00,00,00,00,
4296411636,0000055A,false,Rx,1,8,1F,36,37,35,55,00,5B,48,
4296411878,0000011A,false,Rx,1,8,4E,40,00,55,00,00,01,7D,
4296412124,000001D4,false,Rx,1,8,F7,07,00,00,47,44,30,B7,
4296412347,000001F2,false,Rx,1,8,30,64,20,AC,00,3C,01,8F,
4296412570,0000050B,false,Rx,1,7,00,00,06,C0,00,00,00,00,
4296416322,0000055B,false,Rx,1,8,A4,40,AA,00,DF,C0,10,95,
4296416562,0000059E,false,Rx,1,8,00,00,0C,76,18,00,00,00,
4296416804,000005BC,false,Rx,1,8,3D,80,F0,64,B0,01,00,32,
4296420065,000001DB,false,Rx,1,8,FE,60,BA,0B,26,00,00,93,
4296420297,000001DC,false,Rx,1,8,6E,04,D4,F1,EC,DC,C8,50,
4296421233,000001DA,false,Rx,1,8,B9,72,58,00,00,01,00,61,
4296421412,00000120,false,Rx,1,4,00,00,00,00,00,00,00,00,
4296421780,0000011A,false,Rx,1,8,4E,40,00,55,40,00,02,B0,
4296422022,000001D4,false,Rx,1,8,F7,07,00,00,87,44,30,7B,
4296422255,000001F2,false,Rx,1,8,30,64,20,AC,00,3C,02,8F,
4296422481,0000050B,false,Rx,1,7,00,00,06,C0,00,00,00,00,
4296430413,000001DB,false,Rx,1,8,FE,60,BA,0A,26,00,01,00,
4296430643,000001DC,false,Rx,1,8,6E,04,D4,F1,E1,0C,E1,15,
4296430876,0000055B,false,Rx,1,8,6C,C0,AA,00,D9,00,10,14,
4296431118,000005BC,false,Rx,1,8,13,40,B5,50,91,00,1F,FF,
4296431287,00000120,false,Rx,1,4,00,00,01,85,00,00,00,00,
4296431520,000001DA,false,Rx,1,8,B9,32,58,00,00,01,01,46,
4296431772,0000011A,false,Rx,1,8,4E,40,00,AA,80,00,03,A6,
4296432004,000001D4,false,Rx,1,8,F7,07,00,00,C7,44,30,BC,
4296432247,000001F2,false,Rx,1,8,30,64,20,AC,00,3C,03,8F,
4296432479,0000050B,false,Rx,1,7,00,00,06,C0,00,00,00,00,
4296434382,000002B5,false,Rx,1,8,D0,00,3E,00,06,F4,00,1C,
4296434614,000002B6,false,Rx,1,8,D1,64,87,81,F8,00,82,C9,
4296440073,000001DB,false,Rx,1,8,FE,60,BA,0A,26,00,02,0A,
4296440301,000001DC,false,Rx,1,8,6E,04,D4,F1,E5,04,C6,02,
4296441229,000001DA,false,Rx,1,8,B9,32,58,00,00,01,02,4C,
4296441398,00000120,false,Rx,1,4,00,00,02,8F,00,00,00,00,
4296441777,0000011A,false,Rx,1,8,4E,40,00,AA,C0,00,00,6B,
4296442019,000001D4,false,Rx,1,8,F7,07,00,00,07,44,30,70,
4296442256,000001F2,false,Rx,1,8,30,64,20,AC,00,3C,00,8F,
4296442478,0000050B,false,Rx,1,7,00,00,06,C0,00,00,00,00,
4296443219,00000390,false,Rx,1,8,24,00,01,02,00,00,00,27,
4296448181,00000393,false,Rx,1,8,00,51,00,00,00,00,00,27,
1500425,000002A0,false,Tx,1,8,00,02,01,00,00,60,00,00,
4296450068,000001DB,false,Rx,1,8,FE,60,BA,0A,26,00,03,8F,
4296450296,000001DC,false,Rx,1,8,6E,04,D4,F1,E8,C0,C3,B9,
4296451233,000001DA,false,Rx,1,8,B9,72,58,00,00,01,03,6B,
4296451404,00000120,false,Rx,1,4,00,00,03,0A,00,00,00,00,
4296451781,0000011A,false,Rx,1,8,4E,40,00,55,00,00,01,7D,
4296452013,000001D4,false,Rx,1,8,F7,07,00,00,47,44,30,B7,
4296452250,000001F2,false,Rx,1,8,30,64,20,AC,00,3C,01,8F,
4296452481,0000050B,false,Rx,1,7,00,00,06,C0,00,00,00,00,
4296460062,000001DB,false,Rx,1,8,FE,60,BA,0A,26,00,00,85,
4296460290,000001DC,false,Rx,1,8,6E,04,D4,F1,EC,DC,C8,50,
4296461227,000001DA,false,Rx,1,8,B9,72,58,00,00,01,00,61,
4296461398,00000120,false,Rx,1,4,00,00,04,9B,00,00,00,00,
4296461785,0000011A,false,Rx,1,8,4E,40,00,55,40,00,02,B0,
4296462017,000001D4,false,Rx,1,8,F7,07,00,00,87,44,30,7B,
4296462254,000001F2,false,Rx,1,8,30,64,20,AC,00,3C,02,8F,
4296462485,0000050B,false,Rx,1,7,00,00,06,C0,00,00,00,00,
4296470067,000001DB,false,Rx,1,8,FE,60,BA,0A,26,00,01,00,
4296470295,000001DC,false,Rx,1,8,6E,04,D4,F1,E1,0C,E1,15,
4296471224,000001DA,false,Rx,1,8,B9,32,58,00,00,01,01,46,
4296471394,00000120,false,Rx,1,4,00,00,05,1E,00,00,00,00,
4296471771,0000011A,false,Rx,1,8,4E,40,00,AA,80,00,03,A6,
4296472003,000001D4,false,Rx,1,8,F7,07,00,00,C7,44,30,BC,
4296472240,000001F2,false,Rx,1,8,30,64,20,AC,00,3C,03,8F,
4296472472,0000050B,false,Rx,1,7,00,00,06,C0,00,00,00,00,
4296480065,000001DB,false,Rx,1,8,FE,60,BA,0A,26,00,02,0A,
4296480293,000001DC,false,Rx,1,8,6E,04,D4,F1,E5,04,C6,02,
4296481241,000001DA,false,Rx,1,8,B9,32,58,00,00,01,02,4C,
4296481401,00000120,false,Rx,1,4,00,00,06,14,00,00,00,00,
4296481778,0000011A,false,Rx,1,8,4E,40,00,AA,C0,00,00,6B,
4296482010,000001D4,false,Rx,1,8,F7,07,00,00,07,44,30,70,
4296482257,000001F2,false,Rx,1,8,30,64,20,AC,00,3C,00,8F,
4296482478,0000050B,false,Rx,1,7,00,00,06,C0,00,00,00,00,
4296490061,000001DB,false,Rx,1,8,FE,60,BA,0A,26,00,03,8F,
4296490288,000001DC,false,Rx,1,8,6E,04,D4,F1,E8,C0,C3,B9,
4296491226,000001DA,false,Rx,1,8,B9,72,58,00,00,01,03,6B,
4296491397,00000120,false,Rx,1,4,00,00,07,91,00,00,00,00,
4296491784,0000011A,false,Rx,1,8,4E,40,00,55,00,00,01,7D,
4296492016,000001D4,false,Rx,1,8,F7,07,00,00,47,44,30,B7,
4296492253,000001F2,false,Rx,1,8,30,64,20,AC,00,3C,01,8F,
4296492474,0000050B,false,Rx,1,7,00,00,06,C0,00,00,00,00,
4296500057,000001DB,false,Rx,1,8,FE,60,BA,0A,26,00,00,85,
4296500285,000001DC,false,Rx,1,8,6E,04,D4,F1,EC,DC,C8,50,
4296501234,000001DA,false,Rx,1,8,B9,72,58,00,00,01,00,61,
4296501405,00000120,false,Rx,1,4,00,00,08,B3,00,00,00,00,
4296501781,0000011A,false,Rx,1,8,4E,40,00,55,40,00,02,B0,
4296502023,000001D4,false,Rx,1,8,F7,07,00,00,87,44,30,7B,
4296502260,000001F2,false,Rx,1,8,30,64,20,AC,00,3C,02,8F,
4296502482,0000050B,false,Rx,1,7,00,00,06,C0,00,00,00,00,
4296510066,000001DB,false,Rx,1,8,FE,60,BA,0A,26,00,01,00,
4296510294,000001DC,false,Rx,1,8,6E,04,D4,F1,E1,0C,E1,15,
4296511232,000001DA,false,Rx,1,8,B9,32,58,00,00,01,01,46,
4296511403,00000120,false,Rx,1,4,00,00,09,36,00,00,00,00,
4296511635,0000055A,false,Rx,1,8,14,36,37,35,55,00,5B,48,
4296511866,0000011A,false,Rx,1,8,4E,40,00,AA,80,00,03,A6,
4296512099,000001D4,false,Rx,1,8,F7,07,00,00,C7,44,30,BC,
4296512337,000001F2,false,Rx,1,8,30,64,20,AC,00,3C,03,8F,
4296512560,0000050B,false,Rx,1,7,00,00,06,C0,00,00,00,00,
4296516320,0000055B,false,Rx,1,8,A4,40,AA,00,DF,C0,11,10,
4296516560,0000059E,false,Rx,1,8,00,00,0C,76,18,00,00,00,
4296516803,000005BC,false,Rx,1,8,3D,80,F0,64,B0,01,00,32,
4296520054,000001DB,false,Rx,1,8,FE,60,BA,0A,26,00,02,0A,
4296520285,000001DC,false,Rx,1,8,6E,04,D4,F1,E5,04,C6,02,
4296521221,000001DA,false,Rx,1,8,B9,32,58,00,00,01,02,4C,
4296521392,00000120,false,Rx,1,4,00,00,0A,3C,00,00,00,00,
4296521779,0000011A,false,Rx,1,8,4E,40,00,AA,C0,00,00,6B,
4296522011,000001D4,false,Rx,1,8,F7,07,00,00,07,44,30,70,
4296522254,000001F2,false,Rx,1,8,30,64,20,AC,00,3C,00,8F,
4296522480,0000050B,false,Rx,1,7,00,00,06,C0,00,00,00,00,
4296530403,000001DB,false,Rx,1,8,FE,60,BA,0A,26,00,03,8F,
1583414,000002A0,false,Tx,1,8,00,04,01,00,00,60,00,00,
4296530633,000001DC,false,Rx,1,8,6E,04,D4,F1,E8,C0,C3,B9,
4296530864,0000055B,false,Rx,1,8,6C,C0,AA,00,D9,00,11,91,
4296531096,000005BC,false,Rx,1,8,13,40,B5,50,91,00,A0,B4,
4296531267,00000120,false,Rx,1,4,00,00,0B,B9,00,00,00,00,
4296531498,000001DA,false,Rx,1,8,B9,72,58,00,00,01,03,6B,
4296531782,0000011A,false,Rx,1,8,4E,40,00,55,00,00,01,7D,
4296532014,000001D4,false,Rx,1,8,F7,07,00,00,47,44,30,B7,
4296532249,000001F2,false,Rx,1,8,30,64,20,AC,00,3C,01,8F,
4296532724,0000050B,false,Rx,1,7,00,00,06,C0,00,00,00,00,
4296534450,000002B5,false,Rx,1,8,E0,00,3E,00,06,F4,00,2C,
4296534681,000002B6,false,Rx,1,8,E1,64,87,81,F8,00,82,F9,
4296540059,000001DB,false,Rx,1,8,FE,60,BA,0A,26,00,00,85,
4296540287,000001DC,false,Rx,1,8,6E,04,D4,F1,EC,DC,C8,50,
4296541224,000001DA,false,Rx,1,8,B9,72,58,00,00,01,00,61,
4296541395,00000120,false,Rx,1,4,00,00,0C,28,00,00,00,00,
4296541783,0000011A,false,Rx,1,8,4E,40,00,55,40,00,02,B0,
4296542014,000001D4,false,Rx,1,8,F7,07,00,00,87,44,30,7B,
4296542251,000001F2,false,Rx,1,8,30,64,20,AC,00,3C,02,8F,
4296542483,0000050B,false,Rx,1,7,00,00,06,C0,00,00,00,00,
4296543317,00000390,false,Rx,1,8,24,00,01,02,00,00,00,38,
4296548272,00000393,false,Rx,1,8,26,51,00,00,00,00,00,30,
4296550057,000001DB,false,Rx,1,8,FE,60,BA,0A,26,00,01,00,
4296550288,000001DC,false,Rx,1,8,6E,04,D4,F1,E1,0C,E1,15,
4296551224,000001DA,false,Rx,1,8,B9,32,58,00,00,01,01,46,
4296551395,00000120,false,Rx,1,4,00,00,0D,AD,00,00,00,00,
4296551772,0000011A,false,Rx,1,8,4E,40,00,AA,80,00,03,A6,
4296552005,000001D4,false,Rx,1,8,F7,07,00,00,C7,44,30,BC,
4296552237,000001F2,false,Rx,1,8,30,64,20,AC,00,3C,03,8F,
4296552463,0000050B,false,Rx,1,7,00,00,06,C0,00,00,00,00,
4296560050,000001DB,false,Rx,1,8,FE,60,BA,0A,26,00,02,0A,
4296560278,000001DC,false,Rx,1,8,6E,04,D4,F1,E5,04,C6,02,
4296561227,000001DA,false,Rx,1,8,B9,32,58,00,00,01,02,4C,
4296561397,00000120,false,Rx,1,4,00,00,0E,A7,00,00,00,00,
4296561773,0000011A,false,Rx,1,8,4E,40,00,AA,C0,00,00,6B,
4296562017,000001D4,false,Rx,1,8,F7,07,00,00,07,44,30,70,
4296562252,000001F2,false,Rx,1,8,30,64,20,AC,00,3C,00,8F,
4296562474,0000050B,false,Rx,1,7,00,00,06,C0,00,00,00,00,
4296570056,000001DB,false,Rx,1,8,FE,60,BA,0A,26,00,03,8F,
4296570284,000001DC,false,Rx,1,8,6E,04,D4,F1,E8,C0,C3,B9,
4296571234,000001DA,false,Rx,1,8,B9,72,58,00,00,01,03,6B,
4296571403,00000120,false,Rx,1,4,00,00,0F,22,00,00,00,00,
4296571780,0000011A,false,Rx,1,8,4E,40,00,55,00,00,01,7D,
4296572013,000001D4,false,Rx,1,8,F7,07,00,00,47,44,30,B7,
4296572249,000001F2,false,Rx,1,8,30,64,20,AC,00,3C,01,8F,
4296572470,0000050B,false,Rx,1,7,00,00,06,C0,00,00,00,00,
4296580042,000001DB,false,Rx,1,8,FE,60,BA,0A,26,00,00,85,
4296580270,000001DC,false,Rx,1,8,6E,04,D4,F1,EC,DC,C8,50,
4296581240,000001DA,false,Rx,1,8,B9,72,58,00,00,01,00,61,
4296581410,00000120,false,Rx,1,4,00,00,00,00,00,00,00,00,
4296581777,0000011A,false,Rx,1,8,4E,40,00,55,40,00,02,B0,
4296582020,000001D4,false,Rx,1,8,F7,07,00,00,87,44,30,7B,
4296582256,000001F2,false,Rx,1,8,30,64,20,AC,00,3C,02,8F,
4296582477,0000050B,false,Rx,1,7,00,00,06,C0,00,00,00,00,
4296590050,000001DB,false,Rx,1,8,FE,60,BA,0A,26,00,01,00,
4296590278,000001DC,false,Rx,1,8,6E,04,D4,F1,E1,0C,E1,15,
4296591227,000001DA,false,Rx,1,8,B9,32,58,00,00,01,01,46,
4296591397,00000120,false,Rx,1,4,00,00,01,85,00,00,00,00,
4296591773,0000011A,false,Rx,1,8,4E,40,00,AA,80,00,03,A6,
4296592006,000001D4,false,Rx,1,8,F7,07,00,00,C7,44,30,BC,
4296592242,000001F2,false,Rx,1,8,30,64,20,AC,00,3C,03,8F,
4296592463,0000050B,false,Rx,1,7,00,00,06,C0,00,00,00,00,
4296600046,000001DB,false,Rx,1,8,FE,60,BA,0A,26,00,02,0A,
4296600274,000001DC,false,Rx,1,8,6E,04,D4,F1,E5,04,C6,02,
4296601234,000001DA,false,Rx,1,8,B9,32,58,00,00,01,02,4C,
4296601403,00000120,false,Rx,1,4,00,00,02,8F,00,00,00,00,
4296601770,0000011A,false,Rx,1,8,4E,40,00,AA,C0,00,00,6B,
4296602013,000001D4,false,Rx,1,8,F7,07,00,00,07,44,30,70,
4296602249,000001F2,false,Rx,1,8,30,64,20,AC,00,3C,00,8F,
4296602480,0000050B,false,Rx,1,7,00,00,06,C0,00,00,00,00,
4296610043,000001DB,false,Rx,1,8,FE,60,BA,0A,26,00,03,8F,
4296610281,000001DC,false,Rx,1,8,6E,04,D4,F1,E8,C0,C3,B9,
4296611230,000001DA,false,Rx,1,8,B9,72,58,00,00,01,03,6B,
4296611400,00000120,false,Rx,1,4,00,00,03,0A,00,00,00,00,
4296611622,0000055A,false,Rx,1,8,19,36,37,35,55,00,5B,48,
4296611864,0000011A,false,Rx,1,8,4E,40,00,55,00,00,01,7D,
4296612101,000001D4,false,Rx,1,8,F7,07,00,00,47,44,30,B7,
4296612333,000001F2,false,Rx,1,8,30,64,20,AC,00,3C,01,8F,
4296612566,0000050B,false,Rx,1,7,00,00,06,C0,00,00,00,00,
4296616319,0000055B,false,Rx,1,8,A4,40,AA,00,DF,C0,12,1A,
4296616559,0000059E,false,Rx,1,8,00,00,0C,76,18,00,00,00,
4296616801,000005BC,false,Rx,1,8,3D,80,F0,64,B0,01,00,32,
4296620040,000001DB,false,Rx,1,8,FE,60,BA,0A,26,00,00,85,
4296620272,000001DC,false,Rx,1,8,6E,04,D4,F1,EC,DC,C8,50,
4296621230,000001DA,false,Rx,1,8,B9,72,58,00,00,01,00,61,
4296621399,00000120,false,Rx,1,4,00,00,04,9B,00,00,00,00,
4296621776,0000011A,false,Rx,1,8,4E,40,00,55,40,00,02,B0,
4296622019,000001D4,false,Rx,1,8,F7,07,00,00,87,44,30,7B,
4296622251,000001F2,false,Rx,1,8,30,64,20,AC,00,3C,02,8F,
4296622476,0000050B,false,Rx,1,7,00,00,06,C0,00,00,00,00,
4296630390,000001DB,false,Rx,1,8,FE,60,BA,0A,26,00,01,00,
4296630619,000001DC,false,Rx,1,8,6E,04,D4,F5,E1,0C,E1,4D,
4296630851,0000055B,false,Rx,1,8,6C,C0,AA,00,D9,00,12,9B,
4296631082,000005BC,false,Rx,1,8,13,40,B5,50,91,01,01,0E,
4296631253,00000120,false,Rx,1,4,00,00,05,1E,00,00,00,00,
4296631484,000001DA,false,Rx,1,8,B9,32,58,00,00,01,01,46,
4296631768,0000011A,false,Rx,1,8,4E,40,00,AA,80,00,03,A6,
4296632001,000001D4,false,Rx,1,8,F7,07,00,00,C7,44,30,BC,
4296632243,000001F2,false,Rx,1,8,30,64,20,AC,00,3C,03,8F,
4296632465,0000050B,false,Rx,1,7,00,00,06,C0,00,00,00,00,
4296634378,000002B5,false,Rx,1,8,F0,00,3D,40,06,9B,00,10,
4296634609,000002B6,false,Rx,1,8,F1,64,87,81,F8,00,82,E9,
4296640279,000001DB,false,Rx,1,8,FE,60,BA,0A,26,00,02,0A,
4296640509,000001DC,false,Rx,1,8,6E,04,D4,F5,E5,04,C6,5A,
4296640751,0000059E,false,Rx,1,8,00,00,0A,11,E8,00,00,00,
4296640993,000005C0,false,Rx,1,8,C0,60,62,FF,72,C8,1F,03,
4296641226,000001DA,false,Rx,1,8,B9,32,58,00,00,01,02,4C,
4296641396,00000120,false,Rx,1,4,00,00,06,14,00,00,00,00,
4296641772,0000011A,false,Rx,1,8,4E,40,00,AA,C0,00,00,6B,
4296642005,000001D4,false,Rx,1,8,F7,07,00,00,07,44,30,70,
4296642247,000001F2,false,Rx,1,8,30,64,20,AC,00,3C,00,8F,
4296642479,0000050B,false,Rx,1,7,00,00,06,C0,00,00,00,00,
4296643418,00000390,false,Rx,1,8,24,00,01,02,00,00,00,05,
4296648378,00000393,false,Rx,1,8,00,51,00,00,00,00,00,05,
4296650049,000001DB,false,Rx,1,8,FE,60,BA,0A,26,00,03,8F,
4296650281,000001DC,false,Rx,1,8,6E,04,D4,F5,E8,C0,C3,E1,
4296651229,000001DA,false,Rx,1,8,B9,72,58,00,00,01,03,6B,
4296651398,00000120,false,Rx,1,4,00,00,07,91,00,00,00,00,
4296651775,0000011A,false,Rx,1,8,4E,40,00,55,00,00,01,7D,
4296652008,000001D4,false,Rx,1,8,F7,07,00,00,47,44,30,B7,
4296652250,000001F2,false,Rx,1,8,30,64,20,AC,00,3C,01,8F,
4296652475,0000050B,false,Rx,1,7,00,00,06,C0,00,00,00,00,
1707563,000002A0,false,Tx,1,8,00,08,01,00,00,60,00,00,
4296660038,000001DB,false,Rx,1,8,FE,60,BA,0A,26,00,00,85,
4296660266,000001DC,false,Rx,1,8,6E,04,D4,F5,EC,DC,C8,08,
4296661225,000001DA,false,Rx,1,8,B9,72,58,00,00,01,00,61,
4296661395,00000120,false,Rx,1,4,00,00,08,B3,00,00,00,00,
4296661772,0000011A,false,Rx,1,8,4E,40,00,55,40,00,02,B0,
4296662016,000001D4,false,Rx,1,8,F7,07,00,00,87,44,30,7B,
4296662252,000001F2,false,Rx,1,8,30,64,20,AC,00,3C,02,8F,
4296662473,0000050B,false,Rx,1,7,00,00,06,C0,00,00,00,00,
4296670045,000001DB,false,Rx,1,8,FE,60,BA,0A,26,00,01,00,
4296670262,000001DC,false,Rx,1,8,6E,04,D4,F5,E1,0C,E1,4D,
4296671222,000001DA,false,Rx,1,8,B9,32,58,00,00,01,01,46,
4296671392,00000120,false,Rx,1,4,00,00,09,36,00,00,00,00,
4296671768,0000011A,false,Rx,1,8,4E,40,00,AA,80,00,03,A6,
4296672001,000001D4,false,Rx,1,8,F7,07,00,00,C7,44,30,BC,
4296672237,000001F2,false,Rx,1,8,30,64,20,AC,00,3C,03,8F,
4296672469,0000050B,false,Rx,1,7,00,00,06,C0,00,00,00,00,
4296680033,000001DB,false,Rx,1,8,FE,60,BA,0A,26,00,02,0A,
4296680262,000001DC,false,Rx,1,8,6E,04,D4,F5,E5,04,C6,5A,
4296681231,000001DA,false,Rx,1,8,B9,32,58,00,00,01,02,4C,
4296681400,00000120,false,Rx,1,4,00,00,0A,3C,00,00,00,00,
4296681767,0000011A,false,Rx,1,8,4E,40,00,AA,C0,00,00,6B,
4296682010,000001D4,false,Rx,1,8,F7,07,00,00,07,44,30,70,
4296682246,000001F2,false,Rx,1,8,30,64,20,AC,00,3C,00,8F,
4296682477,0000050B,false,Rx,1,7,00,00,06,C0,00,00,00,00,
4296690039,000001DB,false,Rx,1,8,FE,60,BA,0A,26,00,03,8F,
4296690268,000001DC,false,Rx,1,8,6E,04,D4,F5,E8,C0,C3,E1,
4296691227,000001DA,false,Rx,1,8,B9,72,58,00,00,01,03,6B,
4296691396,00000120,false,Rx,1,4,00,00,0B,B9,00,00,00,00,
4296691773,0000011A,false,Rx,1,8,4E,40,00,55,00,00,01,7D,
4296692006,000001D4,false,Rx,1,8,F7,07,00,00,47,44,30,B7,
4296692242,000001F2,false,Rx,1,8,30,64,20,AC,00,3C,01,8F,
4296692473,0000050B,false,Rx,1,7,00,00,06,C0,00,00,00,00,
4296700035,000001DB,false,Rx,1,8,FE,40,BA,0A,26,00,00,D4,
4296700264,000001DC,false,Rx,1,8,6E,04,D4,F5,EC,DC,C8,08,
4296701234,000001DA,false,Rx,1,8,B9,72,58,00,00,01,00,61,
4296701403,00000120,false,Rx,1,4,00,00,0C,28,00,00,00,00,
4296701781,0000011A,false,Rx,1,8,4E,40,00,55,40,00,02,B0,
4296702013,000001D4,false,Rx,1,8,F7,07,00,00,87,44,30,7B,
4296702249,000001F2,false,Rx,1,8,30,64,20,AC,00,3C,02,8F,
4296702480,0000050B,false,Rx,1,7,00,00,06,C0,00,00,00,00,
4296710033,000001DB,false,Rx,1,8,FE,40,BA,0A,26,00,01,51,
4296710252,000001DC,false,Rx,1,8,6E,04,D4,F5,E1,0C,E1,4D,
4296711231,000001DA,false,Rx,1,8,B9,32,58,00,00,01,01,46,
4296711401,00000120,false,Rx,1,4,00,00,0D,AD,00,00,00,00,
4296711632,0000055A,false,Rx,1,8,1A,36,37,35,55,00,5B,48,
4296711866,0000011A,false,Rx,1,8,4E,40,00,AA,80,00,03,A6,
4296712091,000001D4,false,Rx,1,8,F7,07,00,00,C7,44,30,BC,
4296712333,000001F2,false,Rx,1,8,30,64,20,AC,00,3C,03,8F,
4296712557,0000050B,false,Rx,1,7,00,00,06,C0,00,00,00,00,
4296716319,0000055B,false,Rx,1,8,A4,40,AA,00,DF,C0,13,9F,
4296716560,0000059E,false,Rx,1,8,00,00,0C,76,18,00,00,00,
4296716802,000005BC,false,Rx,1,8,3D,80,F0,64,B0,01,00,32,
4296720031,000001DB,false,Rx,1,8,FE,40,BA,0A,26,00,02,5B,
4296720254,000001DC,false,Rx,1,8,6E,04,D4,F5,E5,04,C6,5A,
4296721231,000001DA,false,Rx,1,8,B9,32,58,00,00,01,02,4C,
4296721401,00000120,false,Rx,1,4,00,00,0E,A7,00,00,00,00,
4296721768,0000011A,false,Rx,1,8,4E,40,00,AA,C0,00,00,6B,
4296722010,000001D4,false,Rx,1,8,F7,07,00,00,07,44,30,70,
4296722242,000001F2,false,Rx,1,8,30,64,20,AC,00,3C,00,8F,
4296722467,0000050B,false,Rx,1,7,00,00,06,C0,00,00,00,00,
4296730370,000001DB,false,Rx,1,8,FE,20,BA,0A,26,00,03,2D,
1783096,000002A0,false,Tx,1,8,00,10,01,00,00,60,00,00,
4296730610,000001DC,false,Rx,1,8,6E,04,D4,F5,E8,C0,C3,E1,
4296730831,0000055B,false,Rx,1,8,6C,C0,AA,00,D9,00,13,1E,
4296731064,000005BC,false,Rx,1,8,13,40,64,50,90,01,62,B2,
4296731244,00000120,false,Rx,1,4,00,00,0F,22,00,00,00,00,
4296731474,000001DA,false,Rx,1,8,B9,72,58,00,00,01,03,6B,
4296731878,0000011A,false,Rx,1,8,4E,40,00,55,00,00,01,7D,
4296732004,000001D4,false,Rx,1,8,F7,07,00,00,47,44,30,B7,
4296732244,000001F2,false,Rx,1,8,30,64,20,AC,00,3C,01,8F,
4296732721,0000050B,false,Rx,1,7,00,00,06,C0,00,00,00,00,
4296734435,000002B5,false,Rx,1,8,00,00,42,00,09,64,00,2F,
4296734677,000002B6,false,Rx,1,8,01,64,87,81,F8,00,82,19,
4296740033,000001DB,false,Rx,1,8,FE,20,BA,0A,26,00,00,27,
4296740261,000001DC,false,Rx,1,8,6E,04,D4,F5,EC,DC,C8,08,
4296741230,000001DA,false,Rx,1,8,B9,72,58,00,00,01,00,61,
4296741400,00000120,false,Rx,1,4,00,00,00,00,00,00,00,00,
4296741778,0000011A,false,Rx,1,8,4E,40,00,55,40,00,02,B0,
4296742010,000001D4,false,Rx,1,8,F7,07,00,00,87,44,30,7B,
4296742256,000001F2,false,Rx,1,8,30,64,20,AC,00,3C,02,8F,
4296742479,0000050B,false,Rx,1,7,00,00,06,C0,00,00,00,00,
4296743521,00000390,false,Rx,1,8,24,00,01,02,00,00,00,16,
4296748476,00000393,false,Rx,1,8,26,51,00,00,00,00,00,1E,
4296750023,000001DB,false,Rx,1,8,FE,20,BA,0A,26,00,01,A2,
4296750256,000001DC,false,Rx,1,8,6E,04,D4,F5,E1,0C,E1,4D,
4296751223,000001DA,false,Rx,1,8,B9,32,58,00,00,01,01,46,
4296751393,00000120,false,Rx,1,4,00,00,01,85,00,00,00,00,
4296751771,0000011A,false,Rx,1,8,4E,40,00,AA,80,00,03,A6,
4296752003,000001D4,false,Rx,1,8,F7,07,00,00,C7,44,30,BC,
4296752234,000001F2,false,Rx,1,8,30,64,20,AC,00,3C,03,8F,
4296752467,0000050B,false,Rx,1,7,00,00,06,C0,00,00,00,00,
4296760017,000001DB,false,Rx,1,8,FE,40,BA,0A,26,00,02,5B,
4296760246,000001DC,false,Rx,1,8,6E,04,D4,F5,E5,04,C6,5A,
4296761226,000001DA,false,Rx,1,8,B9,32,58,00,00,01,02,4C,
4296761395,00000120,false,Rx,1,4,00,00,02,8F,00,00,00,00,
4296761763,0000011A,false,Rx,1,8,4E,40,00,AA,C0,00,00,6B,
4296762005,000001D4,false,Rx,1,8,F7,07,00,00,07,44,30,70,
4296762241,000001F2,false,Rx,1,8,30,64,20,AC,00,3C,00,8F,
4296762474,0000050B,false,Rx,1,7,00,00,06,C0,00,00,00,00,
4296770025,000001DB,false,Rx,1,8,FE,60,BA,0A,26,00,03,8F,
4296770254,000001DC,false,Rx,1,8,6E,04,D4,F5,E8,C0,C3,E1,
4296771223,000001DA,false,Rx,1,8,B9,72,58,00,00,01,03,6B,
4296771393,00000120,false,Rx,1,4,00,00,03,0A,00,00,00,00,
4296771771,0000011A,false,Rx,1,8,4E,40,00,55,00,00,01,7D,
4296772003,000001D4,false,Rx,1,8,F7,07,00,00,47,44,30,B7,
4296772238,000001F2,false,Rx,1,8,30,64,20,AC,00,3C,01,8F,
4296772471,0000050B,false,Rx,1,7,00,00,06,C0,00,00,00,00,
4296780023,000001DB,false,Rx,1,8,FE,80,BA,0A,26,00,00,B7,
4296780252,000001DC,false,Rx,1,8,6E,04,D4,F5,EC,DC,C8,08,
4296781231,000001DA,false,Rx,1,8,B9,72,58,00,00,01,00,61,
