Time Stamp,ID,Extended,Dir,Bus,LEN,D1,D2,D3,D4,D5,D6,D7,D8
4297916356,0000011A,false,Rx,1,8,4E,40,00,AA,80,00,03,A6,
4297916586,000001D4,false,Rx,1,8,F7,07,00,00,C7,44,30,BC,
4297916817,000001DB,false,Rx,1,8,FF,A0,B8,CB,24,00,00,C8,
4297917039,000001DC,false,Rx,1,8,6E,04,F5,35,EC,DC,C8,7C,
4297917281,000001F2,false,Rx,1,8,30,64,20,AC,00,3C,03,8F,
4297917503,0000050B,false,Rx,1,7,00,00,06,C0,00,00,00,00,
4297918850,000001DA,false,Rx,1,8,B9,32,58,00,00,01,01,46,
4297919010,00000120,false,Rx,1,4,00,00,0D,AD,00,00,00,00,
4297919241,0000055A,false,Rx,1,8,1A,37,37,35,55,00,5B,48,
4297920905,0000055B,false,Rx,1,8,A4,40,AA,00,DF,C0,13,9F,
4297921137,0000059E,false,Rx,1,8,00,00,0C,76,18,00,00,00,
4297921381,000005BC,false,Rx,1,8,3D,80,F0,64,B0,01,00,32,
4297926351,0000011A,false,Rx,1,8,4E,40,00,AA,C0,00,00,6B,
4297926592,000001D4,false,Rx,1,8,F7,07,00,00,07,44,30,70,
4297926824,000001DB,false,Rx,1,8,FF,A0,B8,CB,24,00,01,4D,
4297927045,000001DC,false,Rx,1,8,6E,04,F5,35,E1,0C,E1,39,
4297927287,000001F2,false,Rx,1,8,30,64,20,AC,00,3C,00,8F,
4297927511,0000050B,false,Rx,1,7,00,00,06,C0,00,00,00,00,
4297928836,000001DA,false,Rx,1,8,B9,32,58,00,00,01,02,4C,
4297929007,00000120,false,Rx,1,4,00,00,0E,A7,00,00,00,00,
4297930141,00000390,false,Rx,1,8,24,00,01,02,00,00,00,27,
4297935146,00000393,false,Rx,1,8,00,51,00,00,00,00,00,27,
4297936359,0000011A,false,Rx,1,8,4E,40,00,55,00,00,01,7D,
4297936593,000001D4,false,Rx,1,8,F7,07,00,00,47,44,30,B7,
4297936825,000001DB,false,Rx,1,8,FF,A0,B8,CB,24,00,02,47,
4297937057,000001DC,false,Rx,1,8,6E,04,F5,35,E5,04,C6,2E,
4297937291,000001F2,false,Rx,1,8,30,64,20,AC,00,3C,01,8F,
4297937514,0000050B,false,Rx,1,7,00,00,06,C0,00,00,00,00,
4297938835,000001DA,false,Rx,1,8,B9,72,58,00,00,01,03,6B,
4297939006,00000120,false,Rx,1,4,00,00,0F,22,00,00,00,00,
4297943632,000002B5,false,Rx,1,8,00,00,32,00,00,00,00,32,
4297943860,000002B6,false,Rx,1,8,00,00,87,82,88,00,B4,39,
4297946360,0000011A,false,Rx,1,8,4E,40,00,55,40,00,02,B0,
4297946594,000001D4,false,Rx,1,8,F7,07,00,00,87,44,30,7B,
4297946826,000001DB,false,Rx,1,8,FF,A0,B8,CB,24,00,03,C2,
4297947058,000001DC,false,Rx,1,8,6E,04,F5,39,E8,C0,C3,7D,
4297947301,000001F2,false,Rx,1,8,30,64,20,AC,00,3C,02,8F,
4297947524,0000050B,false,Rx,1,7,00,00,06,C0,00,00,00,00,
4297948830,000001DA,false,Rx,1,8,B9,72,58,00,00,01,00,61,
4297949012,00000120,false,Rx,1,4,00,00,00,00,00,00,00,00,
4297956353,0000011A,false,Rx,1,8,4E,40,00,AA,80,00,03,A6,
4297956583,000001D4,false,Rx,1,8,F7,07,00,00,C7,44,30,BC,
4297956815,000001DB,false,Rx,1,8,FF,A0,B8,CB,24,00,00,C8,
4297957046,000001DC,false,Rx,1,8,6E,04,F5,39,EC,DC,C8,94,
4297957278,000001F2,false,Rx,1,8,30,64,20,AC,00,3C,03,8F,
4297957500,0000050B,false,Rx,1,7,00,00,06,C0,00,00,00,00,
4297958838,000001DA,false,Rx,1,8,B9,32,58,00,00,01,01,46,
4297959008,00000120,false,Rx,1,4,00,00,01,85,00,00,00,00,
4297966350,0000011A,false,Rx,1,8,4E,40,00,AA,C0,00,00,6B,
3948,000002A0,false,Tx,1,8,01,0F,01,00,00,60,00,00,
4297966591,000001D4,false,Rx,1,8,F7,07,00,00,07,44,30,70,
4297966822,000001DB,false,Rx,1,8,FF,A0,B8,CB,24,00,01,4D,
4297967044,000001DC,false,Rx,1,8,6E,04,F5,39,E1,0C,E1,D1,
4297967287,000001F2,false,Rx,1,8,30,64,20,AC,00,3C,00,8F,
4297967545,0000050B,false,Rx,1,7,00,00,06,C0,00,00,00,00,
4297968833,000001DA,false,Rx,1,8,B9,32,58,00,00,01,02,4C,
4297969003,00000120,false,Rx,1,4,00,00,02,8F,00,00,00,00,
4297976354,0000011A,false,Rx,1,8,4E,40,00,55,00,00,01,7D,
4297976584,000001D4,false,Rx,1,8,F7,07,00,00,47,44,30,B7,
4297976816,000001DB,false,Rx,1,8,FF,A0,B8,CB,24,00,02,47,
4297977048,000001DC,false,Rx,1,8,6E,04,F5,39,E5,04,C6,C6,
4297977291,000001F2,false,Rx,1,8,30,64,20,AC,00,3C,01,8F,
4297977513,0000050B,false,Rx,1,7,00,00,06,C0,00,00,00,00,
4297978841,000001DA,false,Rx,1,8,B9,72,58,00,00,01,03,6B,
4297979010,00000120,false,Rx,1,4,00,00,03,0A,00,00,00,00,
4297986351,0000011A,false,Rx,1,8,4E,40,00,55,40,00,02,B0,
4297986591,000001D4,false,Rx,1,8,F7,07,00,00,87,44,30,7B,
4297986823,000001DB,false,Rx,1,8,FF,80,B8,CB,24,00,03,93,
4297987055,000001DC,false,Rx,1,8,6E,04,F5,39,E8,C0,C3,7D,
4297987298,000001F2,false,Rx,1,8,30,64,20,AC,00,3C,02,8F,
4297987520,0000050B,false,Rx,1,7,00,00,06,C0,00,00,00,00,
4297988847,000001DA,false,Rx,1,8,B8,72,58,00,00,01,00,66,
4297989016,00000120,false,Rx,1,4,00,00,04,9B,00,00,00,00,
4297996347,0000011A,false,Rx,1,8,4E,40,00,AA,80,00,03,A6,
4297996587,000001D4,false,Rx,1,8,F7,07,00,00,C7,44,30,BC,
4297996819,000001DB,false,Rx,1,8,FF,60,B8,CB,24,00,00,AB,
4297997051,000001DC,false,Rx,1,8,6E,04,F5,39,EC,DC,C8,94,
4297997284,000001F2,false,Rx,1,8,30,64,20,AC,00,3C,03,8F,
4297997506,0000050B,false,Rx,1,7,00,00,06,C0,00,00,00,00,
4297998843,000001DA,false,Rx,1,8,B8,32,58,00,00,01,01,41,
4297999012,00000120,false,Rx,1,4,00,00,05,1E,00,00,00,00,
4298006354,0000011A,false,Rx,1,8,4E,40,00,AA,C0,00,00,6B,
4298006584,000001D4,false,Rx,1,8,F7,07,00,00,07,44,30,70,
4298006826,000001F2,false,Rx,1,8,30,64,20,AC,00,3C,00,8F,
4298007058,000001DB,false,Rx,1,8,FF,40,B8,CB,24,00,01,7F,
4298007291,000001DC,false,Rx,1,8,6E,04,F5,39,E1,0C,E1,D1,
4298007513,0000050B,false,Rx,1,7,00,00,06,C0,00,00,00,00,
4298007745,0000055B,false,Rx,1,8,6A,40,AA,00,AB,00,10,40,
4298007988,000005BC,false,Rx,1,8,12,80,64,50,90,02,A0,96,
4298008841,000001DA,false,Rx,1,8,B9,32,58,00,00,01,02,4C,
4298009011,00000120,false,Rx,1,4,00,00,06,14,00,00,00,00,
4298016352,0000011A,false,Rx,1,8,4E,40,00,55,00,00,01,7D,
4298016592,000001D4,false,Rx,1,8,F7,07,00,00,47,44,30,B7,
4298016824,000001DB,false,Rx,1,8,FF,40,B8,CB,24,00,02,75,
4298017045,000001DC,false,Rx,1,8,6E,04,F5,39,E5,04,C6,C6,
4298017289,000001F2,false,Rx,1,8,30,64,20,AC,00,3C,01,8F,
4298017511,0000050B,false,Rx,1,7,00,00,06,C0,00,00,00,00,
4298018837,000001DA,false,Rx,1,8,B8,72,58,00,00,01,03,6C,
4298019007,00000120,false,Rx,1,4,00,00,07,91,00,00,00,00,
4298019238,0000055A,false,Rx,1,8,1F,37,37,35,55,00,5B,48,
4298020892,0000055B,false,Rx,1,8,A4,40,AA,00,DF,C0,10,95,
4298021136,0000059E,false,Rx,1,8,00,00,0C,76,18,00,00,00,
4298021378,000005BC,false,Rx,1,8,3D,80,F0,64,B0,01,00,32,
4298026360,0000011A,false,Rx,1,8,4E,40,00,55,40,00,02,B0,
4298026590,000001D4,false,Rx,1,8,F7,07,00,00,87,44,30,7B,
4298026821,000001DB,false,Rx,1,8,FF,00,B8,CB,24,00,03,52,
4298027053,000001DC,false,Rx,1,8,6E,04,F5,39,E8,C0,C3,7D,
4298027296,000001F2,false,Rx,1,8,30,64,20,AC,00,3C,02,8F,
4298027519,0000050B,false,Rx,1,7,00,00,06,C0,00,00,00,00,
4298028836,000001DA,false,Rx,1,8,B8,72,58,00,00,01,00,66,
4298029005,00000120,false,Rx,1,4,00,00,08,B3,00,00,00,00,
4298030244,00000390,false,Rx,1,8,24,00,01,02,00,00,00,38,
4298035238,00000393,false,Rx,1,8,26,51,00,00,00,00,00,30,
4298036348,0000011A,false,Rx,1,8,4E,40,00,AA,80,00,03,A6,
4298036582,000001D4,false,Rx,1,8,F7,07,00,00,C7,44,30,BC,
4298036813,000001DB,false,Rx,1,8,FE,80,B8,CB,24,00,00,9E,
4298037045,000001DC,false,Rx,1,8,6E,04,F5,39,EC,DC,C8,94,
4298037278,000001F2,false,Rx,1,8,30,64,20,AC,00,3C,03,8F,
4298037506,0000050B,false,Rx,1,7,00,00,06,C0,00,00,00,00,
4298038838,000001DA,false,Rx,1,8,B8,32,58,00,00,01,01,41,
4298039008,00000120,false,Rx,1,4,00,00,09,36,00,00,00,00,
79007,000002A0,false,Tx,1,8,02,0F,01,00,00,60,00,00,
4298043678,000002B5,false,Rx,1,8,10,00,44,00,0A,60,00,3E,
4298043906,000002B6,false,Rx,1,8,11,C8,86,02,88,00,B4,61,
4298046344,0000011A,false,Rx,1,8,4E,40,00,AA,C0,00,00,6B,
4298046588,000001D4,false,Rx,1,8,F7,07,00,00,07,44,30,70,
4298046820,000001DB,false,Rx,1,8,FE,20,B8,CB,24,00,01,8B,
4298047041,000001DC,false,Rx,1,8,6E,04,F5,39,E1,0C,E1,D1,
4298047285,000001F2,false,Rx,1,8,30,64,20,AC,00,3C,00,8F,
4298047507,0000050B,false,Rx,1,7,00,00,06,C0,00,00,00,00,
4298048835,000001DA,false,Rx,1,8,B7,32,58,00,00,01,02,66,
4298049005,00000120,false,Rx,1,4,00,00,0A,3C,00,00,00,00,
4298056356,0000011A,false,Rx,1,8,4E,40,00,55,00,00,01,7D,
4298056585,000001D4,false,Rx,1,8,F7,07,00,00,47,44,30,B7,
4298056816,000001DB,false,Rx,1,8,FD,C0,B8,CB,24,00,02,BA,
4298057048,000001DC,false,Rx,1,8,6E,04,F5,39,E5,04,C6,C6,
4298057281,000001F2,false,Rx,1,8,30,64,20,AC,00,3C,01,8F,
4298057514,0000050B,false,Rx,1,7,00,00,06,C0,00,00,00,00,
4298058841,000001DA,false,Rx,1,8,B7,72,58,00,00,01,03,41,
4298059000,00000120,false,Rx,1,4,00,00,0B,B9,00,00,00,00,
4298066352,0000011A,false,Rx,1,8,4E,40,00,55,40,00,02,B0,
4298066591,000001D4,false,Rx,1,8,F7,07,00,00,87,44,30,7B,
4298066833,000001DB,false,Rx,1,8,FD,40,B8,CB,24,00,03,FE,
4298067065,000001DC,false,Rx,1,8,6E,04,F5,39,E8,C0,C3,7D,
4298067298,000001F2,false,Rx,1,8,30,64,20,AC,00,3C,02,8F,
4298067521,0000050B,false,Rx,1,7,00,00,06,C0,00,00,00,00,
4298068836,000001DA,false,Rx,1,8,B7,72,58,00,00,01,00,4B,
4298069006,00000120,false,Rx,1,4,00,00,0C,28,00,00,00,00,
4298076348,0000011A,false,Rx,1,8,4E,40,00,AA,80,00,03,A6,
4298076577,000001D4,false,Rx,1,8,F7,07,00,00,C7,44,30,BC,
4298076809,000001DB,false,Rx,1,8,FC,E0,B8,CB,24,00,00,63,
4298077041,000001DC,false,Rx,1,8,6E,04,F5,39,EC,DC,C8,94,
4298077274,000001F2,false,Rx,1,8,30,64,20,AC,00,3C,03,8F,
4298077506,0000050B,false,Rx,1,7,00,00,06,C0,00,00,00,00,
4298078833,000001DA,false,Rx,1,8,B7,32,58,00,00,01,01,6C,
4298079002,00000120,false,Rx,1,4,00,00,0D,AD,00,00,00,00,
4298086345,0000011A,false,Rx,1,8,4E,40,00,AA,C0,00,00,6B,
4298086585,000001D4,false,Rx,1,8,F7,07,00,00,07,44,30,70,
4298086816,000001DB,false,Rx,1,8,FC,A0,B8,CB,24,00,01,44,
4298087048,000001DC,false,Rx,1,8,6E,04,F5,39,E1,0C,E1,D1,
4298087281,000001F2,false,Rx,1,8,30,64,20,AC,00,3C,00,8F,
4298087514,0000050B,false,Rx,1,7,00,00,06,C0,00,00,00,00,
4298088840,000001DA,false,Rx,1,8,B7,32,58,00,00,01,02,66,
4298089010,00000120,false,Rx,1,4,00,00,0E,A7,00,00,00,00,
4295080353,0000011A,false,Rx,1,8,4E,40,00,55,00,00,01,7D,
4295080582,000001D4,false,Rx,1,8,F7,07,00,00,47,44,30,B7,
4295080814,000001DB,false,Rx,1,8,FC,60,B8,CB,24,00,02,2D,
4295081045,000001DC,false,Rx,1,8,6E,04,F5,39,E5,04,C6,C6,
4295081278,000001F2,false,Rx,1,8,30,64,20,AC,00,3C,01,8F,
4295081511,0000050B,false,Rx,1,7,00,00,06,C0,00,00,00,00,
4295082838,000001DA,false,Rx,1,8,B7,72,58,00,00,01,03,41,
4295083007,00000120,false,Rx,1,4,00,00,0F,22,00,00,00,00,
4295090350,0000011A,false,Rx,1,8,4E,40,00,55,40,00,02,B0,
4295090589,000001D4,false,Rx,1,8,F7,07,00,00,87,44,30,7B,
4295090831,000001F2,false,Rx,1,8,30,64,20,AC,00,3C,02,8F,
4295091064,000001DB,false,Rx,1,8,FC,00,B8,CB,24,00,03,5B,
4295091296,000001DC,false,Rx,1,8,6E,04,F5,39,E8,C0,C3,7D,
4295091528,0000050B,false,Rx,1,7,00,00,06,C0,00,00,00,00,
4295091760,0000055B,false,Rx,1,8,6A,40,AA,00,AB,00,11,C5,
4295091993,000005BC,false,Rx,1,8,12,80,64,50,90,03,01,C2,
4295092836,000001DA,false,Rx,1,8,B7,72,58,00,00,01,00,4B,
4295093016,00000120,false,Rx,1,4,00,00,00,00,00,00,00,00,
4295100349,0000011A,false,Rx,1,8,4E,40,00,AA,80,00,03,A6,
4295100578,000001D4,false,Rx,1,8,F7,07,00,00,C7,44,30,BC,
4295100810,000001F2,false,Rx,1,8,30,64,20,AC,00,3C,03,8F,
4295101043,000001DB,false,Rx,1,8,FB,A0,B8,CB,24,00,00,D4,
4295101274,000001DC,false,Rx,1,8,6E,04,F5,39,EC,DC,C8,94,
4295101496,0000050B,false,Rx,1,7,00,00,06,C0,00,00,00,00,
4295101739,0000059E,false,Rx,1,8,00,00,0A,11,D8,00,00,00,
4295101982,000005C0,false,Rx,1,8,80,62,62,FF,72,C8,1F,00,
4295102846,000001DA,false,Rx,1,8,B7,32,58,00,00,01,01,6C,
4295103015,00000120,false,Rx,1,4,00,00,01,85,00,00,00,00,
4295103246,0000055A,false,Rx,1,8,14,37,37,35,55,00,5B,48,
4295104891,0000055B,false,Rx,1,8,A4,40,AA,00,DF,C0,11,10,
4295105133,0000059E,false,Rx,1,8,00,00,0C,76,18,00,00,00,
4295105375,000005BC,false,Rx,1,8,3D,80,F0,64,B0,01,00,32,
4295110346,0000011A,false,Rx,1,8,4E,40,00,AA,C0,00,00,6B,
4295110586,000001D4,false,Rx,1,8,F7,07,00,00,07,44,30,70,
4295110817,000001DB,false,Rx,1,8,FB,A0,B8,CB,24,00,01,51,
4295111040,000001DC,false,Rx,1,8,6E,04,F5,39,E1,0C,E1,D1,
4295111282,000001F2,false,Rx,1,8,30,64,20,AC,00,3C,00,8F,
4295111515,0000050B,false,Rx,1,7,00,00,06,C0,00,00,00,00,
4295112841,000001DA,false,Rx,1,8,B7,32,58,00,00,01,02,66,
4295113011,00000120,false,Rx,1,4,00,00,02,8F,00,00,00,00,
4295114342,00000390,false,Rx,1,8,24,00,01,02,00,00,00,05,
4295119348,00000393,false,Rx,1,8,00,51,00,00,00,00,00,05,
4295120356,0000011A,false,Rx,1,8,4E,40,00,55,00,00,01,7D,
4295120589,000001D4,false,Rx,1,8,F7,07,00,00,47,44,30,B7,
4295120820,000001DB,false,Rx,1,8,FB,A0,B8,CB,24,00,02,5B,
4295121043,000001DC,false,Rx,1,8,6E,04,F5,39,E5,04,C6,C6,
4295121285,000001F2,false,Rx,1,8,30,64,20,AC,00,3C,01,8F,
4295121512,0000050B,false,Rx,1,7,00,00,06,C0,00,00,00,00,
4295122834,000001DA,false,Rx,1,8,B7,72,58,00,00,01,03,41,
4295123003,00000120,false,Rx,1,4,00,00,03,0A,00,00,00,00,
4295127604,000002B5,false,Rx,1,8,20,00,58,40,16,05,00,2B,
4295127842,000002B6,false,Rx,1,8,21,C8,85,82,88,00,B4,D2,
4295130354,0000011A,false,Rx,1,8,4E,40,00,55,40,00,02,B0,
4295130587,000001D4,false,Rx,1,8,F7,07,00,00,87,44,30,7B,
4295130818,000001DB,false,Rx,1,8,FB,A0,B8,CB,24,00,03,DE,
4295131051,000001DC,false,Rx,1,8,6E,04,F5,39,E8,C0,C3,7D,
4295131293,000001F2,false,Rx,1,8,30,64,20,AC,00,3C,02,8F,
4295131516,0000050B,false,Rx,1,7,00,00,06,C0,00,00,00,00,
4295132834,000001DA,false,Rx,1,8,B7,72,58,00,00,01,00,4B,
4295132993,00000120,false,Rx,1,4,00,00,04,9B,00,00,00,00,
4295140345,0000011A,false,Rx,1,8,4E,40,00,AA,80,00,03,A6,
4295140574,000001D4,false,Rx,1,8,F7,07,00,00,C7,44,30,BC,
4295140806,000001DB,false,Rx,1,8,FB,A0,B8,CB,24,00,00,D4,
4295141038,000001DC,false,Rx,1,8,6E,04,F5,39,EC,DC,C8,94,
4295141270,000001F2,false,Rx,1,8,30,64,20,AC,00,3C,03,8F,
4295141502,0000050B,false,Rx,1,7,00,00,06,C0,00,00,00,00,
4295142839,000001DA,false,Rx,1,8,B7,32,58,00,00,01,01,6C,
4295142998,00000120,false,Rx,1,4,00,00,05,1E,00,00,00,00,
4295150340,0000011A,false,Rx,1,8,4E,40,00,AA,C0,00,00,6B,
204708,000002A0,false,Tx,1,8,04,0F,01,00,00,60,00,00,
4295150580,000001D4,false,Rx,1,8,F7,07,00,00,07,44,30,70,
4295150822,000001DB,false,Rx,1,8,FB,A0,B8,CB,24,00,01,51,
4295151044,000001DC,false,Rx,1,8,6E,04,F5,39,E1,0C,E1,D1,
4295151286,000001F2,false,Rx,1,8,30,64,20,AC,00,3C,00,8F,
4295151509,0000050B,false,Rx,1,7,00,00,06,C0,00,00,00,00,
4295152833,000001DA,false,Rx,1,8,B7,32,58,00,00,01,02,66,
4295153002,00000120,false,Rx,1,4,00,00,06,14,00,00,00,00,
4295160345,0000011A,false,Rx,1,8,4E,40,00,55,00,00,01,7D,
4295160584,000001D4,false,Rx,1,8,F7,07,00,00,47,44,30,B7,
4295160816,000001DB,false,Rx,1,8,FB,A0,B8,CB,24,00,02,5B,
4295161039,000001DC,false,Rx,1,8,6E,04,F5,39,E5,04,C6,C6,
4295161281,000001F2,false,Rx,1,8,30,64,20,AC,00,3C,01,8F,
4295161502,0000050B,false,Rx,1,7,00,00,06,C0,00,00,00,00,
4295162840,000001DA,false,Rx,1,8,B7,72,58,00,00,01,03,41,
4295162999,00000120,false,Rx,1,4,00,00,07,91,00,00,00,00,
4295170352,0000011A,false,Rx,1,8,4E,40,00,55,40,00,02,B0,
4295170591,000001D4,false,Rx,1,8,F7,07,00,00,87,44,30,7B,
4295170823,000001DB,false,Rx,1,8,FB,A0,B8,CB,24,00,03,DE,
4295171056,000001DC,false,Rx,1,8,6E,04,F5,39,E8,C0,C3,7D,
4295171287,000001F2,false,Rx,1,8,30,64,20,AC,00,3C,02,8F,
4295171520,0000050B,false,Rx,1,7,00,00,06,C0,00,00,00,00,
4295172846,000001DA,false,Rx,1,8,B7,72,58,00,00,01,00,4B,
4295173016,00000120,false,Rx,1,4,00,00,08,B3,00,00,00,00,
4295180348,0000011A,false,Rx,1,8,4E,40,00,AA,80,00,03,A6,
4295180577,000001D4,false,Rx,1,8,F7,07,00,00,C7,44,30,BC,
4295180808,000001DB,false,Rx,1,8,FB,A0,B8,CB,24,00,00,D4,
4295181031,000001DC,false,Rx,1,8,6E,04,F5,39,EC,DC,C8,94,
4295181273,000001F2,false,Rx,1,8,30,64,20,AC,00,3C,03,8F,
4295181494,0000050B,false,Rx,1,7,00,00,06,C0,00,00,00,00,
4295182832,000001DA,false,Rx,1,8,B7,32,58,00,00,01,01,6C,
4295183002,00000120,false,Rx,1,4,00,00,09,36,00,00,00,00,
4295190345,0000011A,false,Rx,1,8,4E,40,00,AA,C0,00,00,6B,
4295190584,000001D4,false,Rx,1,8,F7,07,00,00,07,44,30,70,
4295190826,000001F2,false,Rx,1,8,30,64,20,AC,00,3C,00,8F,
4295191059,000001DB,false,Rx,1,8,FB,A0,B8,CB,24,00,01,51,
4295191280,000001DC,false,Rx,1,8,6E,04,F5,39,E1,0C,E1,D1,
4295191513,0000050B,false,Rx,1,7,00,00,06,C0,00,00,00,00,
4295191735,0000055B,false,Rx,1,8,6A,40,AA,00,AB,80,12,70,
4295191977,000005BC,false,Rx,1,8,12,80,B5,50,91,00,1F,FF,
4295192841,000001DA,false,Rx,1,8,B7,32,58,00,00,01,02,66,
4295193011,00000120,false,Rx,1,4,00,00,0A,3C,00,00,00,00,
4295200345,0000011A,false,Rx,1,8,4E,40,00,55,00,00,01,7D,
4295200584,000001D4,false,Rx,1,8,F7,07,00,00,47,44,30,B7,
4295200816,000001DB,false,Rx,1,8,FB,C0,B8,CB,24,00,02,A8,
4295201038,000001DC,false,Rx,1,8,6E,04,F5,39,E5,04,C6,C6,
4295201281,000001F2,false,Rx,1,8,30,64,20,AC,00,3C,01,8F,
4295201513,0000050B,false,Rx,1,7,00,00,06,C0,00,00,00,00,
4295202839,000001DA,false,Rx,1,8,B7,72,58,00,00,01,03,41,
4295203009,00000120,false,Rx,1,4,00,00,0B,B9,00,00,00,00,
4295203231,0000055A,false,Rx,1,8,19,37,37,35,55,00,5B,48,
4295204885,0000055B,false,Rx,1,8,A4,40,AA,00,DF,C0,12,1A,
4295205127,0000059E,false,Rx,1,8,00,00,0C,76,18,00,00,00,
4295205369,000005BC,false,Rx,1,8,3D,80,F0,64,B0,01,00,32,
4295210351,0000011A,false,Rx,1,8,4E,40,00,55,40,00,02,B0,
4295210591,000001D4,false,Rx,1,8,F7,07,00,00,87,44,30,7B,
4295210823,000001DB,false,Rx,1,8,FB,C0,B8,CB,24,00,03,2D,
4295211056,000001DC,false,Rx,1,8,6E,04,F5,39,E8,C0,C3,7D,
4295211287,000001F2,false,Rx,1,8,30,64,20,AC,00,3C,02,8F,
4295211520,0000050B,false,Rx,1,7,00,00,06,C0,00,00,00,00,
4295212825,000001DA,false,Rx,1,8,B7,72,58,00,00,01,00,4B,
4295212995,00000120,false,Rx,1,4,00,00,0C,28,00,00,00,00,
4295214438,00000390,false,Rx,1,8,24,00,01,02,00,00,00,16,
4295219445,00000393,false,Rx,1,8,26,51,00,00,00,00,00,1E,
4295220348,0000011A,false,Rx,1,8,4E,40,00,AA,80,00,03,A6,
4295220571,000001D4,false,Rx,1,8,F7,07,00,00,C7,44,30,BC,
4295220813,000001DB,false,Rx,1,8,FB,C0,B8,CB,24,00,00,27,
4295221035,000001DC,false,Rx,1,8,6E,04,F5,39,EC,DC,C8,94,
4295221277,000001F2,false,Rx,1,8,30,64,20,AC,00,3C,03,8F,
4295221503,0000050B,false,Rx,1,7,00,00,06,C0,00,00,00,00,
4295222837,000001DA,false,Rx,1,8,B7,32,58,00,00,01,01,6C,
4295222996,00000120,false,Rx,1,4,00,00,0D,AD,00,00,00,00,
4295227606,000002B5,false,Rx,1,8,30,00,56,40,14,D0,00,E2,
4295227845,000002B6,false,Rx,1,8,31,C8,85,82,88,00,B4,C2,
4295230346,0000011A,false,Rx,1,8,4E,40,00,AA,C0,00,00,6B,
4295230579,000001D4,false,Rx,1,8,F7,07,00,00,07,44,30,70,
4295230811,000001DB,false,Rx,1,8,FB,C0,B8,CB,24,00,01,A2,
4295231033,000001DC,false,Rx,1,8,6E,04,F5,39,E1,0C,E1,D1,
4295231275,000001F2,false,Rx,1,8,30,64,20,AC,00,3C,00,8F,
4295231508,0000050B,false,Rx,1,7,00,00,06,C0,00,00,00,00,
4295232836,000001DA,false,Rx,1,8,B7,32,58,00,00,01,02,66,
4295233006,00000120,false,Rx,1,4,00,00,0E,A7,00,00,00,00,
4295240349,0000011A,false,Rx,1,8,4E,40,00,55,00,00,01,7D,
4295240578,000001D4,false,Rx,1,8,F7,07,00,00,47,44,30,B7,
4295240821,000001DB,false,Rx,1,8,FB,C0,B8,CB,24,00,02,A8,
4295241042,000001DC,false,Rx,1,8,6E,04,F5,39,E5,04,C6,C6,
4295241284,000001F2,false,Rx,1,8,30,64,20,AC,00,3C,01,8F,
4295241507,0000050B,false,Rx,1,7,00,00,06,C0,00,00,00,00,
4295242833,000001DA,false,Rx,1,8,B7,72,58,00,00,01,03,41,
4295243002,00000120,false,Rx,1,4,00,00,0F,22,00,00,00,00,
303239,000002A0,false,Tx,1,8,08,0F,01,00,00,60,00,00,
4295250344,0000011A,false,Rx,1,8,4E,40,00,55,40,00,02,B0,
4295250583,000001D4,false,Rx,1,8,F7,07,00,00,87,44,30,7B,
4295250914,000001DB,false,Rx,1,8,FB,E0,B8,CB,24,00,03,7C,
4295251050,000001DC,false,Rx,1,8,6E,04,F5,39,E8,C0,C3,7D,
4295251290,000001F2,false,Rx,1,8,30,64,20,AC,00,3C,02,8F,
4295251765,0000050B,false,Rx,1,7,00,00,06,C0,00,00,00,00,
4295252832,000001DA,false,Rx,1,8,B7,72,58,00,00,01,00,4B,
4295253001,00000120,false,Rx,1,4,00,00,00,00,00,00,00,00,
4295260345,0000011A,false,Rx,1,8,4E,40,00,AA,80,00,03,A6,
4295260574,000001D4,false,Rx,1,8,F7,07,00,00,C7,44,30,BC,
4295260807,000001DB,false,Rx,1,8,FB,E0,B8,CB,24,00,00,76,
4295261038,000001DC,false,Rx,1,8,6E,04,F5,39,EC,DC,C8,94,
4295261270,000001F2,false,Rx,1,8,30,64,20,AC,00,3C,03,8F,
4295261502,0000050B,false,Rx,1,7,00,00,06,C0,00,00,00,00,
4295262829,000001DA,false,Rx,1,8,B7,32,58,00,00,01,01,6C,
4295262999,00000120,false,Rx,1,4,00,00,01,85,00,00,00,00,
4295270340,0000011A,false,Rx,1,8,4E,40,00,AA,C0,00,00,6B,
4295270581,000001D4,false,Rx,1,8,F7,07,00,00,07,44,30,70,
4295270824,000001DB,false,Rx,1,8,FB,E0,BA,0B,24,00,01,BF,
4295271045,000001DC,false,Rx,1,8,6E,04,F5,39,E1,0C,E1,D1,
4295271287,000001F2,false,Rx,1,8,30,64,20,AC,00,3C,00,8F,
4295271510,0000050B,false,Rx,1,7,00,00,06,C0,00,00,00,00,
4295272836,000001DA,false,Rx,1,8,B7,32,58,00,00,01,02,66,
4295273006,00000120,false,Rx,1,4,00,00,02,8F,00,00,00,00,
4295280349,0000011A,false,Rx,1,8,4E,40,00,55,00,00,01,7D,
4295280578,000001D4,false,Rx,1,8,F7,07,00,00,47,44,30,B7,
4295280821,000001DB,false,Rx,1,8,FC,00,BA,0B,24,00,02,92,
4295281042,000001DC,false,Rx,1,8,6E,04,F5,39,E5,04,C6,C6,
4295281284,000001F2,false,Rx,1,8,30,64,20,AC,00,3C,01,8F,
4295281508,0000050B,false,Rx,1,7,00,00,06,C0,00,00,00,00,
4295282833,000001DA,false,Rx,1,8,B7,72,58,00,00,01,03,41,
4295283002,00000120,false,Rx,1,4,00,00,03,0A,00,00,00,00,
4295290345,0000011A,false,Rx,1,8,4E,40,00,55,40,00,02,B0,
4295290584,000001D4,false,Rx,1,8,F7,07,00,00,87,44,30,7B,
4295290827,000001F2,false,Rx,1,8,30,64,20,AC,00,3C,02,8F,
4295291059,000001DB,false,Rx,1,8,FC,00,BA,0B,24,00,03,17,
4295291290,000001DC,false,Rx,1,8,6E,04,F5,39,E8,C0,C3,7D,
4295291514,0000050B,false,Rx,1,7,00,00,06,C0,00,00,00,00,
4295291746,0000055B,false,Rx,1,8,6A,40,AA,00,AB,80,13,F5,
4295291988,000005BC,false,Rx,1,8,12,80,B5,50,91,00,A0,B4,
4295292841,000001DA,false,Rx,1,8,B7,72,58,00,00,01,00,4B,
4295293011,00000120,false,Rx,1,4,00,00,04,9B,00,00,00,00,
4295300345,0000011A,false,Rx,1,8,4E,40,00,AA,80,00,03,A6,
4295300574,000001D4,false,Rx,1,8,F7,07,00,00,C7,44,30,BC,
4295300807,000001DB,false,Rx,1,8,FC,00,BA,0B,24,00,00,1D,
4295301039,000001DC,false,Rx,1,8,6E,04,F5,39,EC,DC,C8,94,
4295301280,000001F2,false,Rx,1,8,30,64,20,AC,00,3C,03,8F,
4295301503,0000050B,false,Rx,1,7,00,00,06,C0,00,00,00,00,
4295302839,000001DA,false,Rx,1,8,B7,32,58,00,00,01,01,6C,
4295303010,00000120,false,Rx,1,4,00,00,05,1E,00,00,00,00,
4295303230,0000055A,false,Rx,1,8,1A,37,37,35,55,00,5B,48,
4295304895,0000055B,false,Rx,1,8,A4,40,AA,00,DF,C0,13,9F,
4295305127,0000059E,false,Rx,1,8,00,00,0C,76,18,00,00,00,
4295305370,000005BC,false,Rx,1,8,3D,80,F0,64,B0,01,00,32,
4295310341,0000011A,false,Rx,1,8,4E,40,00,AA,C0,00,00,6B,
4295310581,000001D4,false,Rx,1,8,F7,07,00,00,07,44,30,70,
4295310813,000001DB,false,Rx,1,8,FC,00,BA,0B,24,00,01,98,
4295311045,000001DC,false,Rx,1,8,6E,04,F5,39,E1,0C,E1,D1,
4295311277,000001F2,false,Rx,1,8,30,64,20,AC,00,3C,00,8F,
4295311511,0000050B,false,Rx,1,7,00,00,06,C0,00,00,00,00,
4295312836,000001DA,false,Rx,1,8,B7,32,58,00,00,01,02,66,
4295313007,00000120,false,Rx,1,4,00,00,06,14,00,00,00,00,
4295314544,00000390,false,Rx,1,8,24,00,01,02,00,00,00,27,
4295319541,00000393,false,Rx,1,8,00,51,00,00,00,00,00,27,
4295320350,0000011A,false,Rx,1,8,4E,40,00,55,00,00,01,7D,
4295320583,000001D4,false,Rx,1,8,F7,07,00,00,47,44,30,B7,
4295320815,000001DB,false,Rx,1,8,FC,00,BA,0B,24,00,02,92,
4295321047,000001DC,false,Rx,1,8,6E,04,F5,39,E5,04,C6,C6,
4295321279,000001F2,false,Rx,1,8,30,64,20,AC,00,3C,01,8F,
4295321501,0000050B,false,Rx,1,7,00,00,06,C0,00,00,00,00,
4295322830,000001DA,false,Rx,1,8,B7,72,58,00,00,01,03,41,
4295323000,00000120,false,Rx,1,4,00,00,07,91,00,00,00,00,
4295327618,000002B5,false,Rx,1,8,40,00,54,80,13,C8,00,4F,
4295327856,000002B6,false,Rx,1,8,41,C8,85,82,88,00,B4,B2,
383602,000002A0,false,Tx,1,8,10,0F,01,00,00,60,00,00,
4295330345,0000011A,false,Rx,1,8,4E,40,00,55,40,00,02,B0,
4295330589,000001D4,false,Rx,1,8,F7,07,00,00,87,44,30,7B,
4295330822,000001DB,false,Rx,1,8,FC,20,BA,0B,24,00,03,46,
4295331053,000001DC,false,Rx,1,8,6E,04,F5,39,E8,C0,C3,7D,
4295331287,000001F2,false,Rx,1,8,30,64,20,AC,00,3C,02,8F,
4295331757,0000050B,false,Rx,1,7,00,00,06,C0,00,00,00,00,
4295332829,000001DA,false,Rx,1,8,B7,72,58,00,00,01,00,4B,
4295333000,00000120,false,Rx,1,4,00,00,08,B3,00,00,00,00,
4295340344,0000011A,false,Rx,1,8,4E,40,00,AA,80,00,03,A6,
4295340573,000001D4,false,Rx,1,8,F7,07,00,00,C7,44,30,BC,
4295340806,000001DB,false,Rx,1,8,FC,20,BA,0B,24,00,00,4C,
4295341037,000001DC,false,Rx,1,8,6E,04,F5,39,EC,DC,C8,94,
4295341269,000001F2,false,Rx,1,8,30,64,20,AC,00,3C,03,8F,
4295341492,0000050B,false,Rx,1,7,00,00,06,C0,00,00,00,00,
4295342829,000001DA,false,Rx,1,8,B7,32,58,00,00,01,01,6C,
4295343000,00000120,false,Rx,1,4,00,00,09,36,00,00,00,00,
4295350341,0000011A,false,Rx,1,8,4E,40,00,AA,C0,00,00,6B,
4295350581,000001D4,false,Rx,1,8,F7,07,00,00,07,44,30,70,
4295350814,000001DB,false,Rx,1,8,FC,20,BA,0B,24,00,01,C9,
4295351035,000001DC,false,Rx,1,8,6E,04,F5,39,E1,0C,E1,D1,
4295351277,000001F2,false,Rx,1,8,30,64,20,AC,00,3C,00,8F,
4295351500,0000050B,false,Rx,1,7,00,00,06,C0,00,00,00,00,
4295352826,000001DA,false,Rx,1,8,B7,32,58,00,00,01,02,66,
4295352997,00000120,false,Rx,1,4,00,00,0A,3C,00,00,00,00,
4295360348,0000011A,false,Rx,1,8,4E,40,00,55,00,00,01,7D,
4295360577,000001D4,false,Rx,1,8,F7,07,00,00,47,44,30,B7,
4295360810,000001DB,false,Rx,1,8,FC,20,BA,0B,24,00,02,C3,
4295361042,000001DC,false,Rx,1,8,6E,04,F5,39,E5,04,C6,C6,
4295361284,000001F2,false,Rx,1,8,30,64,20,AC,00,3C,01,8F,
4295361508,0000050B,false,Rx,1,7,00,00,06,C0,00,00,00,00,
4295362833,000001DA,false,Rx,1,8,B7,72,58,00,00,01,03,41,
4295363003,00000120,false,Rx,1,4,00,00,0B,B9,00,00,00,00,
4295370345,0000011A,false,Rx,1,8,4E,40,00,55,40,00,02,B0,
4295370584,000001D4,false,Rx,1,8,F7,07,00,00,87,44,30,7B,
4295370817,000001DB,false,Rx,1,8,FC,20,BA,0B,24,00,03,46,
4295371048,000001DC,false,Rx,1,8,6E,04,F5,39,E8,C0,C3,7D,
4295371290,000001F2,false,Rx,1,8,30,64,20,AC,00,3C,02,8F,
4295371514,0000050B,false,Rx,1,7,00,00,06,C0,00,00,00,00,
4295372839,000001DA,false,Rx,1,8,B7,72,58,00,00,01,00,4B,
4295373010,00000120,false,Rx,1,4,00,00,0C,28,00,00,00,00,
4295380341,0000011A,false,Rx,1,8,4E,40,00,AA,80,00,03,A6,
4295380570,000001D4,false,Rx,1,8,F7,07,00,00,C7,44,30,BC,
4295380803,000001DB,false,Rx,1,8,FC,20,BA,0B,24,00,00,4C,
4295381035,000001DC,false,Rx,1,8,6E,04,F5,39,EC,DC,C8,94,
4295381267,000001F2,false,Rx,1,8,30,64,20,AC,00,3C,03,8F,
4295381499,0000050B,false,Rx,1,7,00,00,06,C0,00,00,00,00,
4295382826,000001DA,false,Rx,1,8,B7,32,58,00,00,01,01,6C,
4295382996,00000120,false,Rx,1,4,00,00,0D,AD,00,00,00,00,
4295390338,0000011A,false,Rx,1,8,4E,40,00,AA,C0,00,00,6B,
4295390579,000001D4,false,Rx,1,8,F7,07,00,00,07,44,30,70,
4295390820,000001F2,false,Rx,1,8,30,64,20,AC,00,3C,00,8F,
4295391052,000001DB,false,Rx,1,8,FC,20,BA,0B,24,00,01,C9,
4295391273,000001DC,false,Rx,1,8,6E,04,F5,39,E1,0C,E1,D1,
4295391508,0000050B,false,Rx,1,7,00,00,06,C0,00,00,00,00,
4295391729,0000055B,false,Rx,1,8,6A,40,AA,00,B1,C0,10,CA,
4295391960,000005BC,false,Rx,1,8,12,80,B5,50,91,01,01,0E,
4295392835,000001DA,false,Rx,1,8,B7,32,58,00,00,01,02,66,
4295393006,00000120,false,Rx,1,4,00,00,0E,A7,00,00,00,00,
4295400347,0000011A,false,Rx,1,8,4E,40,00,55,00,00,01,7D,
4295400577,000001D4,false,Rx,1,8,F7,07,00,00,47,44,30,B7,
4295400809,000001DB,false,Rx,1,8,FC,40,BA,0B,24,00,02,30,
4295401040,000001DC,false,Rx,1,8,6E,04,F5,39,E5,04,C6,C6,
4295401272,000001F2,false,Rx,1,8,30,64,20,AC,00,3C,01,8F,
4295401506,0000050B,false,Rx,1,7,00,00,06,C0,00,00,00,00,
4295402831,000001DA,false,Rx,1,8,B7,72,58,00,00,01,03,41,
4295403002,00000120,false,Rx,1,4,00,00,0F,22,00,00,00,00,
4295403232,0000055A,false,Rx,1,8,1F,37,37,35,55,00,5B,48,
4295404887,0000055B,false,Rx,1,8,A4,40,AA,00,DF,C0,10,95,
4295405129,0000059E,false,Rx,1,8,00,00,0C,76,18,00,00,00,
4295405362,000005BC,false,Rx,1,8,3D,80,F0,64,B0,01,00,32,
4295410343,0000011A,false,Rx,1,8,4E,40,00,55,40,00,02,B0,
4295410584,000001D4,false,Rx,1,8,F7,07,00,00,87,44,30,7B,
4295410816,000001DB,false,Rx,1,8,FC,40,BA,0B,24,00,03,B5,
4295411047,000001DC,false,Rx,1,8,6E,04,F5,39,E8,C0,C3,7D,
4295411289,000001F2,false,Rx,1,8,30,64,20,AC,00,3C,02,8F,
4295411513,0000050B,false,Rx,1,7,00,00,06,C0,00,00,00,00,
4295412827,000001DA,false,Rx,1,8,B7,72,58,00,00,01,00,4B,
4295412998,00000120,false,Rx,1,4,00,00,00,00,00,00,00,00,
4295414639,00000390,false,Rx,1,8,24,00,01,02,00,00,00,38,
4295419637,00000393,false,Rx,1,8,26,51,00,00,00,00,00,30,
4295420342,0000011A,false,Rx,1,8,4E,40,00,AA,80,00,03,A6,
4295420576,000001D4,false,Rx,1,8,F7,07,00,00,C7,44,30,BC,
4295420807,000001DB,false,Rx,1,8,FC,40,BA,0B,24,00,00,BF,
4295421039,000001DC,false,Rx,1,8,6E,04,F5,39,EC,DC,C8,94,
4295421271,000001F2,false,Rx,1,8,30,64,20,AC,00,3C,03,8F,
4295421504,0000050B,false,Rx,1,7,00,00,06,C0,00,00,00,00,
4295422833,000001DA,false,Rx,1,8,B7,32,58,00,00,01,01,6C,
4295423003,00000120,false,Rx,1,4,00,00,01,85,00,00,00,00,
4295427597,000002B5,false,Rx,1,8,50,00,52,40,12,94,00,C4,
4295427825,000002B6,false,Rx,1,8,51,C8,85,82,88,00,B4,A2,
4295430335,0000011A,false,Rx,1,8,4E,40,00,AA,C0,00,00,6B,
4295430581,000001D4,false,Rx,1,8,F7,07,00,00,07,44,30,70,
4295430812,000001DB,false,Rx,1,8,FC,40,BA,0B,24,00,01,3A,
4295431034,000001DC,false,Rx,1,8,6E,04,F5,39,E1,0C,E1,D1,
4295431277,000001F2,false,Rx,1,8,30,64,20,AC,00,3C,00,8F,
4295431498,0000050B,false,Rx,1,7,00,00,06,C0,00,00,00,00,
4295432828,000001DA,false,Rx,1,8,B7,32,58,00,00,01,02,66,
4295432998,00000120,false,Rx,1,4,00,00,02,8F,00,00,00,00,
4295440339,0000011A,false,Rx,1,8,4E,40,00,55,00,00,01,7D,
4295440580,000001D4,false,Rx,1,8,F7,07,00,00,47,44,30,B7,
4295440811,000001DB,false,Rx,1,8,FC,40,BA,0B,24,00,02,30,
4295441043,000001DC,false,Rx,1,8,6E,04,F5,39,E5,04,C6,C6,
4295441276,000001F2,false,Rx,1,8,30,64,20,AC,00,3C,01,8F,
4295441497,0000050B,false,Rx,1,7,00,00,06,C0,00,00,00,00,
4295442826,000001DA,false,Rx,1,8,B7,72,58,00,00,01,03,41,
4295442995,00000120,false,Rx,1,4,00,00,03,0A,00,00,00,00,
502188,000002A0,false,Tx,1,8,20,0F,01,00,00,60,00,00,
4295450342,0000011A,false,Rx,1,8,4E,40,00,55,40,00,02,B0,
4295450583,000001D4,false,Rx,1,8,F7,07,00,00,87,44,30,7B,
4295450815,000001DB,false,Rx,1,8,FC,60,BA,0B,24,00,03,E4,
4295451046,000001DC,false,Rx,1,8,6E,04,F5,39,E8,C0,C3,7D,
4295451290,000001F2,false,Rx,1,8,30,64,20,AC,00,3C,02,8F,
4295451512,0000050B,false,Rx,1,7,00,00,06,C0,00,00,00,00,
4295452828,000001DA,false,Rx,1,8,B7,72,58,00,00,01,00,4B,
4295452997,00000120,false,Rx,1,4,00,00,04,9B,00,00,00,00,
4295460340,0000011A,false,Rx,1,8,4E,40,00,AA,80,00,03,A6,
4295460570,000001D4,false,Rx,1,8,F7,07,00,00,C7,44,30,BC,
4295460802,000001DB,false,Rx,1,8,FC,60,BA,0B,24,00,00,EE,
4295461034,000001DC,false,Rx,1,8,6E,04,F5,39,EC,DC,C8,94,
4295461266,000001F2,false,Rx,1,8,30,64,20,AC,00,3C,03,8F,
4295461498,0000050B,false,Rx,1,7,00,00,06,C0,00,00,00,00,
4295462825,000001DA,false,Rx,1,8,B7,32,58,00,00,01,01,6C,
4295462995,00000120,false,Rx,1,4,00,00,05,1E,00,00,00,00,
4295470337,0000011A,false,Rx,1,8,4E,40,00,AA,C0,00,00,6B,
4295470577,000001D4,false,Rx,1,8,F7,07,00,00,07,44,30,70,
4295470809,000001DB,false,Rx,1,8,FC,60,BA,0A,24,00,01,7D,
4295471041,000001DC,false,Rx,1,8,6E,04,F5,39,E1,0C,E1,D1,
4295471273,000001F2,false,Rx,1,8,30,64,20,AC,00,3C,00,8F,
4295471506,0000050B,false,Rx,1,7,00,00,06,C0,00,00,00,00,
4295472843,000001DA,false,Rx,1,8,B7,32,58,00,00,01,02,66,
4295473013,00000120,false,Rx,1,4,00,00,06,14,00,00,00,00,
4295480344,0000011A,false,Rx,1,8,4E,40,00,55,00,00,01,7D,
4295480574,000001D4,false,Rx,1,8,F7,07,00,00,47,44,30,B7,
4295480806,000001DB,false,Rx,1,8,FC,60,BA,0A,24,00,02,77,
4295481037,000001DC,false,Rx,1,8,6E,04,F5,39,E5,04,C6,C6,
4295481270,000001F2,false,Rx,1,8,30,64,20,AC,00,3C,01,8F,
4295481502,0000050B,false,Rx,1,7,00,00,06,C0,00,00,00,00,
4295482831,000001DA,false,Rx,1,8,B7,72,58,00,00,01,03,41,
4295483000,00000120,false,Rx,1,4,00,00,07,91,00,00,00,00,
4295490344,0000011A,false,Rx,1,8,4E,40,00,55,40,00,02,B0,
4295490584,000001D4,false,Rx,1,8,F7,07,00,00,87,44,30,7B,
4295490816,000001F2,false,Rx,1,8,30,64,20,AC,00,3C,02,8F,
4295491058,000001DB,false,Rx,1,8,FC,60,BA,0A,24,00,03,F2,
4295491291,000001DC,false,Rx,1,8,6E,04,F5,39,E8,C0,C3,7D,
4295491514,0000050B,false,Rx,1,7,00,00,06,C0,00,00,00,00,
4295491745,0000055B,false,Rx,1,8,6A,40,AA,00,B1,C0,11,4F,
4295491978,000005BC,false,Rx,1,8,12,80,B5,50,91,01,62,B2,
4295492831,000001DA,false,Rx,1,8,B7,72,58,00,00,01,00,4B,
4295493001,00000120,false,Rx,1,4,00,00,08,B3,00,00,00,00,
4295500331,0000011A,false,Rx,1,8,4E,40,00,AA,80,00,03,A6,
4295500571,000001D4,false,Rx,1,8,F7,07,00,00,C7,44,30,BC,
4295500803,000001DB,false,Rx,1,8,FC,60,BA,0A,24,00,00,F8,
4295501035,000001DC,false,Rx,1,8,6E,04,F5,39,EC,DC,C8,94,
4295501267,000001F2,false,Rx,1,8,30,64,20,AC,00,3C,03,8F,
4295501489,0000050B,false,Rx,1,7,00,00,06,C0,00,00,00,00,
4295502827,000001DA,false,Rx,1,8,B7,32,58,00,00,01,01,6C,
4295502996,00000120,false,Rx,1,4,00,00,09,36,00,00,00,00,
4295503227,0000055A,false,Rx,1,8,14,37,37,35,55,00,5B,48,
4295504882,0000055B,false,Rx,1,8,A4,40,AA,00,DF,C0,11,10,
4295505125,0000059E,false,Rx,1,8,00,00,0C,76,18,00,00,00,
4295505357,000005BC,false,Rx,1,8,3D,80,F0,64,B0,01,00,32,
4295510338,0000011A,false,Rx,1,8,4E,40,00,AA,C0,00,00,6B,
4295510569,000001D4,false,Rx,1,8,F7,07,00,00,07,44,30,70,
4295510810,000001DB,false,Rx,1,8,FC,60,BA,0A,24,00,01,7D,
4295511032,000001DC,false,Rx,1,8,6E,04,F5,39,E1,0C,E1,D1,
4295511275,000001F2,false,Rx,1,8,30,64,20,AC,00,3C,00,8F,
4295511496,0000050B,false,Rx,1,7,00,00,06,C0,00,00,00,00,
4295512823,000001DA,false,Rx,1,8,B7,32,58,00,00,01,02,66,
4295512993,00000120,false,Rx,1,4,00,00,0A,3C,00,00,00,00,
4295514737,00000390,false,Rx,1,8,24,00,01,02,00,00,00,05,
4295519749,00000393,false,Rx,1,8,00,51,00,00,00,00,00,05,
4295520338,0000011A,false,Rx,1,8,4E,40,00,55,00,00,01,7D,
4295520572,000001D4,false,Rx,1,8,F7,07,00,00,47,44,30,B7,
4295520804,000001DB,false,Rx,1,8,FC,60,BA,0A,24,00,02,77,
4295521036,000001DC,false,Rx,1,8,6E,04,F5,39,E5,04,C6,C6,
4295521269,000001F2,false,Rx,1,8,30,64,20,AC,00,3C,01,8F,
4295521500,0000050B,false,Rx,1,7,00,00,06,C0,00,00,00,00,
4295522830,000001DA,false,Rx,1,8,B7,72,58,00,00,01,03,41,
4295522989,00000120,false,Rx,1,4,00,00,0B,B9,00,00,00,00,
579632,000002A0,false,Tx,1,8,40,0F,01,00,00,60,00,00,
4295527682,000002B5,false,Rx,1,8,60,00,50,C0,11,C4,00,25,
4295527910,000002B6,false,Rx,1,8,61,C8,86,02,88,00,B4,11,
4295530339,0000011A,false,Rx,1,8,4E,40,00,55,40,00,02,B0,
4295530582,000001D4,false,Rx,1,8,F7,07,00,00,87,44,30,7B,
4295530814,000001DB,false,Rx,1,8,FC,80,BA,0A,24,00,03,C0,
4295531045,000001DC,false,Rx,1,8,6E,04,F5,39,E8,C0,C3,7D,
4295531289,000001F2,false,Rx,1,8,30,64,20,AC,00,3C,02,8F,
4295531511,0000050B,false,Rx,1,7,00,00,06,C0,00,00,00,00,
4295532820,000001DA,false,Rx,1,8,B7,72,58,00,00,01,00,4B,
4295532990,00000120,false,Rx,1,4,00,00,0C,28,00,00,00,00,
4295540331,0000011A,false,Rx,1,8,4E,40,00,AA,80,00,03,A6,
4295540570,000001D4,false,Rx,1,8,F7,07,00,00,C7,44,30,BC,
4295540802,000001DB,false,Rx,1,8,FC,80,BA,0A,24,00,00,CA,
4295541034,000001DC,false,Rx,1,8,6E,04,F5,39,EC,DC,C8,94,
4295541267,000001F2,false,Rx,1,8,30,64,20,AC,00,3C,03,8F,
4295541488,0000050B,false,Rx,1,7,00,00,06,C0,00,00,00,00,
4295542826,000001DA,false,Rx,1,8,B7,32,58,00,00,01,01,6C,
4295542996,00000120,false,Rx,1,4,00,00,0D,AD,00,00,00,00,
4295550340,0000011A,false,Rx,1,8,4E,40,00,AA,C0,00,00,6B,
4295550569,000001D4,false,Rx,1,8,F7,07,00,00,07,44,30,70,
4295550811,000001DB,false,Rx,1,8,FC,80,BA,0A,24,00,01,4F,
4295551032,000001DC,false,Rx,1,8,6E,04,F5,39,E1,0C,E1,D1,
4295551275,000001F2,false,Rx,1,8,30,64,20,AC,00,3C,00,8F,
4295551496,0000050B,false,Rx,1,7,00,00,06,C0,00,00,00,00,
4295552824,000001DA,false,Rx,1,8,B7,32,58,00,00,01,02,66,
4295552993,00000120,false,Rx,1,4,00,00,0E,A7,00,00,00,00,
4295560335,0000011A,false,Rx,1,8,4E,40,00,55,00,00,01,7D,
4295560574,000001D4,false,Rx,1,8,F7,07,00,00,47,44,30,B7,
4295560806,000001DB,false,Rx,1,8,FC,80,BA,0A,24,00,02,45,
4295561038,000001DC,false,Rx,1,8,6E,04,F5,39,E5,04,C6,C6,
4295561270,000001F2,false,Rx,1,8,30,64,20,AC,00,3C,01,8F,
4295561502,0000050B,false,Rx,1,7,00,00,06,C0,00,00,00,00,
4295562830,000001DA,false,Rx,1,8,B7,72,58,00,00,01,03,41,
4295563000,00000120,false,Rx,1,4,00,00,0F,22,00,00,00,00,
4295570342,0000011A,false,Rx,1,8,4E,40,00,55,40,00,02,B0,
4295570581,000001D4,false,Rx,1,8,F7,07,00,00,87,44,30,7B,
4295570813,000001DB,false,Rx,1,8,FC,80,BA,0A,24,00,03,C0,
4295571046,000001DC,false,Rx,1,8,6E,04,F5,39,E8,C0,C3,7D,
4295571287,000001F2,false,Rx,1,8,30,64,20,AC,00,3C,02,8F,
4295571510,0000050B,false,Rx,1,7,00,00,06,C0,00,00,00,00,
4295572836,000001DA,false,Rx,1,8,B7,72,58,00,00,01,00,4B,
4295573016,00000120,false,Rx,1,4,00,00,00,00,00,00,00,00,
4295580328,0000011A,false,Rx,1,8,4E,40,00,AA,80,00,03,A6,
4295580567,000001D4,false,Rx,1,8,F7,07,00,00,C7,44,30,BC,
4295580799,000001DB,false,Rx,1,8,FC,80,BA,0A,24,00,00,CA,
4295581032,000001DC,false,Rx,1,8,6E,04,F5,39,EC,DC,C8,94,
4295581264,000001F2,false,Rx,1,8,30,64,20,AC,00,3C,03,8F,
4295581485,0000050B,false,Rx,1,7,00,00,06,C0,00,00,00,00,
4295582823,000001DA,false,Rx,1,8,B7,32,58,00,00,01,01,6C,
4295582992,00000120,false,Rx,1,4,00,00,01,85,00,00,00,00,
4295590335,0000011A,false,Rx,1,8,4E,40,00,AA,C0,00,00,6B,
4295590574,000001D4,false,Rx,1,8,F7,07,00,00,07,44,30,70,
4295590816,000001F2,false,Rx,1,8,30,64,20,AC,00,3C,00,8F,
4295591049,000001DB,false,Rx,1,8,FC,80,BA,0A,24,00,01,4F,
4295591270,000001DC,false,Rx,1,8,6E,04,F5,39,E1,0C,E1,D1,
4295591502,0000050B,false,Rx,1,7,00,00,06,C0,00,00,00,00,
4295591724,0000055B,false,Rx,1,8,6A,40,AA,00,B1,C0,12,45,
4295591957,000005BC,false,Rx,1,8,12,80,B5,50,91,02,40,5A,
4295592831,000001DA,false,Rx,1,8,B7,32,58,00,00,01,02,66,
4295593001,00000120,false,Rx,1,4,00,00,02,8F,00,00,00,00,
4295600344,0000011A,false,Rx,1,8,4E,40,00,55,00,00,01,7D,
4295600573,000001D4,false,Rx,1,8,F7,07,00,00,47,44,30,B7,
4295600805,000001F2,false,Rx,1,8,30,64,20,AC,00,3C,01,8F,
4295601048,000001DB,false,Rx,1,8,FC,A0,BA,0A,24,00,02,14,
4295601269,000001DC,false,Rx,1,8,6E,04,F5,39,E5,04,C6,C6,
4295601501,0000050B,false,Rx,1,7,00,00,06,C0,00,00,00,00,
4295601733,0000059E,false,Rx,1,8,00,00,0A,11,D8,00,00,00,
4295601977,000005C0,false,Rx,1,8,C0,60,62,FF,72,C8,1F,03,
4295602830,000001DA,false,Rx,1,8,B7,72,58,00,00,01,03,41,
4295603000,00000120,false,Rx,1,4,00,00,03,0A,00,00,00,00,
4295603230,0000055A,false,Rx,1,8,19,37,37,35,55,00,5B,48,
4295604875,0000055B,false,Rx,1,8,A4,40,AA,00,DF,C0,12,1A,
4295605117,0000059E,false,Rx,1,8,00,00,0C,76,18,00,00,00,
4295605359,000005BC,false,Rx,1,8,3D,80,F0,64,B0,01,00,32,
4295610342,0000011A,false,Rx,1,8,4E,40,00,55,40,00,02,B0,
4295610581,000001D4,false,Rx,1,8,F7,07,00,00,87,44,30,7B,
4295610813,000001DB,false,Rx,1,8,FC,A0,BA,0A,24,00,03,91,
4295611046,000001DC,false,Rx,1,8,6E,04,F5,39,E8,C0,C3,7D,
4295611288,000001F2,false,Rx,1,8,30,64,20,AC,00,3C,02,8F,
4295611510,0000050B,false,Rx,1,7,00,00,06,C0,00,00,00,00,
4295612826,000001DA,false,Rx,1,8,B8,72,58,00,00,01,00,66,
4295612996,00000120,false,Rx,1,4,00,00,04,9B,00,00,00,00,
4295614844,00000390,false,Rx,1,8,24,00,01,02,00,00,00,16,
4295619845,00000393,false,Rx,1,8,26,51,00,00,00,00,00,1E,
4295620333,0000011A,false,Rx,1,8,4E,40,00,AA,80,00,03,A6,
4295620566,000001D4,false,Rx,1,8,F7,07,00,00,C7,44,30,BC,
4295620798,000001DB,false,Rx,1,8,FC,A0,BA,0A,24,00,00,9B,
4295621031,000001DC,false,Rx,1,8,6E,04,F5,39,EC,DC,C8,94,
4295621262,000001F2,false,Rx,1,8,30,64,20,AC,00,3C,03,8F,
4295621483,0000050B,false,Rx,1,7,00,00,06,C0,00,00,00,00,
4295622824,000001DA,false,Rx,1,8,B8,32,58,00,00,01,01,41,
4295622993,00000120,false,Rx,1,4,00,00,05,1E,00,00,00,00,
4295627595,000002B5,false,Rx,1,8,70,00,4F,40,10,E7,00,88,
4295627833,000002B6,false,Rx,1,8,71,C8,86,02,88,00,B4,01,
4295630334,0000011A,false,Rx,1,8,4E,40,00,AA,C0,00,00,6B,
4295630567,000001D4,false,Rx,1,8,F7,07,00,00,07,44,30,70,
4295630810,000001DB,false,Rx,1,8,FC,A0,BA,0A,24,00,01,1E,
4295631032,000001DC,false,Rx,1,8,6E,04,F5,39,E1,0C,E1,D1,
4295631274,000001F2,false,Rx,1,8,30,64,20,AC,00,3C,00,8F,
4295631495,0000050B,false,Rx,1,7,00,00,06,C0,00,00,00,00,
4295632825,000001DA,false,Rx,1,8,B8,32,58,00,00,01,02,4B,
4295632995,00000120,false,Rx,1,4,00,00,06,14,00,00,00,00,
4295640339,0000011A,false,Rx,1,8,4E,40,00,55,00,00,01,7D,
4295640568,000001D4,false,Rx,1,8,F7,07,00,00,47,44,30,B7,
4295640800,000001DB,false,Rx,1,8,FC,A0,BA,0A,24,00,02,14,
4295641033,000001DC,false,Rx,1,8,6E,04,F5,39,E5,04,C6,C6,
4295641275,000001F2,false,Rx,1,8,30,64,20,AC,00,3C,01,8F,
4295641496,0000050B,false,Rx,1,7,00,00,06,C0,00,00,00,00,
4295642824,000001DA,false,Rx,1,8,B8,72,58,00,00,01,03,6C,
4295642993,00000120,false,Rx,1,4,00,00,07,91,00,00,00,00,
702399,000002A0,false,Tx,1,8,80,0F,01,00,00,60,00,00,
4295650510,0000011A,false,Rx,1,8,4E,40,00,55,40,00,02,B0,
4295650748,000001D4,false,Rx,1,8,F7,07,00,00,87,44,30,7B,
4295650981,000001DB,false,Rx,1,8,FC,A0,BA,0A,24,00,03,91,
4295651213,000001DC,false,Rx,1,8,6E,04,F5,39,E8,C0,C3,7D,
4295651455,000001F2,false,Rx,1,8,30,64,20,AC,00,3C,02,8F,
4295651677,0000050B,false,Rx,1,7,00,00,06,C0,00,00,00,00,
4295652827,000001DA,false,Rx,1,8,B8,72,58,00,00,01,00,66,
4295652997,00000120,false,Rx,1,4,00,00,08,B3,00,00,00,00,
4295660326,0000011A,false,Rx,1,8,4E,40,00,AA,80,00,03,A6,
4295660565,000001D4,false,Rx,1,8,F7,07,00,00,C7,44,30,BC,
4295660797,000001DB,false,Rx,1,8,FC,A0,BA,0A,24,00,00,9B,
4295661020,000001DC,false,Rx,1,8,6E,04,F5,39,EC,DC,C8,94,
4295661262,000001F2,false,Rx,1,8,30,64,20,AC,00,3C,03,8F,
4295661483,0000050B,false,Rx,1,7,00,00,06,C0,00,00,00,00,
4295662821,000001DA,false,Rx,1,8,B8,32,58,00,00,01,01,41,
4295662990,00000120,false,Rx,1,4,00,00,09,36,00,00,00,00,
4295670334,0000011A,false,Rx,1,8,4E,40,00,AA,C0,00,00,6B,
4295670573,000001D4,false,Rx,1,8,F7,07,00,00,07,44,30,70,
4295670804,000001DB,false,Rx,1,8,FC,C0,BA,0A,24,00,01,ED,
4295671027,000001DC,false,Rx,1,8,6E,04,F5,39,E1,0C,E1,D1,
4295671269,000001F2,false,Rx,1,8,30,64,20,AC,00,3C,00,8F,
4295671490,0000050B,false,Rx,1,7,00,00,06,C0,00,00,00,00,
4295672829,000001DA,false,Rx,1,8,B8,32,58,00,00,01,02,4B,
4295672999,00000120,false,Rx,1,4,00,00,0A,3C,00,00,00,00,
4295680341,0000011A,false,Rx,1,8,4E,40,00,55,00,00,01,7D,
4295680570,000001D4,false,Rx,1,8,F7,07,00,00,47,44,30,B7,
4295680802,000001DB,false,Rx,1,8,FC,C0,BA,0A,24,00,02,E7,
4295681035,000001DC,false,Rx,1,8,6E,04,F5,39,E5,04,C6,C6,
4295681277,000001F2,false,Rx,1,8,30,64,20,AC,00,3C,01,8F,
4295681498,0000050B,false,Rx,1,7,00,00,06,C0,00,00,00,00,
4295682826,000001DA,false,Rx,1,8,B8,72,58,00,00,01,03,6C,
4295682995,00000120,false,Rx,1,4,00,00,0B,B9,00,00,00,00,
4295690337,0000011A,false,Rx,1,8,4E,40,00,55,40,00,02,B0,
4295690577,000001D4,false,Rx,1,8,F7,07,00,00,87,44,30,7B,
4295690808,000001F2,false,Rx,1,8,30,64,20,AC,00,3C,02,8F,
4295691052,000001DB,false,Rx,1,8,FC,C0,BA,0A,24,00,03,62,
4295691283,000001DC,false,Rx,1,8,6E,04,F5,39,E8,C0,C3,7D,
4295691506,0000050B,false,Rx,1,7,00,00,06,C0,00,00,00,00,
4295691739,0000055B,false,Rx,1,8,6A,40,AA,00,B1,80,13,5D,
4295691971,000005BC,false,Rx,1,8,12,80,64,50,90,02,A0,96,
4295692834,000001DA,false,Rx,1,8,B8,72,58,00,00,01,00,66,
4295693004,00000120,false,Rx,1,4,00,00,0C,28,00,00,00,00,
4295700335,0000011A,false,Rx,1,8,4E,40,00,AA,80,00,03,A6,
4295700564,000001D4,false,Rx,1,8,F7,07,00,00,C7,44,30,BC,
4295700796,000001DB,false,Rx,1,8,FC,C0,BA,0A,24,00,00,68,
4295701029,000001DC,false,Rx,1,8,6E,04,F5,39,EC,DC,C8,94,
4295701260,000001F2,false,Rx,1,8,30,64,20,AC,00,3C,03,8F,
4295701492,0000050B,false,Rx,1,7,00,00,06,C0,00,00,00,00,
4295702841,000001DA,false,Rx,1,8,B8,32,58,00,00,01,01,41,
4295703010,00000120,false,Rx,1,4,00,00,0D,AD,00,00,00,00,
4295703232,0000055A,false,Rx,1,8,1A,37,37,35,55,00,5B,48,
4295704876,0000055B,false,Rx,1,8,A4,40,AA,00,DF,C0,13,9F,
4295705118,0000059E,false,Rx,1,8,00,00,0C,76,18,00,00,00,
4295705359,000005BC,false,Rx,1,8,3D,80,F0,64,B0,01,00,32,
4295710331,0000011A,false,Rx,1,8,4E,40,00,AA,C0,00,00,6B,
4295710571,000001D4,false,Rx,1,8,F7,07,00,00,07,44,30,70,
4295710802,000001DB,false,Rx,1,8,FC,C0,BA,0A,24,00,01,ED,
4295711025,000001DC,false,Rx,1,8,6E,04,F5,39,E1,0C,E1,D1,
4295711267,000001F2,false,Rx,1,8,30,64,20,AC,00,3C,00,8F,
4295711499,0000050B,false,Rx,1,7,00,00,06,C0,00,00,00,00,
4295712826,000001DA,false,Rx,1,8,B8,32,58,00,00,01,02,4B,
4295712996,00000120,false,Rx,1,4,00,00,0E,A7,00,00,00,00,
4295714937,00000390,false,Rx,1,8,24,00,01,02,00,00,00,27,
4295719940,00000393,false,Rx,1,8,00,51,00,00,00,00,00,27,
4295720335,0000011A,false,Rx,1,8,4E,40,00,55,00,00,01,7D,
4295720568,000001D4,false,Rx,1,8,F7,07,00,00,47,44,30,B7,
4295720801,000001DB,false,Rx,1,8,FC,C0,BA,0A,24,00,02,E7,
4295721032,000001DC,false,Rx,1,8,6E,04,F5,39,E5,04,C6,C6,
4295721274,000001F2,false,Rx,1,8,30,64,20,AC,00,3C,01,8F,
4295721495,0000050B,false,Rx,1,7,00,00,06,C0,00,00,00,00,
4295722825,000001DA,false,Rx,1,8,B8,72,58,00,00,01,03,6C,
4295722995,00000120,false,Rx,1,4,00,00,0F,22,00,00,00,00,
779319,000002A0,false,Tx,1,8,00,1F,01,00,00,60,00,00,
4295727612,000002B5,false,Rx,1,8,80,00,4E,80,10,63,00,3D,
4295727840,000002B6,false,Rx,1,8,81,C8,86,02,88,00,B4,F1,
4295730330,0000011A,false,Rx,1,8,4E,40,00,55,40,00,02,B0,
4295730573,000001D4,false,Rx,1,8,F7,07,00,00,87,44,30,7B,
4295730806,000001DB,false,Rx,1,8,FC,C0,BA,0A,24,00,03,62,
4295731038,000001DC,false,Rx,1,8,6E,04,F5,39,E8,C0,C3,7D,
4295731280,000001F2,false,Rx,1,8,30,64,20,AC,00,3C,02,8F,
4295731501,0000050B,false,Rx,1,7,00,00,06,C0,00,00,00,00,
4295732831,000001DA,false,Rx,1,8,B8,72,58,00,00,01,00,66,
4295733000,00000120,false,Rx,1,4,00,00,00,00,00,00,00,00,
4295740333,0000011A,false,Rx,1,8,4E,40,00,AA,80,00,03,A6,
4295740562,000001D4,false,Rx,1,8,F7,07,00,00,C7,44,30,BC,
4295740795,000001DB,false,Rx,1,8,FC,C0,BA,0A,24,00,00,68,
4295741027,000001DC,false,Rx,1,8,6E,04,F5,39,EC,DC,C8,94,
4295741259,000001F2,false,Rx,1,8,30,64,20,AC,00,3C,03,8F,
4295741490,0000050B,false,Rx,1,7,00,00,06,C0,00,00,00,00,
4295742829,000001DA,false,Rx,1,8,B8,32,58,00,00,01,01,41,
4295742999,00000120,false,Rx,1,4,00,00,01,85,00,00,00,00,
4295750330,0000011A,false,Rx,1,8,4E,40,00,AA,C0,00,00,6B,
4295750570,000001D4,false,Rx,1,8,F7,07,00,00,07,44,30,70,
4295750803,000001DB,false,Rx,1,8,FD,00,BA,0A,24,00,01,89,
4295751035,000001DC,false,Rx,1,8,6E,04,F5,39,E1,0C,E1,D1,
4295751266,000001F2,false,Rx,1,8,30,64,20,AC,00,3C,00,8F,
4295751498,0000050B,false,Rx,1,7,00,00,06,C0,00,00,00,00,
4295752825,000001DA,false,Rx,1,8,B8,32,58,00,00,01,02,4B,
4295752995,00000120,false,Rx,1,4,00,00,02,8F,00,00,00,00,
4295760338,0000011A,false,Rx,1,8,4E,40,00,55,00,00,01,7D,
4295760567,000001D4,false,Rx,1,8,F7,07,00,00,47,44,30,B7,
4295760800,000001DB,false,Rx,1,8,FD,40,BA,0A,24,00,02,21,
4295761032,000001DC,false,Rx,1,8,6E,04,F5,39,E5,04,C6,C6,
4295761274,000001F2,false,Rx,1,8,30,64,20,AC,00,3C,01,8F,
4295761495,0000050B,false,Rx,1,7,00,00,06,C0,00,00,00,00,
4295762822,000001DA,false,Rx,1,8,B8,72,58,00,00,01,03,6C,
4295762992,00000120,false,Rx,1,4,00,00,03,0A,00,00,00,00,
4295770334,0000011A,false,Rx,1,8,4E,40,00,55,40,00,02,B0,
4295770573,000001D4,false,Rx,1,8,F7,07,00,00,87,44,30,7B,
4295770806,000001DB,false,Rx,1,8,FD,A0,BA,0A,24,00,03,96,
4295771038,000001DC,false,Rx,1,8,6E,04,F5,39,E8,C0,C3,7D,
4295771280,000001F2,false,Rx,1,8,30,64,20,AC,00,3C,02,8F,
4295771503,0000050B,false,Rx,1,7,00,00,06,C0,00,00,00,00,
4295772829,000001DA,false,Rx,1,8,B8,72,58,00,00,01,00,66,
4295772998,00000120,false,Rx,1,4,00,00,04,9B,00,00,00,00,
4295780330,0000011A,false,Rx,1,8,4E,40,00,AA,80,00,03,A6,
4295780559,000001D4,false,Rx,1,8,F7,07,00,00,C7,44,30,BC,
4295780802,000001DB,false,Rx,1,8,FD,E0,BA,0A,24,00,00,3E,
4295781034,000001DC,false,Rx,1,8,6E,04,F5,39,EC,DC,C8,94,
4295781265,000001F2,false,Rx,1,8,30,64,20,AC,00,3C,03,8F,
4295781488,0000050B,false,Rx,1,7,00,00,06,C0,00,00,00,00,
4295782824,000001DA,false,Rx,1,8,B9,32,58,00,00,01,01,46,
4295782983,00000120,false,Rx,1,4,00,00,05,1E,00,00,00,00,
4295790326,0000011A,false,Rx,1,8,4E,40,00,AA,C0,00,00,6B,
4295790565,000001D4,false,Rx,1,8,F7,07,00,00,07,44,30,70,
4295790808,000001F2,false,Rx,1,8,30,64,20,AC,00,3C,00,8F,
4295791040,000001DB,false,Rx,1,8,FE,20,BA,0A,24,00,01,D1,
4295791261,000001DC,false,Rx,1,8,6E,04,F5,39,E1,0C,E1,D1,
4295791494,0000050B,false,Rx,1,7,00,00,06,C0,00,00,00,00,
4295791727,0000055B,false,Rx,1,8,6A,40,AA,00,B1,80,10,57,
4295791959,000005BC,false,Rx,1,8,12,80,64,50,90,03,01,C2,
4295792833,000001DA,false,Rx,1,8,B9,32,58,00,00,01,02,4C,
4295792993,00000120,false,Rx,1,4,00,00,06,14,00,00,00,00,
4295800334,0000011A,false,Rx,1,8,4E,40,00,55,00,00,01,7D,
4295800563,000001D4,false,Rx,1,8,F7,07,00,00,47,44,30,B7,
4295800807,000001DB,false,Rx,1,8,FE,80,BA,0A,24,00,02,4B,
4295801028,000001DC,false,Rx,1,8,6E,04,F5,39,E5,04,C6,C6,
4295801270,000001F2,false,Rx,1,8,30,64,20,AC,00,3C,01,8F,
4295801492,0000050B,false,Rx,1,7,00,00,06,C0,00,00,00,00,
4295802819,000001DA,false,Rx,1,8,B9,72,58,00,00,01,03,6B,
4295802990,00000120,false,Rx,1,4,00,00,07,91,00,00,00,00,
4295803220,0000055A,false,Rx,1,8,1F,37,37,35,55,00,5B,48,
4295804875,0000055B,false,Rx,1,8,A4,40,AA,00,DF,C0,10,95,
4295805116,0000059E,false,Rx,1,8,00,00,0C,76,18,00,00,00,
4295805349,000005BC,false,Rx,1,8,3D,80,F0,64,B0,01,00,32,
4295810331,0000011A,false,Rx,1,8,4E,40,00,55,40,00,02,B0,
4295810570,000001D4,false,Rx,1,8,F7,07,00,00,87,44,30,7B,
4295810803,000001DB,false,Rx,1,8,FE,C0,BA,0A,24,00,03,6C,
4295811035,000001DC,false,Rx,1,8,6E,04,F5,39,E8,C0,C3,7D,
4295811277,000001F2,false,Rx,1,8,30,64,20,AC,00,3C,02,8F,
4295811499,0000050B,false,Rx,1,7,00,00,06,C0,00,00,00,00,
4295812826,000001DA,false,Rx,1,8,B9,72,58,00,00,01,00,61,
4295812996,00000120,false,Rx,1,4,00,00,08,B3,00,00,00,00,
4295815041,00000390,false,Rx,1,8,24,00,01,02,00,00,00,38,
4295820036,00000393,false,Rx,1,8,26,51,00,00,00,00,00,30,
4295820326,0000011A,false,Rx,1,8,4E,40,00,AA,80,00,03,A6,
4295820560,000001D4,false,Rx,1,8,F7,07,00,00,C7,44,30,BC,
4295820793,000001DB,false,Rx,1,8,FF,00,BA,0A,24,00,00,02,
4295821025,000001DC,false,Rx,1,8,6E,04,F5,39,EC,DC,C8,94,
4295821256,000001F2,false,Rx,1,8,30,64,20,AC,00,3C,03,8F,
4295821489,0000050B,false,Rx,1,7,00,00,06,C0,00,00,00,00,
4295822828,000001DA,false,Rx,1,8,B9,32,58,00,00,01,01,46,
4295822988,00000120,false,Rx,1,4,00,00,09,36,00,00,00,00,
879614,000002A0,false,Tx,1,8,00,2F,01,00,00,60,00,00,
4295827614,000002B5,false,Rx,1,8,90,00,32,00,00,00,00,A2,
4295827852,000002B6,false,Rx,1,8,90,00,87,82,88,00,B4,A9,
4295830332,0000011A,false,Rx,1,8,4E,40,00,AA,C0,00,00,6B,
4295830565,000001D4,false,Rx,1,8,F7,07,00,00,07,44,30,70,
4295830798,000001DB,false,Rx,1,8,FF,60,BA,0A,24,00,01,74,
4295831030,000001DC,false,Rx,1,8,6E,04,F5,39,E1,0C,E1,D1,
4295831261,000001F2,false,Rx,1,8,30,64,20,AC,00,3C,00,8F,
4295831494,0000050B,false,Rx,1,7,00,00,06,C0,00,00,00,00,
4295832822,000001DA,false,Rx,1,8,B9,32,58,00,00,01,02,4C,
4295832993,00000120,false,Rx,1,4,00,00,0A,3C,00,00,00,00,
4295840334,0000011A,false,Rx,1,8,4E,40,00,55,00,00,01,7D,
4295840563,000001D4,false,Rx,1,8,F7,07,00,00,47,44,30,B7,
4295840796,000001DB,false,Rx,1,8,FF,A0,BA,0A,24,00,02,1D,
4295841028,000001DC,false,Rx,1,8,6E,04,F5,35,E5,04,C6,2E,
4295841270,000001F2,false,Rx,1,8,30,64,20,AC,00,3C,01,8F,
4295841492,0000050B,false,Rx,1,7,00,00,06,C0,00,00,00,00,
4295842818,000001DA,false,Rx,1,8,B9,72,58,00,00,01,03,6B,
4295842989,00000120,false,Rx,1,4,00,00,0B,B9,00,00,00,00,
4295850330,0000011A,false,Rx,1,8,4E,40,00,55,40,00,02,B0,
4295850569,000001D4,false,Rx,1,8,F7,07,00,00,87,44,30,7B,
4295850802,000001DB,false,Rx,1,8,FF,A0,BA,0A,24,00,03,98,
4295851034,000001DC,false,Rx,1,8,6E,04,F5,35,E8,C0,C3,95,
4295851276,000001F2,false,Rx,1,8,30,64,20,AC,00,3C,02,8F,
4295851498,0000050B,false,Rx,1,7,00,00,06,C0,00,00,00,00,
4295852824,000001DA,false,Rx,1,8,B9,72,58,00,00,01,00,61,
4295852985,00000120,false,Rx,1,4,00,00,0C,28,00,00,00,00,
4295860326,0000011A,false,Rx,1,8,4E,40,00,AA,80,00,03,A6,
4295860555,000001D4,false,Rx,1,8,F7,07,00,00,C7,44,30,BC,
4295860798,000001DB,false,Rx,1,8,FF,A0,BA,0A,24,00,00,92,
4295861019,000001DC,false,Rx,1,8,6E,04,F5,35,EC,DC,C8,7C,
4295861261,000001F2,false,Rx,1,8,30,64,20,AC,00,3C,03,8F,
4295861484,0000050B,false,Rx,1,7,00,00,06,C0,00,00,00,00,
4295862820,000001DA,false,Rx,1,8,B9,32,58,00,00,01,01,46,
4295862991,00000120,false,Rx,1,4,00,00,0D,AD,00,00,00,00,
4295870323,0000011A,false,Rx,1,8,4E,40,00,AA,C0,00,00,6B,
4295870564,000001D4,false,Rx,1,8,F7,07,00,00,07,44,30,70,
4295870795,000001DB,false,Rx,1,8,FF,A0,BA,0A,24,00,01,17,
4295871027,000001DC,false,Rx,1,8,6E,04,F5,35,E1,0C,E1,39,
4295871269,000001F2,false,Rx,1,8,30,64,20,AC,00,3C,00,8F,
4295871492,0000050B,false,Rx,1,7,00,00,06,C0,00,00,00,00,
4295872828,000001DA,false,Rx,1,8,B9,32,58,00,00,01,02,4C,
4295872999,00000120,false,Rx,1,4,00,00,0E,A7,00,00,00,00,
4295880329,0000011A,false,Rx,1,8,4E,40,00,55,00,00,01,7D,
4295880559,000001D4,false,Rx,1,8,F7,07,00,00,47,44,30,B7,
4295880801,000001DB,false,Rx,1,8,FF,A0,BA,0A,24,00,02,1D,
4295881023,000001DC,false,Rx,1,8,6E,04,F5,35,E5,04,C6,2E,
4295881265,000001F2,false,Rx,1,8,30,64,20,AC,00,3C,01,8F,
4295881487,0000050B,false,Rx,1,7,00,00,06,C0,00,00,00,00,
4295882824,000001DA,false,Rx,1,8,B9,72,58,00,00,01,03,6B,
4295882985,00000120,false,Rx,1,4,00,00,0F,22,00,00,00,00,
4295890336,0000011A,false,Rx,1,8,4E,40,00,55,40,00,02,B0,
4295890567,000001D4,false,Rx,1,8,F7,07,00,00,87,44,30,7B,
4295890808,000001F2,false,Rx,1,8,30,64,20,AC,00,3C,02,8F,
4295891040,000001DB,false,Rx,1,8,FF,A0,BA,0A,24,00,03,98,
4295891272,000001DC,false,Rx,1,8,6E,04,F5,35,E8,C0,C3,95,
4295891494,0000050B,false,Rx,1,7,00,00,06,C0,00,00,00,00,
4295891727,0000055B,false,Rx,1,8,6A,40,AA,00,B5,00,11,8B,
4295891969,000005BC,false,Rx,1,8,12,80,64,50,90,00,1F,FF,
4295892834,000001DA,false,Rx,1,8,B9,72,58,00,00,01,00,61,
4295893004,00000120,false,Rx,1,4,00,00,00,00,00,00,00,00,
4295900324,0000011A,false,Rx,1,8,4E,40,00,AA,80,00,03,A6,
4295900554,000001D4,false,Rx,1,8,F7,07,00,00,C7,44,30,BC,
4295900796,000001DB,false,Rx,1,8,FF,A0,BA,0A,24,00,00,92,
4295901017,000001DC,false,Rx,1,8,6E,04,F5,35,EC,DC,C8,7C,
4295901259,000001F2,false,Rx,1,8,30,64,20,AC,00,3C,03,8F,
4295901482,0000050B,false,Rx,1,7,00,00,06,C0,00,00,00,00,
4295902831,000001DA,false,Rx,1,8,B9,32,58,00,00,01,01,46,
4295903000,00000120,false,Rx,1,4,00,00,01,85,00,00,00,00,
4295903220,0000055A,false,Rx,1,8,14,37,37,35,55,00,5B,48,
4295904874,0000055B,false,Rx,1,8,A4,40,AA,00,DF,C0,11,10,
4295905106,0000059E,false,Rx,1,8,00,00,0C,76,18,00,00,00,
4295905349,000005BC,false,Rx,1,8,3D,80,F0,64,B0,01,00,32,
4295910320,0000011A,false,Rx,1,8,4E,40,00,AA,C0,00,00,6B,
4295910561,000001D4,false,Rx,1,8,F7,07,00,00,07,44,30,70,
4295910792,000001DB,false,Rx,1,8,FF,A0,BA,0A,24,00,01,17,
4295911024,000001DC,false,Rx,1,8,6E,04,F5,35,E1,0C,E1,39,
4295911267,000001F2,false,Rx,1,8,30,64,20,AC,00,3C,00,8F,
4295911489,0000050B,false,Rx,1,7,00,00,06,C0,00,00,00,00,
4295912816,000001DA,false,Rx,1,8,B9,32,58,00,00,01,02,4C,
4295912986,00000120,false,Rx,1,4,00,00,02,8F,00,00,00,00,
4295915146,00000390,false,Rx,1,8,24,00,01,02,00,00,00,05,
4295920142,00000393,false,Rx,1,8,00,51,00,00,00,00,00,05,
4295920380,0000011A,false,Rx,1,8,4E,40,00,55,00,00,01,7D,
4295920614,000001D4,false,Rx,1,8,F7,07,00,00,47,44,30,B7,
4295920846,000001DB,false,Rx,1,8,FF,A0,BA,0A,24,00,02,1D,
4295921078,000001DC,false,Rx,1,8,6E,04,F5,35,E5,04,C6,2E,
4295921321,000001F2,false,Rx,1,8,30,64,20,AC,00,3C,01,8F,
4295921543,0000050B,false,Rx,1,7,00,00,06,C0,00,00,00,00,
4295922820,000001DA,false,Rx,1,8,B9,72,58,00,00,01,03,6B,
4295922989,00000120,false,Rx,1,4,00,00,03,0A,00,00,00,00,
4295927608,000002B5,false,Rx,1,8,A0,00,32,00,00,00,00,92,
4295927846,000002B6,false,Rx,1,8,A0,00,87,82,88,00,B4,99,
4295930325,0000011A,false,Rx,1,8,4E,40,00,55,40,00,02,B0,
4295930570,000001D4,false,Rx,1,8,F7,07,00,00,87,44,30,7B,
4295930802,000001DB,false,Rx,1,8,FF,A0,BA,0A,24,00,03,98,
4295931034,000001DC,false,Rx,1,8,6E,04,F5,35,E8,C0,C3,95,
4295931267,000001F2,false,Rx,1,8,30,64,20,AC,00,3C,02,8F,
4295931498,0000050B,false,Rx,1,7,00,00,06,C0,00,00,00,00,
4295932817,000001DA,false,Rx,1,8,B9,72,58,00,00,01,00,61,
4295932987,00000120,false,Rx,1,4,00,00,04,9B,00,00,00,00,
4295940328,0000011A,false,Rx,1,8,4E,40,00,AA,80,00,03,A6,
4295940558,000001D4,false,Rx,1,8,F7,07,00,00,C7,44,30,BC,
4295940790,000001DB,false,Rx,1,8,FF,C0,BA,0A,24,00,00,61,
4295941021,000001DC,false,Rx,1,8,6E,04,F5,35,EC,DC,C8,7C,
4295941254,000001F2,false,Rx,1,8,30,64,20,AC,00,3C,03,8F,
4295941486,0000050B,false,Rx,1,7,00,00,06,C0,00,00,00,00,
4295942824,000001DA,false,Rx,1,8,B9,32,58,00,00,01,01,46,
4295942993,00000120,false,Rx,1,4,00,00,05,1E,00,00,00,00,
4295950324,0000011A,false,Rx,1,8,4E,40,00,AA,C0,00,00,6B,
4295950564,000001D4,false,Rx,1,8,F7,07,00,00,07,44,30,70,
4295950796,000001DB,false,Rx,1,8,FF,C0,B8,CA,24,00,01,A8,
4295951027,000001DC,false,Rx,1,8,6E,04,F5,35,E1,0C,E1,39,
4295951260,000001F2,false,Rx,1,8,30,64,20,AC,00,3C,00,8F,
4295951492,0000050B,false,Rx,1,7,00,00,06,C0,00,00,00,00,
1006682,000002A0,false,Tx,1,8,00,4F,01,00,00,60,00,00,
4295952820,000001DA,false,Rx,1,8,B9,32,58,00,00,01,02,4C,
4295952990,00000120,false,Rx,1,4,00,00,06,14,00,00,00,00,
4295960329,0000011A,false,Rx,1,8,4E,40,00,55,00,00,01,7D,
4295960560,000001D4,false,Rx,1,8,F7,07,00,00,47,44,30,B7,
4295960802,000001DB,false,Rx,1,8,FF,C0,B8,CA,24,00,02,A2,
4295961023,000001DC,false,Rx,1,8,6E,04,F5,35,E5,04,C6,2E,
4295961266,000001F2,false,Rx,1,8,30,64,20,AC,00,3C,01,8F,
4295961487,0000050B,false,Rx,1,7,00,00,06,C0,00,00,00,00,
4295962826,000001DA,false,Rx,1,8,B9,72,58,00,00,01,03,6B,
4295962985,00000120,false,Rx,1,4,00,00,07,91,00,00,00,00,
4295970326,0000011A,false,Rx,1,8,4E,40,00,55,40,00,02,B0,
4295970566,000001D4,false,Rx,1,8,F7,07,00,00,87,44,30,7B,
4295970798,000001DB,false,Rx,1,8,FF,C0,B8,CA,24,00,03,27,
4295971030,000001DC,false,Rx,1,8,6E,04,F5,35,E8,C0,C3,95,
4295971263,000001F2,false,Rx,1,8,30,64,20,AC,00,3C,02,8F,
4295971494,0000050B,false,Rx,1,7,00,00,06,C0,00,00,00,00,
4295972832,000001DA,false,Rx,1,8,B9,72,58,00,00,01,00,61,
4295973002,00000120,false,Rx,1,4,00,00,08,B3,00,00,00,00,
4295980322,0000011A,false,Rx,1,8,4E,40,00,AA,80,00,03,A6,
4295980553,000001D4,false,Rx,1,8,F7,07,00,00,C7,44,30,BC,
4295980795,000001DB,false,Rx,1,8,FF,C0,B8,CA,24,00,00,2D,
4295981016,000001DC,false,Rx,1,8,6E,04,F5,35,EC,DC,C8,7C,
4295981259,000001F2,false,Rx,1,8,30,64,20,AC,00,3C,03,8F,
4295981480,0000050B,false,Rx,1,7,00,00,06,C0,00,00,00,00,
4295982818,000001DA,false,Rx,1,8,B9,32,58,00,00,01,01,46,
4295982987,00000120,false,Rx,1,4,00,00,09,36,00,00,00,00,
4295990328,0000011A,false,Rx,1,8,4E,40,00,AA,C0,00,00,6B,
4295990558,000001D4,false,Rx,1,8,F7,07,00,00,07,44,30,70,
4295990800,000001F2,false,Rx,1,8,30,64,20,AC,00,3C,00,8F,
4295991032,000001DB,false,Rx,1,8,FF,C0,B8,CA,24,00,01,A8,
4295991265,000001DC,false,Rx,1,8,6E,04,F5,35,E1,0C,E1,39,
4295991486,0000050B,false,Rx,1,7,00,00,06,C0,00,00,00,00,
4295991719,0000055B,false,Rx,1,8,6A,40,AA,00,B5,00,12,81,
4295991952,000005BC,false,Rx,1,8,12,80,64,50,90,00,A0,B4,
4295992826,000001DA,false,Rx,1,8,B9,32,58,00,00,01,02,4C,
4295992995,00000120,false,Rx,1,4,00,00,0A,3C,00,00,00,00,
4296000326,0000011A,false,Rx,1,8,4E,40,00,55,00,00,01,7D,
4296000556,000001D4,false,Rx,1,8,F7,07,00,00,47,44,30,B7,
4296000798,000001DB,false,Rx,1,8,FF,C0,B8,CA,24,00,02,A2,
4296001030,000001DC,false,Rx,1,8,6E,04,F5,35,E5,04,C6,2E,
4296001263,000001F2,false,Rx,1,8,30,64,20,AC,00,3C,01,8F,
4296001494,0000050B,false,Rx,1,7,00,00,06,C0,00,00,00,00,
4296002822,000001DA,false,Rx,1,8,B9,72,58,00,00,01,03,6B,
4296002991,00000120,false,Rx,1,4,00,00,0B,B9,00,00,00,00,
4296003222,0000055A,false,Rx,1,8,19,36,37,35,55,00,5B,48,
4296004866,0000055B,false,Rx,1,8,A4,40,AA,00,DF,C0,12,1A,
4296005109,0000059E,false,Rx,1,8,00,00,0C,76,18,00,00,00,
4296005352,000005BC,false,Rx,1,8,3D,80,F0,64,B0,01,00,32,
4296010323,0000011A,false,Rx,1,8,4E,40,00,55,40,00,02,B0,
4296010564,000001D4,false,Rx,1,8,F7,07,00,00,87,44,30,7B,
4296010795,000001DB,false,Rx,1,8,FF,C0,B8,CA,24,00,03,27,
4296011027,000001DC,false,Rx,1,8,6E,04,F5,35,E8,C0,C3,95,
4296011270,000001F2,false,Rx,1,8,30,64,20,AC,00,3C,02,8F,
4296011491,0000050B,false,Rx,1,7,00,00,06,C0,00,00,00,00,
4296012820,000001DA,false,Rx,1,8,B9,72,58,00,00,01,00,61,
4296012990,00000120,false,Rx,1,4,00,00,0C,28,00,00,00,00,
4296015242,00000390,false,Rx,1,8,24,00,01,02,00,00,00,16,
4296020239,00000393,false,Rx,1,8,26,51,00,00,00,00,00,1E,
4296020478,0000011A,false,Rx,1,8,4E,40,00,AA,80,00,03,A6,
4296020711,000001D4,false,Rx,1,8,F7,07,00,00,C7,44,30,BC,
4296020943,000001DB,false,Rx,1,8,FF,C0,B8,CA,24,00,00,2D,
4296021176,000001DC,false,Rx,1,8,6E,04,F5,35,EC,DC,C8,7C,
4296021407,000001F2,false,Rx,1,8,30,64,20,AC,00,3C,03,8F,
4296021630,0000050B,false,Rx,1,7,00,00,06,C0,00,00,00,00,
4296022813,000001DA,false,Rx,1,8,B9,32,58,00,00,01,01,46,
4296022983,00000120,false,Rx,1,4,00,00,0D,AD,00,00,00,00,
1079056,000002A0,false,Tx,1,8,00,8F,01,00,00,60,00,00,
4296027680,000002B5,false,Rx,1,8,B0,00,32,00,00,00,00,82,
4296027918,000002B6,false,Rx,1,8,B0,00,87,82,88,00,B4,89,
4296030326,0000011A,false,Rx,1,8,4E,40,00,AA,C0,00,00,6B,
4296030560,000001D4,false,Rx,1,8,F7,07,00,00,07,44,30,70,
4296030791,000001DB,false,Rx,1,8,FF,C0,B8,CA,24,00,01,A8,
4296031023,000001DC,false,Rx,1,8,6E,04,F5,35,E1,0C,E1,39,
4296031266,000001F2,false,Rx,1,8,30,64,20,AC,00,3C,00,8F,
4296031488,0000050B,false,Rx,1,7,00,00,06,C0,00,00,00,00,
4296032817,000001DA,false,Rx,1,8,B9,32,58,00,00,01,02,4C,
4296032987,00000120,false,Rx,1,4,00,00,0E,A7,00,00,00,00,
4296040328,0000011A,false,Rx,1,8,4E,40,00,55,00,00,01,7D,
4296040557,000001D4,false,Rx,1,8,F7,07,00,00,47,44,30,B7,
4296040799,000001DB,false,Rx,1,8,FF,C0,B8,CA,24,00,02,A2,
4296041020,000001DC,false,Rx,1,8,6E,04,F5,35,E5,04,C6,2E,
4296041263,000001F2,false,Rx,1,8,30,64,20,AC,00,3C,01,8F,
4296041485,0000050B,false,Rx,1,7,00,00,06,C0,00,00,00,00,
4296042822,000001DA,false,Rx,1,8,B9,72,58,00,00,01,03,6B,
4296042992,00000120,false,Rx,1,4,00,00,0F,22,00,00,00,00,
4296050324,0000011A,false,Rx,1,8,4E,40,00,55,40,00,02,B0,
4296050563,000001D4,false,Rx,1,8,F7,07,00,00,87,44,30,7B,
4296050795,000001DB,false,Rx,1,8,FF,C0,B8,CA,24,00,03,27,
4296051026,000001DC,false,Rx,1,8,6E,04,F5,35,E8,C0,C3,95,
4296051270,000001F2,false,Rx,1,8,30,64,20,AC,00,3C,02,8F,
4296051491,0000050B,false,Rx,1,7,00,00,06,C0,00,00,00,00,
4296052818,000001DA,false,Rx,1,8,B9,72,58,00,00,01,00,61,
4296052988,00000120,false,Rx,1,4,00,00,00,00,00,00,00,00,
4296060319,0000011A,false,Rx,1,8,4E,40,00,AA,80,00,03,A6,
4296060548,000001D4,false,Rx,1,8,F7,07,00,00,C7,44,30,BC,
4296060790,000001DB,false,Rx,1,8,FF,C0,B8,CA,24,00,00,2D,
4296061022,000001DC,false,Rx,1,8,6E,04,F5,35,EC,DC,C8,7C,
4296061255,000001F2,false,Rx,1,8,30,64,20,AC,00,3C,03,8F,
4296061476,0000050B,false,Rx,1,7,00,00,06,C0,00,00,00,00,
4296062814,000001DA,false,Rx,1,8,B9,32,58,00,00,01,01,46,
4296062994,00000120,false,Rx,1,4,00,00,01,85,00,00,00,00,
4296070326,0000011A,false,Rx,1,8,4E,40,00,AA,C0,00,00,6B,
4296070555,000001D4,false,Rx,1,8,F7,07,00,00,07,44,30,70,
4296070797,000001DB,false,Rx,1,8,FF,C0,B8,CA,24,00,01,A8,
4296071020,000001DC,false,Rx,1,8,6E,04,F5,35,E1,0C,E1,39,
4296071261,000001F2,false,Rx,1,8,30,64,20,AC,00,3C,00,8F,
4296071483,0000050B,false,Rx,1,7,00,00,06,C0,00,00,00,00,
4296072831,000001DA,false,Rx,1,8,B9,32,58,00,00,01,02,4C,
4296073001,00000120,false,Rx,1,4,00,00,02,8F,00,00,00,00,
4296080324,0000011A,false,Rx,1,8,4E,40,00,55,00,00,01,7D,
4296080563,000001D4,false,Rx,1,8,F7,07,00,00,47,44,30,B7,
4296080795,000001DB,false,Rx,1,8,FF,C0,B8,CA,24,00,02,A2,
4296081028,000001DC,false,Rx,1,8,6E,04,F5,35,E5,04,C6,2E,
4296081259,000001F2,false,Rx,1,8,30,64,20,AC,00,3C,01,8F,
4296081491,0000050B,false,Rx,1,7,00,00,06,C0,00,00,00,00,
4296082818,000001DA,false,Rx,1,8,B9,72,58,00,00,01,03,6B,
4296082988,00000120,false,Rx,1,4,00,00,03,0A,00,00,00,00,
4296090330,0000011A,false,Rx,1,8,4E,40,00,55,40,00,02,B0,
4296090569,000001D4,false,Rx,1,8,F7,07,00,00,87,44,30,7B,
4296090800,000001F2,false,Rx,1,8,30,64,20,AC,00,3C,02,8F,
4296091033,000001DB,false,Rx,1,8,FF,C0,B8,CA,24,00,03,27,
4296091265,000001DC,false,Rx,1,8,6E,04,F5,35,E8,C0,C3,95,
4296091486,0000050B,false,Rx,1,7,00,00,06,C0,00,00,00,00,
4296091719,0000055B,false,Rx,1,8,6A,40,AA,00,B5,00,13,04,
4296091952,000005BC,false,Rx,1,8,12,80,64,50,90,01,01,0E,
4296092826,000001DA,false,Rx,1,8,B9,72,58,00,00,01,00,61,
4296092995,00000120,false,Rx,1,4,00,00,04,9B,00,00,00,00,
4296100318,0000011A,false,Rx,1,8,4E,40,00,AA,80,00,03,A6,
4296100547,000001D4,false,Rx,1,8,F7,07,00,00,C7,44,30,BC,
4296100789,000001DB,false,Rx,1,8,FF,C0,B8,CA,24,00,00,2D,
4296101022,000001DC,false,Rx,1,8,6E,04,F5,35,EC,DC,C8,7C,
4296101253,000001F2,false,Rx,1,8,30,64,20,AC,00,3C,03,8F,
4296101475,0000050B,false,Rx,1,7,00,00,06,C0,00,00,00,00,
4296101718,0000059E,false,Rx,1,8,00,00,0A,11,D8,00,00,00,
4296101961,000005C0,false,Rx,1,8,40,64,64,FF,72,08,1F,00,
4296102825,000001DA,false,Rx,1,8,B9,32,58,00,00,01,01,46,
4296102994,00000120,false,Rx,1,4,00,00,05,1E,00,00,00,00,
4296103225,0000055A,false,Rx,1,8,1A,37,37,35,55,00,5B,48,
4296104870,0000055B,false,Rx,1,8,A4,40,AA,00,DF,C0,13,9F,
4296105112,0000059E,false,Rx,1,8,00,00,0C,76,18,00,00,00,
4296105343,000005BC,false,Rx,1,8,3D,80,F0,64,B0,01,00,32,
4296110316,0000011A,false,Rx,1,8,4E,40,00,AA,C0,00,00,6B,
4296110555,000001D4,false,Rx,1,8,F7,07,00,00,07,44,30,70,
4296110797,000001DB,false,Rx,1,8,FF,C0,B8,CA,24,00,01,A8,
4296111020,000001DC,false,Rx,1,8,6E,04,F5,35,E1,0C,E1,39,
4296111262,000001F2,false,Rx,1,8,30,64,20,AC,00,3C,00,8F,
4296111483,0000050B,false,Rx,1,7,00,00,06,C0,00,00,00,00,
4296112821,000001DA,false,Rx,1,8,B9,32,58,00,00,01,02,4C,
4296112991,00000120,false,Rx,1,4,00,00,06,14,00,00,00,00,
4296115337,00000390,false,Rx,1,8,24,00,01,02,00,00,00,27,
4296120327,0000011A,false,Rx,1,8,4E,40,00,55,00,00,01,7D,
4296120555,000001D4,false,Rx,1,8,F7,07,00,00,47,44,30,B7,
4296120797,000001DB,false,Rx,1,8,FF,C0,B8,CA,24,00,02,A2,
4296121020,000001DC,false,Rx,1,8,6E,04,F5,35,E5,04,C6,2E,
4296121262,000001F2,false,Rx,1,8,30,64,20,AC,00,3C,01,8F,
4296121506,00000393,false,Rx,1,8,00,51,00,00,00,00,00,27,
4296121729,0000050B,false,Rx,1,7,00,00,06,C0,00,00,00,00,
4296122819,000001DA,false,Rx,1,8,B9,72,58,00,00,01,03,6B,
4296122988,00000120,false,Rx,1,4,00,00,07,91,00,00,00,00,
4296127604,000002B5,false,Rx,1,8,C0,00,32,00,00,00,00,F2,
4296127843,000002B6,false,Rx,1,8,C0,00,87,82,88,00,B4,F9,
4296130323,0000011A,false,Rx,1,8,4E,40,00,55,40,00,02,B0,
4296130566,000001D4,false,Rx,1,8,F7,07,00,00,87,44,30,7B,
4296130798,000001DB,false,Rx,1,8,FF,C0,B8,CA,24,00,03,27,
4296131020,000001DC,false,Rx,1,8,6E,04,F5,35,E8,C0,C3,95,
4296131262,000001F2,false,Rx,1,8,30,64,20,AC,00,3C,02,8F,
4296131484,0000050B,false,Rx,1,7,00,00,06,C0,00,00,00,00,
4296132813,000001DA,false,Rx,1,8,B9,72,58,00,00,01,00,61,
4296132983,00000120,false,Rx,1,4,00,00,08,B3,00,00,00,00,
4296140314,0000011A,false,Rx,1,8,4E,40,00,AA,80,00,03,A6,
4296140554,000001D4,false,Rx,1,8,F7,07,00,00,C7,44,30,BC,
4296140785,000001DB,false,Rx,1,8,FF,C0,B8,CA,24,00,00,2D,
4296141018,000001DC,false,Rx,1,8,6E,04,F5,35,EC,DC,C8,7C,
4296141250,000001F2,false,Rx,1,8,30,64,20,AC,00,3C,03,8F,
4296141482,0000050B,false,Rx,1,7,00,00,06,C0,00,00,00,00,
4296142810,000001DA,false,Rx,1,8,B9,32,58,00,00,01,01,46,
4296142980,00000120,false,Rx,1,4,00,00,09,36,00,00,00,00,
4296150314,0000011A,false,Rx,1,8,4E,40,00,AA,C0,00,00,6B,
1203286,000002A0,false,Tx,1,8,01,0F,01,00,00,60,00,00,
4296150553,000001D4,false,Rx,1,8,F7,07,00,00,07,44,30,70,
4296150820,000001DB,false,Rx,1,8,FF,C0,B8,CB,24,00,01,BE,
4296151020,000001DC,false,Rx,1,8,6E,04,F5,31,E1,0C,E1,61,
4296151260,000001F2,false,Rx,1,8,30,64,20,AC,00,3C,00,8F,
4296151725,0000050B,false,Rx,1,7,00,00,06,C0,00,00,00,00,
4296152812,000001DA,false,Rx,1,8,B9,32,58,00,00,01,02,4C,
4296152981,00000120,false,Rx,1,4,00,00,0A,3C,00,00,00,00,
4296160324,0000011A,false,Rx,1,8,4E,40,00,55,00,00,01,7D,
4296160553,000001D4,false,Rx,1,8,F7,07,00,00,47,44,30,B7,
4296160784,000001DB,false,Rx,1,8,FF,C0,B8,CB,24,00,02,B4,
4296161017,000001DC,false,Rx,1,8,6E,04,F5,31,E5,04,C6,76,
4296161259,000001F2,false,Rx,1,8,30,64,20,AC,00,3C,01,8F,
4296161481,0000050B,false,Rx,1,7,00,00,06,C0,00,00,00,00,
4296162819,000001DA,false,Rx,1,8,B9,72,58,00,00,01,03,6B,
4296162988,00000120,false,Rx,1,4,00,00,0B,B9,00,00,00,00,
4296170320,0000011A,false,Rx,1,8,4E,40,00,55,40,00,02,B0,
4296170560,000001D4,false,Rx,1,8,F7,07,00,00,87,44,30,7B,
4296170792,000001DB,false,Rx,1,8,FF,80,B8,CB,24,00,03,93,
4296171025,000001DC,false,Rx,1,8,6E,04,F5,31,E8,C0,C3,CD,
4296171267,000001F2,false,Rx,1,8,30,64,20,AC,00,3C,02,8F,
4296171488,0000050B,false,Rx,1,7,00,00,06,C0,00,00,00,00,
4296172826,000001DA,false,Rx,1,8,B8,72,58,00,00,01,00,66,
4296172995,00000120,false,Rx,1,4,00,00,0C,28,00,00,00,00,
4296180318,0000011A,false,Rx,1,8,4E,40,00,AA,80,00,03,A6,
4296180547,000001D4,false,Rx,1,8,F7,07,00,00,C7,44,30,BC,
4296180789,000001DB,false,Rx,1,8,FF,60,B8,CB,24,00,00,AB,
4296181011,000001DC,false,Rx,1,8,6E,04,F5,31,EC,DC,C8,24,
4296181254,000001F2,false,Rx,1,8,30,64,20,AC,00,3C,03,8F,
4296181475,0000050B,false,Rx,1,7,00,00,06,C0,00,00,00,00,
4296182812,000001DA,false,Rx,1,8,B9,32,58,00,00,01,01,46,
4296182982,00000120,false,Rx,1,4,00,00,0D,AD,00,00,00,00,
4296190313,0000011A,false,Rx,1,8,4E,40,00,AA,C0,00,00,6B,
4296190552,000001D4,false,Rx,1,8,F7,07,00,00,07,44,30,70,
4296190794,000001F2,false,Rx,1,8,30,64,20,AC,00,3C,00,8F,
4296191027,000001DB,false,Rx,1,8,FF,60,B8,CB,24,00,01,2E,
4296191249,000001DC,false,Rx,1,8,6E,04,F5,31,E1,0C,E1,61,
4296191480,0000050B,false,Rx,1,7,00,00,06,C0,00,00,00,00,
4296191704,0000055B,false,Rx,1,8,6A,40,AA,00,BB,C0,10,F0,
4296191935,000005BC,false,Rx,1,8,12,80,B5,50,91,01,62,B2,
4296192820,000001DA,false,Rx,1,8,B9,32,58,00,00,01,02,4C,
4296192990,00000120,false,Rx,1,4,00,00,0E,A7,00,00,00,00,
4296200321,0000011A,false,Rx,1,8,4E,40,00,55,00,00,01,7D,
4296200550,000001D4,false,Rx,1,8,F7,07,00,00,47,44,30,B7,
4296200781,000001DB,false,Rx,1,8,FF,60,B8,CB,24,00,02,24,
4296201014,000001DC,false,Rx,1,8,6E,04,F5,31,E5,04,C6,76,
4296201256,000001F2,false,Rx,1,8,30,64,20,AC,00,3C,01,8F,
4296201477,0000050B,false,Rx,1,7,00,00,06,C0,00,00,00,00,
4296202825,000001DA,false,Rx,1,8,B8,72,58,00,00,01,03,6C,
4296202995,00000120,false,Rx,1,4,00,00,0F,22,00,00,00,00,
4296203217,0000055A,false,Rx,1,8,1F,37,37,35,55,00,5B,48,
4296204861,0000055B,false,Rx,1,8,A4,40,AA,00,DF,C0,10,95,
4296205103,0000059E,false,Rx,1,8,00,00,0C,76,18,00,00,00,
4296205345,000005BC,false,Rx,1,8,3D,80,F0,64,B0,01,00,32,
4296210319,0000011A,false,Rx,1,8,4E,40,00,55,40,00,02,B0,
4296210558,000001D4,false,Rx,1,8,F7,07,00,00,87,44,30,7B,
4296210791,000001DB,false,Rx,1,8,FF,00,B8,CB,24,00,03,52,
4296211023,000001DC,false,Rx,1,8,6E,04,F5,31,E8,C0,C3,CD,
4296211254,000001F2,false,Rx,1,8,30,64,20,AC,00,3C,02,8F,
4296211486,0000050B,false,Rx,1,7,00,00,06,C0,00,00,00,00,
4296212824,000001DA,false,Rx,1,8,B8,72,58,00,00,01,00,66,
4296212994,00000120,false,Rx,1,4,00,00,00,00,00,00,00,00,
4296215444,00000390,false,Rx,1,8,24,00,01,02,00,00,00,38,
4296220317,0000011A,false,Rx,1,8,4E,40,00,AA,80,00,03,A6,
4296220546,000001D4,false,Rx,1,8,F7,07,00,00,C7,44,30,BC,
4296220789,000001DB,false,Rx,1,8,FE,A0,B8,CB,24,00,00,CF,
4296221011,000001DC,false,Rx,1,8,6E,04,F5,31,EC,DC,C8,24,
4296221253,000001F2,false,Rx,1,8,30,64,20,AC,00,3C,03,8F,
4296221484,00000393,false,Rx,1,8,26,51,00,00,00,00,00,30,
4296221719,0000050B,false,Rx,1,7,00,00,06,C0,00,00,00,00,
4296222818,000001DA,false,Rx,1,8,B8,32,58,00,00,01,01,41,
4296222998,00000120,false,Rx,1,4,00,00,01,85,00,00,00,00,
4296227604,000002B5,false,Rx,1,8,D0,00,44,00,0A,60,00,FE,
4296227833,000002B6,false,Rx,1,8,D1,C8,86,02,88,00,B4,A1,
4296230313,0000011A,false,Rx,1,8,4E,40,00,AA,C0,00,00,6B,
4296230556,000001D4,false,Rx,1,8,F7,07,00,00,07,44,30,70,
4296230789,000001DB,false,Rx,1,8,FE,20,B8,CB,24,00,01,8B,
4296231010,000001DC,false,Rx,1,8,6E,04,F5,31,E1,0C,E1,61,
4296231252,000001F2,false,Rx,1,8,30,64,20,AC,00,3C,00,8F,
4296231473,0000050B,false,Rx,1,7,00,00,06,C0,00,00,00,00,
4296232813,000001DA,false,Rx,1,8,B7,32,58,00,00,01,02,66,
4296232993,00000120,false,Rx,1,4,00,00,02,8F,00,00,00,00,
4296240324,0000011A,false,Rx,1,8,4E,40,00,55,00,00,01,7D,
4296240553,000001D4,false,Rx,1,8,F7,07,00,00,47,44,30,B7,
4296240786,000001DB,false,Rx,1,8,FD,C0,B8,CB,24,00,02,BA,
4296241018,000001DC,false,Rx,1,8,6E,04,F5,31,E5,04,C6,76,
4296241250,000001F2,false,Rx,1,8,30,64,20,AC,00,3C,01,8F,
4296241481,0000050B,false,Rx,1,7,00,00,06,C0,00,00,00,00,
4296242819,000001DA,false,Rx,1,8,B7,72,58,00,00,01,03,41,
4296242988,00000120,false,Rx,1,4,00,00,03,0A,00,00,00,00,
1299113,000002A0,false,Tx,1,8,02,0F,01,00,00,60,00,00,
4296250325,0000011A,false,Rx,1,8,4E,40,00,55,40,00,02,B0,
4296250555,000001D4,false,Rx,1,8,F7,07,00,00,87,44,30,7B,
4296250798,000001DB,false,Rx,1,8,FD,60,B8,CB,24,00,03,AF,
4296251019,000001DC,false,Rx,1,8,6E,04,F5,31,E8,C0,C3,CD,
4296251261,000001F2,false,Rx,1,8,30,64,20,AC,00,3C,02,8F,
4296251483,0000050B,false,Rx,1,7,00,00,06,C0,00,00,00,00,
4296252820,000001DA,false,Rx,1,8,B7,72,58,00,00,01,00,4B,
4296252980,00000120,false,Rx,1,4,00,00,04,9B,00,00,00,00,
4296260313,0000011A,false,Rx,1,8,4E,40,00,AA,80,00,03,A6,
4296260552,000001D4,false,Rx,1,8,F7,07,00,00,C7,44,30,BC,
4296260785,000001DB,false,Rx,1,8,FD,00,B8,CB,24,00,00,56,
4296261006,000001DC,false,Rx,1,8,6E,04,F5,31,EC,DC,C8,24,
4296261248,000001F2,false,Rx,1,8,30,64,20,AC,00,3C,03,8F,
4296261469,0000050B,false,Rx,1,7,00,00,06,C0,00,00,00,00,
4296262807,000001DA,false,Rx,1,8,B7,32,58,00,00,01,01,6C,
4296262977,00000120,false,Rx,1,4,00,00,05,1E,00,00,00,00,
4296270319,0000011A,false,Rx,1,8,4E,40,00,AA,C0,00,00,6B,
4296270548,000001D4,false,Rx,1,8,F7,07,00,00,07,44,30,70,
4296270781,000001DB,false,Rx,1,8,FC,C0,B8,CB,24,00,01,B7,
4296271012,000001DC,false,Rx,1,8,6E,04,F5,31,E1,0C,E1,61,
4296271254,000001F2,false,Rx,1,8,30,64,20,AC,00,3C,00,8F,
4296271477,0000050B,false,Rx,1,7,00,00,06,C0,00,00,00,00,
4296272834,000001DA,false,Rx,1,8,B7,32,58,00,00,01,02,66,
4296272995,00000120,false,Rx,1,4,00,00,06,14,00,00,00,00,
4296280326,0000011A,false,Rx,1,8,4E,40,00,55,00,00,01,7D,
4296280555,000001D4,false,Rx,1,8,F7,07,00,00,47,44,30,B7,
4296280788,000001DB,false,Rx,1,8,FC,80,B8,CB,24,00,02,1F,
4296281019,000001DC,false,Rx,1,8,6E,04,F5,31,E5,04,C6,76,
4296281251,000001F2,false,Rx,1,8,30,64,20,AC,00,3C,01,8F,
4296281484,0000050B,false,Rx,1,7,00,00,06,C0,00,00,00,00,
4296282810,000001DA,false,Rx,1,8,B7,72,58,00,00,01,03,41,
4296282981,00000120,false,Rx,1,4,00,00,07,91,00,00,00,00,
4296290323,0000011A,false,Rx,1,8,4E,40,00,55,40,00,02,B0,
4296290563,000001D4,false,Rx,1,8,F7,07,00,00,87,44,30,7B,
4296290796,000001F2,false,Rx,1,8,30,64,20,AC,00,3C,02,8F,
4296291027,000001DB,false,Rx,1,8,FC,20,B8,CB,24,00,03,0A,
4296291259,000001DC,false,Rx,1,8,6E,04,F5,31,E8,C0,C3,CD,
4296291481,0000050B,false,Rx,1,7,00,00,06,C0,00,00,00,00,
4296291715,0000055B,false,Rx,1,8,6A,40,AA,00,BB,C0,11,75,
4296291947,000005BC,false,Rx,1,8,12,80,B5,50,91,02,40,5A,
4296292821,000001DA,false,Rx,1,8,B7,72,58,00,00,01,00,4B,
4296292992,00000120,false,Rx,1,4,00,00,08,B3,00,00,00,00,
4296300312,0000011A,false,Rx,1,8,4E,40,00,AA,80,00,03,A6,
4296300541,000001D4,false,Rx,1,8,F7,07,00,00,C7,44,30,BC,
4296300774,000001DB,false,Rx,1,8,FB,C0,B8,CB,24,00,00,27,
4296301006,000001DC,false,Rx,1,8,6E,04,F5,31,EC,DC,C8,24,
4296301248,000001F2,false,Rx,1,8,30,64,20,AC,00,3C,03,8F,
4296301471,0000050B,false,Rx,1,7,00,00,06,C0,00,00,00,00,
4296302817,000001DA,false,Rx,1,8,B7,32,58,00,00,01,01,6C,
4296302988,00000120,false,Rx,1,4,00,00,09,36,00,00,00,00,
4296303219,0000055A,false,Rx,1,8,14,37,37,35,55,00,5B,48,
4296304862,0000055B,false,Rx,1,8,A4,40,AA,00,DF,C0,11,10,
4296305104,0000059E,false,Rx,1,8,00,00,0C,76,18,00,00,00,
4296305337,000005BC,false,Rx,1,8,3D,80,F0,64,B0,01,00,32,
4296310319,0000011A,false,Rx,1,8,4E,40,00,AA,C0,00,00,6B,
4296310548,000001D4,false,Rx,1,8,F7,07,00,00,07,44,30,70,
4296310781,000001DB,false,Rx,1,8,FB,A0,B8,CB,24,00,01,51,
4296311013,000001DC,false,Rx,1,8,6E,04,F5,31,E1,0C,E1,61,
4296311255,000001F2,false,Rx,1,8,30,64,20,AC,00,3C,00,8F,
4296311477,0000050B,false,Rx,1,7,00,00,06,C0,00,00,00,00,
4296312824,000001DA,false,Rx,1,8,B7,32,58,00,00,01,02,66,
4296312984,00000120,false,Rx,1,4,00,00,0A,3C,00,00,00,00,
4296315548,00000390,false,Rx,1,8,24,00,01,02,00,00,00,05,
4296320317,0000011A,false,Rx,1,8,4E,40,00,55,00,00,01,7D,
4296320546,000001D4,false,Rx,1,8,F7,07,00,00,47,44,30,B7,
4296320779,000001DB,false,Rx,1,8,FB,A0,B8,CB,24,00,02,5B,
4296321011,000001DC,false,Rx,1,8,6E,04,F5,31,E5,04,C6,76,
4296321253,000001F2,false,Rx,1,8,30,64,20,AC,00,3C,01,8F,
4296321496,00000393,false,Rx,1,8,00,51,00,00,00,00,00,05,
4296321719,0000050B,false,Rx,1,7,00,00,06,C0,00,00,00,00,
4296322808,000001DA,false,Rx,1,8,B7,72,58,00,00,01,03,41,
4296322979,00000120,false,Rx,1,4,00,00,0B,B9,00,00,00,00,
1379532,000002A0,false,Tx,1,8,04,0F,01,00,00,60,00,00,
4296327595,000002B5,false,Rx,1,8,E0,00,58,40,16,05,00,EB,
4296327823,000002B6,false,Rx,1,8,E1,C8,85,82,88,00,B4,12,
4296330323,0000011A,false,Rx,1,8,4E,40,00,55,40,00,02,B0,
4296330556,000001D4,false,Rx,1,8,F7,07,00,00,87,44,30,7B,
4296330789,000001DB,false,Rx,1,8,FB,C0,B8,CB,24,00,03,2D,
4296331020,000001DC,false,Rx,1,8,6E,04,F5,31,E8,C0,C3,CD,
4296331252,000001F2,false,Rx,1,8,30,64,20,AC,00,3C,02,8F,
4296331485,0000050B,false,Rx,1,7,00,00,06,C0,00,00,00,00,
4296332814,000001DA,false,Rx,1,8,B7,72,58,00,00,01,00,4B,
4296332985,00000120,false,Rx,1,4,00,00,0C,28,00,00,00,00,
4296340315,0000011A,false,Rx,1,8,4E,40,00,AA,80,00,03,A6,
4296340545,000001D4,false,Rx,1,8,F7,07,00,00,C7,44,30,BC,
4296340778,000001DB,false,Rx,1,8,FB,C0,B8,CB,24,00,00,27,
4296341009,000001DC,false,Rx,1,8,6E,04,F5,31,EC,DC,C8,24,
4296341241,000001F2,false,Rx,1,8,30,64,20,AC,00,3C,03,8F,
4296341474,0000050B,false,Rx,1,7,00,00,06,C0,00,00,00,00,
4296342810,000001DA,false,Rx,1,8,B7,32,58,00,00,01,01,6C,
4296342981,00000120,false,Rx,1,4,00,00,0D,AD,00,00,00,00,
4296350312,0000011A,false,Rx,1,8,4E,40,00,AA,C0,00,00,6B,
4296350551,000001D4,false,Rx,1,8,F7,07,00,00,07,44,30,70,
4296350784,000001DB,false,Rx,1,8,FB,C0,B8,CB,24,00,01,A2,
4296351006,000001DC,false,Rx,1,8,6E,04,F5,31,E1,0C,E1,61,
4296351248,000001F2,false,Rx,1,8,30,64,20,AC,00,3C,00,8F,
4296351470,0000050B,false,Rx,1,7,00,00,06,C0,00,00,00,00,
4296352817,000001DA,false,Rx,1,8,B7,32,58,00,00,01,02,66,
4296352988,00000120,false,Rx,1,4,00,00,0E,A7,00,00,00,00,
4296360318,0000011A,false,Rx,1,8,4E,40,00,55,00,00,01,7D,
4296360549,000001D4,false,Rx,1,8,F7,07,00,00,47,44,30,B7,
4296360780,000001DB,false,Rx,1,8,FB,C0,B8,CB,24,00,02,A8,
4296361012,000001DC,false,Rx,1,8,6E,04,F5,31,E5,04,C6,76,
4296361254,000001F2,false,Rx,1,8,30,64,20,AC,00,3C,01,8F,
4296361476,0000050B,false,Rx,1,7,00,00,06,C0,00,00,00,00,
4296362814,000001DA,false,Rx,1,8,B7,72,58,00,00,01,03,41,
4296362985,00000120,false,Rx,1,4,00,00,0F,22,00,00,00,00,
4296370315,0000011A,false,Rx,1,8,4E,40,00,55,40,00,02,B0,
4296370556,000001D4,false,Rx,1,8,F7,07,00,00,87,44,30,7B,
4296370788,000001DB,false,Rx,1,8,FB,C0,B8,CB,24,00,03,2D,
4296371019,000001DC,false,Rx,1,8,6E,04,F5,31,E8,C0,C3,CD,
4296371251,000001F2,false,Rx,1,8,30,64,20,AC,00,3C,02,8F,
4296371484,0000050B,false,Rx,1,7,00,00,06,C0,00,00,00,00,
4296372820,000001DA,false,Rx,1,8,B7,72,58,00,00,01,00,4B,
4296373001,00000120,false,Rx,1,4,00,00,00,00,00,00,00,00,
4296380313,0000011A,false,Rx,1,8,4E,40,00,AA,80,00,03,A6,
4296380543,000001D4,false,Rx,1,8,F7,07,00,00,C7,44,30,BC,
4296380775,000001DB,false,Rx,1,8,FB,E0,B8,CB,24,00,00,76,
4296381007,000001DC,false,Rx,1,8,6E,04,F5,31,EC,DC,C8,24,
4296381238,000001F2,false,Rx,1,8,30,64,20,AC,00,3C,03,8F,
4296381471,0000050B,false,Rx,1,7,00,00,06,C0,00,00,00,00,
4296382809,000001DA,false,Rx,1,8,B7,32,58,00,00,01,01,6C,
4296382980,00000120,false,Rx,1,4,00,00,01,85,00,00,00,00,
4296390311,0000011A,false,Rx,1,8,4E,40,00,AA,C0,00,00,6B,
4296390552,000001D4,false,Rx,1,8,F7,07,00,00,07,44,30,70,
4296390794,000001F2,false,Rx,1,8,30,64,20,AC,00,3C,00,8F,
4296391025,000001DB,false,Rx,1,8,FB,E0,B8,CB,24,00,01,F3,
4296391257,000001DC,false,Rx,1,8,6E,04,F5,31,E1,0C,E1,61,
4296391480,0000050B,false,Rx,1,7,00,00,06,C0,00,00,00,00,
4296391712,0000055B,false,Rx,1,8,6A,40,AA,00,AF,C0,12,0B,
4296391944,000005BC,false,Rx,1,8,12,80,B5,50,91,02,A0,96,
4296392820,000001DA,false,Rx,1,8,B7,32,58,00,00,01,02,66,
4296392989,00000120,false,Rx,1,4,00,00,02,8F,00,00,00,00,
4296400320,0000011A,false,Rx,1,8,4E,40,00,55,00,00,01,7D,
4296400550,000001D4,false,Rx,1,8,F7,07,00,00,47,44,30,B7,
4296400792,000001DB,false,Rx,1,8,FB,E0,B8,CB,24,00,02,F9,
4296401013,000001DC,false,Rx,1,8,6E,04,F5,31,E5,04,C6,76,
4296401256,000001F2,false,Rx,1,8,30,64,20,AC,00,3C,01,8F,
4296401478,0000050B,false,Rx,1,7,00,00,06,C0,00,00,00,00,
4296402815,000001DA,false,Rx,1,8,B7,72,58,00,00,01,03,41,
4296402985,00000120,false,Rx,1,4,00,00,03,0A,00,00,00,00,
4296403215,0000055A,false,Rx,1,8,19,37,37,35,55,00,5B,48,
4296404860,0000055B,false,Rx,1,8,A4,40,AA,00,DF,C0,12,1A,
4296405093,0000059E,false,Rx,1,8,00,00,0C,76,18,00,00,00,
4296405335,000005BC,false,Rx,1,8,3D,80,F0,64,B0,01,00,32,
4296410316,0000011A,false,Rx,1,8,4E,40,00,55,40,00,02,B0,
4296410557,000001D4,false,Rx,1,8,F7,07,00,00,87,44,30,7B,
4296410789,000001DB,false,Rx,1,8,FB,E0,B8,CB,24,00,03,7C,
4296411020,000001DC,false,Rx,1,8,6E,04,F5,31,E8,C0,C3,CD,
4296411264,000001F2,false,Rx,1,8,30,64,20,AC,00,3C,02,8F,
4296411485,0000050B,false,Rx,1,7,00,00,06,C0,00,00,00,00,
4296412812,000001DA,false,Rx,1,8,B7,72,58,00,00,01,00,4B,
4296412982,00000120,false,Rx,1,4,00,00,04,9B,00,00,00,00,
4296415639,00000390,false,Rx,1,8,24,00,01,02,00,00,00,16,
4296420314,0000011A,false,Rx,1,8,4E,40,00,AA,80,00,03,A6,
4296420544,000001D4,false,Rx,1,8,F7,07,00,00,C7,44,30,BC,
4296420776,000001DB,false,Rx,1,8,FB,E0,B8,CB,24,00,00,76,
4296421008,000001DC,false,Rx,1,8,6E,04,F5,31,EC,DC,C8,24,
4296421240,000001F2,false,Rx,1,8,30,64,20,AC,00,3C,03,8F,
4296421482,00000393,false,Rx,1,8,26,51,00,00,00,00,00,1E,
4296421705,0000050B,false,Rx,1,7,00,00,06,C0,00,00,00,00,
4296422806,000001DA,false,Rx,1,8,B7,32,58,00,00,01,01,6C,
4296422975,00000120,false,Rx,1,4,00,00,05,1E,00,00,00,00,
4296427603,000002B5,false,Rx,1,8,F0,00,56,00,14,A4,00,16,
4296427841,000002B6,false,Rx,1,8,F1,C8,85,82,88,00,B4,02,
4296430310,0000011A,false,Rx,1,8,4E,40,00,AA,C0,00,00,6B,
4296430544,000001D4,false,Rx,1,8,F7,07,00,00,07,44,30,70,
4296430786,000001DB,false,Rx,1,8,FB,E0,B8,CB,24,00,01,F3,
4296431008,000001DC,false,Rx,1,8,6E,04,F5,31,E1,0C,E1,61,
4296431251,000001F2,false,Rx,1,8,30,64,20,AC,00,3C,00,8F,
4296431483,0000050B,false,Rx,1,7,00,00,06,C0,00,00,00,00,
4296432812,000001DA,false,Rx,1,8,B7,32,58,00,00,01,02,66,
4296432982,00000120,false,Rx,1,4,00,00,06,14,00,00,00,00,
4296440313,0000011A,false,Rx,1,8,4E,40,00,55,00,00,01,7D,
4296440553,000001D4,false,Rx,1,8,F7,07,00,00,47,44,30,B7,
4296440785,000001DB,false,Rx,1,8,FB,E0,B8,CB,24,00,02,F9,
4296441016,000001DC,false,Rx,1,8,6E,04,F5,31,E5,04,C6,76,
4296441249,000001F2,false,Rx,1,8,30,64,20,AC,00,3C,01,8F,
4296441481,0000050B,false,Rx,1,7,00,00,06,C0,00,00,00,00,
4296442810,000001DA,false,Rx,1,8,B7,72,58,00,00,01,03,41,
4296442979,00000120,false,Rx,1,4,00,00,07,91,00,00,00,00,
1499829,000002A0,false,Tx,1,8,08,0F,01,00,00,60,00,00,
4296450318,0000011A,false,Rx,1,8,4E,40,00,55,40,00,02,B0,
4296450558,000001D4,false,Rx,1,8,F7,07,00,00,87,44,30,7B,
4296450790,000001DB,false,Rx,1,8,FC,00,B8,CB,24,00,03,5B,
4296451021,000001DC,false,Rx,1,8,6E,04,F5,31,E8,C0,C3,CD,
4296451254,000001F2,false,Rx,1,8,30,64,20,AC,00,3C,02,8F,
4296451486,0000050B,false,Rx,1,7,00,00,06,C0,00,00,00,00,
4296452813,000001DA,false,Rx,1,8,B7,72,58,00,00,01,00,4B,
4296452983,00000120,false,Rx,1,4,00,00,08,B3,00,00,00,00,
4296460313,0000011A,false,Rx,1,8,4E,40,00,AA,80,00,03,A6,
4296460543,000001D4,false,Rx,1,8,F7,07,00,00,C7,44,30,BC,
4296460775,000001DB,false,Rx,1,8,FC,00,B8,CB,24,00,00,51,
4296461007,000001DC,false,Rx,1,8,6E,04,F5,31,EC,DC,C8,24,
4296461239,000001F2,false,Rx,1,8,30,64,20,AC,00,3C,03,8F,
4296461471,0000050B,false,Rx,1,7,00,00,06,C0,00,00,00,00,
4296462810,000001DA,false,Rx,1,8,B7,32,58,00,00,01,01,6C,
4296462979,00000120,false,Rx,1,4,00,00,09,36,00,00,00,00,
4296470311,0000011A,false,Rx,1,8,4E,40,00,AA,C0,00,00,6B,
4296470552,000001D4,false,Rx,1,8,F7,07,00,00,07,44,30,70,
4296470783,000001DB,false,Rx,1,8,FC,00,B8,CB,24,00,01,D4,
4296471005,000001DC,false,Rx,1,8,6E,04,F5,31,E1,0C,E1,61,
4296471248,000001F2,false,Rx,1,8,30,64,20,AC,00,3C,00,8F,
4296471479,0000050B,false,Rx,1,7,00,00,06,C0,00,00,00,00,
4296472828,000001DA,false,Rx,1,8,B7,32,58,00,00,01,02,66,
4296472987,00000120,false,Rx,1,4,00,00,0A,3C,00,00,00,00,
4296480318,0000011A,false,Rx,1,8,4E,40,00,55,00,00,01,7D,
4296480548,000001D4,false,Rx,1,8,F7,07,00,00,47,44,30,B7,
4296480780,000001DB,false,Rx,1,8,FC,00,B8,CB,24,00,02,DE,
4296481011,000001DC,false,Rx,1,8,6E,04,F5,35,E5,04,C6,2E,
4296481254,000001F2,false,Rx,1,8,30,64,20,AC,00,3C,01,8F,
4296481476,0000050B,false,Rx,1,7,00,00,06,C0,00,00,00,00,
4296482813,000001DA,false,Rx,1,8,B7,72,58,00,00,01,03,41,
4296482983,00000120,false,Rx,1,4,00,00,0B,B9,00,00,00,00,
4296490313,0000011A,false,Rx,1,8,4E,40,00,55,40,00,02,B0,
4296490554,000001D4,false,Rx,1,8,F7,07,00,00,87,44,30,7B,
4296490796,000001F2,false,Rx,1,8,30,64,20,AC,00,3C,02,8F,
4296491028,000001DB,false,Rx,1,8,FC,00,B8,CB,24,00,03,5B,
4296491261,000001DC,false,Rx,1,8,6E,04,F5,35,E8,C0,C3,95,
4296491482,0000050B,false,Rx,1,7,00,00,06,C0,00,00,00,00,
4296491715,0000055B,false,Rx,1,8,6A,40,AA,00,AF,C0,13,8E,
4296491948,000005BC,false,Rx,1,8,12,80,B5,50,91,03,01,C2,
4296492822,000001DA,false,Rx,1,8,B7,72,58,00,00,01,00,4B,
4296492992,00000120,false,Rx,1,4,00,00,0C,28,00,00,00,00,
4296500313,0000011A,false,Rx,1,8,4E,40,00,AA,80,00,03,A6,
4296500543,000001D4,false,Rx,1,8,F7,07,00,00,C7,44,30,BC,
4296500774,000001DB,false,Rx,1,8,FC,00,B8,CB,24,00,00,51,
4296501006,000001DC,false,Rx,1,8,6E,04,F5,35,EC,DC,C8,7C,
4296501239,000001F2,false,Rx,1,8,30,64,20,AC,00,3C,03,8F,
4296501471,0000050B,false,Rx,1,7,00,00,06,C0,00,00,00,00,
4296502819,000001DA,false,Rx,1,8,B7,32,58,00,00,01,01,6C,
4296502988,00000120,false,Rx,1,4,00,00,0D,AD,00,00,00,00,
4296503209,0000055A,false,Rx,1,8,1A,37,37,35,55,00,5B,48,
4296504853,0000055B,false,Rx,1,8,A4,40,AA,00,DF,C0,13,9F,
4296505096,0000059E,false,Rx,1,8,00,00,0C,76,18,00,00,00,
4296505338,000005BC,false,Rx,1,8,3D,80,F0,64,B0,01,00,32,
4296510310,0000011A,false,Rx,1,8,4E,40,00,AA,C0,00,00,6B,
4296510550,000001D4,false,Rx,1,8,F7,07,00,00,07,44,30,70,
4296510781,000001DB,false,Rx,1,8,FC,20,B8,CB,24,00,01,85,
4296511002,000001DC,false,Rx,1,8,6E,04,F5,35,E1,0C,E1,39,
4296511246,000001F2,false,Rx,1,8,30,64,20,AC,00,3C,00,8F,
4296511477,0000050B,false,Rx,1,7,00,00,06,C0,00,00,00,00,
4296512815,000001DA,false,Rx,1,8,B7,32,58,00,00,01,02,66,
4296512984,00000120,false,Rx,1,4,00,00,0E,A7,00,00,00,00,
4296515737,00000390,false,Rx,1,8,24,00,01,02,00,00,00,27,
4296520320,0000011A,false,Rx,1,8,4E,40,00,55,00,00,01,7D,
4296520550,000001D4,false,Rx,1,8,F7,07,00,00,47,44,30,B7,
4296520781,000001DB,false,Rx,1,8,FC,20,B8,CB,24,00,02,8F,
4296521013,000001DC,false,Rx,1,8,6E,04,F5,35,E5,04,C6,2E,
4296521246,000001F2,false,Rx,1,8,30,64,20,AC,00,3C,01,8F,
4296521488,00000393,false,Rx,1,8,00,51,00,00,00,00,00,27,
4296521721,0000050B,false,Rx,1,7,00,00,06,C0,00,00,00,00,
4296522811,000001DA,false,Rx,1,8,B7,72,58,00,00,01,03,41,
4296522981,00000120,false,Rx,1,4,00,00,0F,22,00,00,00,00,
1579594,000002A0,false,Tx,1,8,10,0F,01,00,00,60,00,00,
4296527645,000002B5,false,Rx,1,8,00,00,54,80,13,C8,00,0F,
4296527872,000002B6,false,Rx,1,8,01,C8,85,82,88,00,B4,F2,
4296530311,0000011A,false,Rx,1,8,4E,40,00,55,40,00,02,B0,
4296530555,000001D4,false,Rx,1,8,F7,07,00,00,87,44,30,7B,
4296530786,000001DB,false,Rx,1,8,FC,20,B8,CB,24,00,03,0A,
4296531018,000001DC,false,Rx,1,8,6E,04,F5,35,E8,C0,C3,95,
4296531251,000001F2,false,Rx,1,8,30,64,20,AC,00,3C,02,8F,
4296531483,0000050B,false,Rx,1,7,00,00,06,C0,00,00,00,00,
4296532812,000001DA,false,Rx,1,8,B7,72,58,00,00,01,00,4B,
4296532981,00000120,false,Rx,1,4,00,00,00,00,00,00,00,00,
4296540303,0000011A,false,Rx,1,8,4E,40,00,AA,80,00,03,A6,
4296540542,000001D4,false,Rx,1,8,F7,07,00,00,C7,44,30,BC,
4296540773,000001DB,false,Rx,1,8,FC,20,B8,CB,24,00,00,00,
4296541005,000001DC,false,Rx,1,8,6E,04,F5,35,EC,DC,C8,7C,
4296541238,000001F2,false,Rx,1,8,30,64,20,AC,00,3C,03,8F,
4296541470,0000050B,false,Rx,1,7,00,00,06,C0,00,00,00,00,
4296542807,000001DA,false,Rx,1,8,B7,32,58,00,00,01,01,6C,
4296542977,00000120,false,Rx,1,4,00,00,01,85,00,00,00,00,
4296550308,0000011A,false,Rx,1,8,4E,40,00,AA,C0,00,00,6B,
4296550548,000001D4,false,Rx,1,8,F7,07,00,00,07,44,30,70,
4296550779,000001DB,false,Rx,1,8,FC,20,B8,CB,24,00,01,85,
4296551001,000001DC,false,Rx,1,8,6E,04,F5,35,E1,0C,E1,39,
4296551244,000001F2,false,Rx,1,8,30,64,20,AC,00,3C,00,8F,
4296551476,0000050B,false,Rx,1,7,00,00,06,C0,00,00,00,00,
4296552803,000001DA,false,Rx,1,8,B7,32,58,00,00,01,02,66,
4296552973,00000120,false,Rx,1,4,00,00,02,8F,00,00,00,00,
4296560315,0000011A,false,Rx,1,8,4E,40,00,55,00,00,01,7D,
4296560545,000001D4,false,Rx,1,8,F7,07,00,00,47,44,30,B7,
4296560776,000001DB,false,Rx,1,8,FC,20,B8,CB,24,00,02,8F,
4296561009,000001DC,false,Rx,1,8,6E,04,F5,35,E5,04,C6,2E,
4296561241,000001F2,false,Rx,1,8,30,64,20,AC,00,3C,01,8F,
4296561473,0000050B,false,Rx,1,7,00,00,06,C0,00,00,00,00,
4296562810,000001DA,false,Rx,1,8,B7,72,58,00,00,01,03,41,
4296562980,00000120,false,Rx,1,4,00,00,03,0A,00,00,00,00,
4296570313,0000011A,false,Rx,1,8,4E,40,00,55,40,00,02,B0,
4296570552,000001D4,false,Rx,1,8,F7,07,00,00,87,44,30,7B,
4296570783,000001DB,false,Rx,1,8,FC,20,B8,CB,24,00,03,0A,
4296571016,000001DC,false,Rx,1,8,6E,04,F5,35,E8,C0,C3,95,
4296571248,000001F2,false,Rx,1,8,30,64,20,AC,00,3C,02,8F,
4296571480,0000050B,false,Rx,1,7,00,00,06,C0,00,00,00,00,
4296572818,000001DA,false,Rx,1,8,B7,72,58,00,00,01,00,4B,
4296572987,00000120,false,Rx,1,4,00,00,04,9B,00,00,00,00,
4296580309,0000011A,false,Rx,1,8,4E,40,00,AA,80,00,03,A6,
4296580538,000001D4,false,Rx,1,8,F7,07,00,00,C7,44,30,BC,
4296580770,000001DB,false,Rx,1,8,FC,40,B8,CB,24,00,00,F3,
4296581002,000001DC,false,Rx,1,8,6E,04,F5,35,EC,DC,C8,7C,
4296581234,000001F2,false,Rx,1,8,30,64,20,AC,00,3C,03,8F,
4296581466,0000050B,false,Rx,1,7,00,00,06,C0,00,00,00,00,
4296582803,000001DA,false,Rx,1,8,B7,32,58,00,00,01,01,6C,
4296582973,00000120,false,Rx,1,4,00,00,05,1E,00,00,00,00,
4296590304,0000011A,false,Rx,1,8,4E,40,00,AA,C0,00,00,6B,
4296590544,000001D4,false,Rx,1,8,F7,07,00,00,07,44,30,70,
4296590786,000001F2,false,Rx,1,8,30,64,20,AC,00,3C,00,8F,
4296591018,000001DB,false,Rx,1,8,FC,40,B8,CB,24,00,01,76,
4296591240,000001DC,false,Rx,1,8,6E,04,F5,35,E1,0C,E1,39,
4296591471,0000050B,false,Rx,1,7,00,00,06,C0,00,00,00,00,
4296591694,0000055B,false,Rx,1,8,6A,40,AA,00,AF,C0,10,84,
4296591938,000005BC,false,Rx,1,8,12,80,B5,50,91,00,1F,FF,
4296592822,000001DA,false,Rx,1,8,B7,32,58,00,00,01,02,66,
4296592991,00000120,false,Rx,1,4,00,00,06,14,00,00,00,00,
4296600313,0000011A,false,Rx,1,8,4E,40,00,55,00,00,01,7D,
4296600542,000001D4,false,Rx,1,8,F7,07,00,00,47,44,30,B7,
4296600784,000001DB,false,Rx,1,8,FC,40,B8,CB,24,00,02,7C,
4296601006,000001DC,false,Rx,1,8,6E,04,F5,35,E5,04,C6,2E,
4296601248,000001F2,false,Rx,1,8,30,64,20,AC,00,3C,01,8F,
4296601470,0000050B,false,Rx,1,7,00,00,06,C0,00,00,00,00,
4296601714,0000059E,false,Rx,1,8,00,00,0A,11,D8,00,00,00,
4296601946,000005C0,false,Rx,1,8,80,62,62,FF,72,C8,1F,03,
4296602810,000001DA,false,Rx,1,8,B7,72,58,00,00,01,03,41,
4296602979,00000120,false,Rx,1,4,00,00,07,91,00,00,00,00,
4296603210,0000055A,false,Rx,1,8,1F,37,37,35,55,00,5B,48,
4296604855,0000055B,false,Rx,1,8,A4,40,AA,00,DF,C0,10,95,
4296605086,0000059E,false,Rx,1,8,00,00,0C,76,18,00,00,00,
4296605328,000005BC,false,Rx,1,8,3D,80,F0,64,B0,01,00,32,
4296610311,0000011A,false,Rx,1,8,4E,40,00,55,40,00,02,B0,
4296610550,000001D4,false,Rx,1,8,F7,07,00,00,87,44,30,7B,
4296610781,000001DB,false,Rx,1,8,FC,40,B8,CB,24,00,03,F9,
4296611014,000001DC,false,Rx,1,8,6E,04,F5,35,E8,C0,C3,95,
4296611246,000001F2,false,Rx,1,8,30,64,20,AC,00,3C,02,8F,
4296611478,0000050B,false,Rx,1,7,00,00,06,C0,00,00,00,00,
4296612805,000001DA,false,Rx,1,8,B7,72,58,00,00,01,00,4B,
4296612975,00000120,false,Rx,1,4,00,00,08,B3,00,00,00,00,
4296615840,00000390,false,Rx,1,8,24,00,01,02,00,00,00,38,
4296620308,0000011A,false,Rx,1,8,4E,40,00,AA,80,00,03,A6,
4296620537,000001D4,false,Rx,1,8,F7,07,00,00,C7,44,30,BC,
4296620769,000001DB,false,Rx,1,8,FC,40,B8,CB,24,00,00,F3,
4296621002,000001DC,false,Rx,1,8,6E,04,F5,35,EC,DC,C8,7C,
4296621233,000001F2,false,Rx,1,8,30,64,20,AC,00,3C,03,8F,
4296621475,00000393,false,Rx,1,8,26,51,00,00,00,00,00,30,
4296621699,0000050B,false,Rx,1,7,00,00,06,C0,00,00,00,00,
4296622809,000001DA,false,Rx,1,8,B7,32,58,00,00,01,01,6C,
4296622979,00000120,false,Rx,1,4,00,00,09,36,00,00,00,00,
4296627605,000002B5,false,Rx,1,8,10,00,52,80,12,C0,00,10,
4296627834,000002B6,false,Rx,1,8,11,C8,85,82,88,00,B4,E2,
4296630303,0000011A,false,Rx,1,8,4E,40,00,AA,C0,00,00,6B,
4296630546,000001D4,false,Rx,1,8,F7,07,00,00,07,44,30,70,
4296630778,000001DB,false,Rx,1,8,FC,40,BA,0B,24,00,01,3A,
4296631000,000001DC,false,Rx,1,8,6E,04,F5,35,E1,0C,E1,39,
4296631242,000001F2,false,Rx,1,8,30,64,20,AC,00,3C,00,8F,
4296631474,0000050B,false,Rx,1,7,00,00,06,C0,00,00,00,00,
4296632813,000001DA,false,Rx,1,8,B7,32,58,00,00,01,02,66,
4296632983,00000120,false,Rx,1,4,00,00,0A,3C,00,00,00,00,
4296640306,0000011A,false,Rx,1,8,4E,40,00,55,00,00,01,7D,
4296640545,000001D4,false,Rx,1,8,F7,07,00,00,47,44,30,B7,
4296640777,000001DB,false,Rx,1,8,FC,40,BA,0B,24,00,02,30,
4296641010,000001DC,false,Rx,1,8,6E,04,F5,35,E5,04,C6,2E,
4296641241,000001F2,false,Rx,1,8,30,64,20,AC,00,3C,01,8F,
4296641473,0000050B,false,Rx,1,7,00,00,06,C0,00,00,00,00,
4296642811,000001DA,false,Rx,1,8,B7,72,58,00,00,01,03,41,
4296642980,00000120,false,Rx,1,4,00,00,0B,B9,00,00,00,00,
1702946,000002A0,false,Tx,1,8,20,0F,01,00,00,60,00,00,
4296650313,0000011A,false,Rx,1,8,4E,40,00,55,40,00,02,B0,
4296650544,000001D4,false,Rx,1,8,F7,07,00,00,87,44,30,7B,
4296650783,000001DB,false,Rx,1,8,FC,60,BA,0B,24,00,03,E4,
4296651014,000001DC,false,Rx,1,8,6E,04,F5,35,E8,C0,C3,95,
4296651254,000001F2,false,Rx,1,8,30,64,20,AC,00,3C,02,8F,
4296651719,0000050B,false,Rx,1,7,00,00,06,C0,00,00,00,00,
4296652806,000001DA,false,Rx,1,8,B7,72,58,00,00,01,00,4B,
4296652976,00000120,false,Rx,1,4,00,00,0C,28,00,00,00,00,
4296660307,0000011A,false,Rx,1,8,4E,40,00,AA,80,00,03,A6,
4296660536,000001D4,false,Rx,1,8,F7,07,00,00,C7,44,30,BC,
4296660768,000001DB,false,Rx,1,8,FC,60,BA,0B,24,00,00,EE,
4296661001,000001DC,false,Rx,1,8,6E,04,F5,35,EC,DC,C8,7C,
4296661232,000001F2,false,Rx,1,8,30,64,20,AC,00,3C,03,8F,
4296661464,0000050B,false,Rx,1,7,00,00,06,C0,00,00,00,00,
4296662802,000001DA,false,Rx,1,8,B7,32,58,00,00,01,01,6C,
4296662971,00000120,false,Rx,1,4,00,00,0D,AD,00,00,00,00,
4296670303,0000011A,false,Rx,1,8,4E,40,00,AA,C0,00,00,6B,
4296670542,000001D4,false,Rx,1,8,F7,07,00,00,07,44,30,70,
4296670774,000001DB,false,Rx,1,8,FC,60,BA,0B,24,00,01,6B,
4296671007,000001DC,false,Rx,1,8,6E,04,F5,35,E1,0C,E1,39,
4296671238,000001F2,false,Rx,1,8,30,64,20,AC,00,3C,00,8F,
4296671470,0000050B,false,Rx,1,7,00,00,06,C0,00,00,00,00,
4296672818,000001DA,false,Rx,1,8,B7,32,58,00,00,01,02,66,
4296672988,00000120,false,Rx,1,4,00,00,0E,A7,00,00,00,00,
4296680309,0000011A,false,Rx,1,8,4E,40,00,55,00,00,01,7D,
4296680539,000001D4,false,Rx,1,8,F7,07,00,00,47,44,30,B7,
4296680781,000001DB,false,Rx,1,8,FC,60,BA,0B,24,00,02,61,
4296681004,000001DC,false,Rx,1,8,6E,04,F5,35,E5,04,C6,2E,
4296681246,000001F2,false,Rx,1,8,30,64,20,AC,00,3C,01,8F,
4296681467,0000050B,false,Rx,1,7,00,00,06,C0,00,00,00,00,
4296682805,000001DA,false,Rx,1,8,B7,72,58,00,00,01,03,41,
4296682975,00000120,false,Rx,1,4,00,00,0F,22,00,00,00,00,
4296690306,0000011A,false,Rx,1,8,4E,40,00,55,40,00,02,B0,
4296690545,000001D4,false,Rx,1,8,F7,07,00,00,87,44,30,7B,
4296690788,000001DB,false,Rx,1,8,FC,60,BA,0B,24,00,03,E4,
4296691010,000001DC,false,Rx,1,8,6E,04,F5,35,E8,C0,C3,95,
4296691251,000001F2,false,Rx,1,8,30,64,20,AC,00,3C,02,8F,
4296691483,0000050B,false,Rx,1,7,00,00,06,C0,00,00,00,00,
4296691707,0000055B,false,Rx,1,8,6A,40,AA,00,AF,C0,11,01,
4296691949,000005BC,false,Rx,1,8,12,80,64,50,90,00,A0,B4,
4296692813,000001DA,false,Rx,1,8,B7,72,58,00,00,01,00,4B,
4296692992,00000120,false,Rx,1,4,00,00,00,00,00,00,00,00,
4296700303,0000011A,false,Rx,1,8,4E,40,00,AA,80,00,03,A6,
4296700532,000001D4,false,Rx,1,8,F7,07,00,00,C7,44,30,BC,
4296700775,000001DB,false,Rx,1,8,FC,60,BA,0B,24,00,00,EE,
4296700997,000001DC,false,Rx,1,8,6E,04,F5,35,EC,DC,C8,7C,
4296701239,000001F2,false,Rx,1,8,30,64,20,AC,00,3C,03,8F,
4296701460,0000050B,false,Rx,1,7,00,00,06,C0,00,00,00,00,
4296702808,000001DA,false,Rx,1,8,B7,32,58,00,00,01,01,6C,
4296702988,00000120,false,Rx,1,4,00,00,01,85,00,00,00,00,
4296703210,0000055A,false,Rx,1,8,14,37,37,35,55,00,5B,28,
4296704843,0000055B,false,Rx,1,8,A4,40,AA,00,DF,C0,11,10,
4296705085,0000059E,false,Rx,1,8,00,00,0C,76,18,00,00,00,
4296705327,000005BC,false,Rx,1,8,3D,80,F0,64,B0,01,00,32,
4296710299,0000011A,false,Rx,1,8,4E,40,00,AA,C0,00,00,6B,
4296710539,000001D4,false,Rx,1,8,F7,07,00,00,07,44,30,70,
4296710772,000001DB,false,Rx,1,8,FC,60,BA,0B,24,00,01,6B,
4296711004,000001DC,false,Rx,1,8,6E,04,F5,35,E1,0C,E1,39,
4296711246,000001F2,false,Rx,1,8,30,64,20,AC,00,3C,00,8F,
4296711467,0000050B,false,Rx,1,7,00,00,06,C0,00,00,00,00,
4296712805,000001DA,false,Rx,1,8,B7,32,58,00,00,01,02,66,
4296712974,00000120,false,Rx,1,4,00,00,02,8F,00,00,00,00,
4296715944,00000390,false,Rx,1,8,24,00,01,02,00,00,00,05,
4296720309,0000011A,false,Rx,1,8,4E,40,00,55,00,00,01,7D,
4296720538,000001D4,false,Rx,1,8,F7,07,00,00,47,44,30,B7,
4296720771,000001DB,false,Rx,1,8,FC,80,BA,0B,24,00,02,53,
4296721002,000001DC,false,Rx,1,8,6E,04,F5,35,E5,04,C6,2E,
4296721244,000001F2,false,Rx,1,8,30,64,20,AC,00,3C,01,8F,
4296721486,00000393,false,Rx,1,8,00,51,00,00,00,00,00,05,
4296721710,0000050B,false,Rx,1,7,00,00,06,C0,00,00,00,00,
4296722809,000001DA,false,Rx,1,8,B7,72,58,00,00,01,03,41,
4296722979,00000120,false,Rx,1,4,00,00,03,0A,00,00,00,00,
1779323,000002A0,false,Tx,1,8,40,0F,01,00,00,60,00,00,
4296727590,000002B5,false,Rx,1,8,20,00,50,C0,11,C4,00,65,
4296727819,000002B6,false,Rx,1,8,21,C8,86,02,88,00,B4,51,
4296730309,0000011A,false,Rx,1,8,4E,40,00,55,40,00,02,B0,
4296730542,000001D4,false,Rx,1,8,F7,07,00,00,87,44,30,7B,
4296730785,000001DB,false,Rx,1,8,FC,80,BA,0B,24,00,03,D6,
4296731006,000001DC,false,Rx,1,8,6E,04,F5,35,E8,C0,C3,95,
4296731248,000001F2,false,Rx,1,8,30,64,20,AC,00,3C,02,8F,
4296731480,0000050B,false,Rx,1,7,00,00,06,C0,00,00,00,00,
4296732799,000001DA,false,Rx,1,8,B7,72,58,00,00,01,00,4B,
4296732969,00000120,false,Rx,1,4,00,00,04,9B,00,00,00,00,
4296740300,0000011A,false,Rx,1,8,4E,40,00,AA,80,00,03,A6,
4296740529,000001D4,false,Rx,1,8,F7,07,00,00,C7,44,30,BC,
4296740772,000001DB,false,Rx,1,8,FC,80,BA,0B,24,00,00,DC,
4296740993,000001DC,false,Rx,1,8,6E,04,F5,35,EC,DC,C8,7C,
4296741235,000001F2,false,Rx,1,8,30,64,20,AC,00,3C,03,8F,
4296741457,0000050B,false,Rx,1,7,00,00,06,C0,00,00,00,00,
4296742805,000001DA,false,Rx,1,8,B7,32,58,00,00,01,01,6C,
4296742975,00000120,false,Rx,1,4,00,00,05,1E,00,00,00,00,
4296750307,0000011A,false,Rx,1,8,4E,40,00,AA,C0,00,00,6B,
4296750536,000001D4,false,Rx,1,8,F7,07,00,00,07,44,30,70,
4296750779,000001DB,false,Rx,1,8,FC,80,BA,0B,24,00,01,59,
4296751000,000001DC,false,Rx,1,8,6E,04,F5,35,E1,0C,E1,39,
4296751242,000001F2,false,Rx,1,8,30,64,20,AC,00,3C,00,8F,
4296751465,0000050B,false,Rx,1,7,00,00,06,C0,00,00,00,00,
4296752812,000001DA,false,Rx,1,8,B7,32,58,00,00,01,02,66,
4296752981,00000120,false,Rx,1,4,00,00,06,14,00,00,00,00,
4296760303,0000011A,false,Rx,1,8,4E,40,00,55,00,00,01,7D,
4296760542,000001D4,false,Rx,1,8,F7,07,00,00,47,44,30,B7,
4296760775,000001DB,false,Rx,1,8,FC,80,BA,0B,24,00,02,53,
4296761007,000001DC,false,Rx,1,8,6E,04,F5,35,E5,04,C6,2E,
4296761238,000001F2,false,Rx,1,8,30,64,20,AC,00,3C,01,8F,
4296761471,0000050B,false,Rx,1,7,00,00,06,C0,00,00,00,00,
4296762809,000001DA,false,Rx,1,8,B7,72,58,00,00,01,03,41,
4296762980,00000120,false,Rx,1,4,00,00,07,91,00,00,00,00,
4296770310,0000011A,false,Rx,1,8,4E,40,00,55,40,00,02,B0,
4296770549,000001D4,false,Rx,1,8,F7,07,00,00,87,44,30,7B,
4296770782,000001DB,false,Rx,1,8,FC,80,BA,0B,24,00,03,D6,
4296771014,000001DC,false,Rx,1,8,6E,04,F5,35,E8,C0,C3,95,
4296771245,000001F2,false,Rx,1,8,30,64,20,AC,00,3C,02,8F,
4296771478,0000050B,false,Rx,1,7,00,00,06,C0,00,00,00,00,
4296772815,000001DA,false,Rx,1,8,B7,72,58,00,00,01,00,4B,
4296772986,00000120,false,Rx,1,4,00,00,08,B3,00,00,00,00,
4296780305,0000011A,false,Rx,1,8,4E,40,00,AA,80,00,03,A6,
4296780534,000001D4,false,Rx,1,8,F7,07,00,00,C7,44,30,BC,
4296780767,000001DB,false,Rx,1,8,FC,80,BA,0B,24,00,00,DC,
4296780999,000001DC,false,Rx,1,8,6E,04,F5,35,EC,DC,C8,7C,
4296781230,000001F2,false,Rx,1,8,30,64,20,AC,00,3C,03,8F,
