Time Stamp,ID,Extended,Dir,Bus,LEN,D1,D2,D3,D4,D5,D6,D7,D8
981701790,000002B6,false,Rx,0,8,F2,00,69,01,F8,00,7C,1E,
981701558,000002B5,false,Rx,0,8,F0,00,32,00,00,00,00,C2,
981801554,000002B5,false,Rx,0,8,00,00,32,00,00,00,00,32,
981801796,000002B6,false,Rx,0,8,02,00,69,01,F8,00,7C,EE,
981901554,000002B5,false,Rx,0,8,10,00,32,00,00,00,00,22,
981901798,000002B6,false,Rx,0,8,12,00,69,01,F8,00,7C,FE,
982001569,000002B5,false,Rx,0,8,20,00,32,00,00,00,00,12,
982001811,000002B6,false,Rx,0,8,22,00,69,01,F8,00,7C,CE,
982101544,000002B5,false,Rx,0,8,30,00,32,00,00,00,00,02,
982101786,000002B6,false,Rx,0,8,32,00,69,01,F8,00,7C,DE,
982201544,000002B5,false,Rx,0,8,40,00,32,00,00,00,00,72,
982201776,000002B6,false,Rx,0,8,42,00,69,01,F8,00,7C,AE,
982301541,000002B5,false,Rx,0,8,50,00,32,00,00,00,00,62,
982301783,000002B6,false,Rx,0,8,52,00,69,01,F8,00,7C,BE,
982401544,000002B5,false,Rx,0,8,60,00,32,00,00,00,00,52,
982401777,000002B6,false,Rx,0,8,62,00,69,01,F8,00,7C,8E,
982501541,000002B5,false,Rx,0,8,70,00,32,00,00,00,00,42,
982501773,000002B6,false,Rx,0,8,72,00,69,01,F8,00,7C,9E,
982601538,000002B5,false,Rx,0,8,80,00,32,00,00,00,00,B2,
982601770,000002B6,false,Rx,0,8,82,00,69,01,F8,00,7C,6E,
982701533,000002B5,false,Rx,0,8,90,00,32,00,00,00,00,A2,
982701775,000002B6,false,Rx,0,8,92,00,69,01,F8,00,7C,7E,
982801533,000002B5,false,Rx,0,8,A0,00,32,00,00,00,00,92,
982801765,000002B6,false,Rx,0,8,A2,00,69,01,F8,00,7C,4E,
982901529,000002B5,false,Rx,0,8,B0,00,32,00,00,00,00,82,
982901772,000002B6,false,Rx,0,8,B2,00,69,01,F8,00,7C,5E,
983001541,000002B5,false,Rx,0,8,C0,00,32,00,00,00,00,F2,
983001783,000002B6,false,Rx,0,8,C2,00,69,01,F8,00,7C,2E,
983101536,000002B5,false,Rx,0,8,D0,00,32,00,00,00,00,E2,
983101778,000002B6,false,Rx,0,8,D2,00,69,01,F8,00,7C,3E,
983201539,000002B5,false,Rx,0,8,E0,00,32,00,00,00,00,D2,
983201781,000002B6,false,Rx,0,8,E2,00,69,01,F8,00,7C,0E,
983301521,000002B5,false,Rx,0,8,F0,00,32,00,00,00,00,C2,
983301764,000002B6,false,Rx,0,8,F2,00,69,01,F8,00,7C,1E,
983401525,000002B5,false,Rx,0,8,00,00,32,00,00,00,00,32,
983401758,000002B6,false,Rx,0,8,02,00,69,01,F8,00,7C,EE,
983501530,000002B5,false,Rx,0,8,10,00,32,00,00,00,00,22,
983501772,000002B6,false,Rx,0,8,12,00,69,01,F8,00,7C,FE,
983601521,000002B5,false,Rx,0,8,20,00,32,00,00,00,00,12,
983601763,000002B6,false,Rx,0,8,22,00,69,01,F8,00,7C,CE,
983701524,000002B5,false,Rx,0,8,30,00,32,00,00,00,00,02,
983701766,000002B6,false,Rx,0,8,32,00,69,01,F8,00,7C,DE,
983801514,000002B5,false,Rx,0,8,40,00,32,00,00,00,00,72,
983801747,000002B6,false,Rx,0,8,42,00,69,01,F8,00,7C,AE,
983901511,000002B5,false,Rx,0,8,50,00,32,00,00,00,00,62,
983901744,000002B6,false,Rx,0,8,52,00,69,01,F8,00,7C,BE,
984001516,000002B5,false,Rx,0,8,60,00,32,00,00,00,00,52,
984001758,000002B6,false,Rx,0,8,62,00,69,01,F8,00,7C,8E,
984101518,000002B5,false,Rx,0,8,70,00,32,00,00,00,00,42,
984101750,000002B6,false,Rx,0,8,72,00,69,01,F8,00,7C,9E,
984201511,000002B5,false,Rx,0,8,80,00,32,00,00,00,00,B2,
984201753,000002B6,false,Rx,0,8,82,00,69,01,F8,00,7C,6E,
984301516,000002B5,false,Rx,0,8,90,00,32,00,00,00,00,A2,
984301749,000002B6,false,Rx,0,8,92,00,69,01,F8,00,7C,7E,
984401511,000002B5,false,Rx,0,8,A0,00,32,00,00,00,00,92,
984401744,000002B6,false,Rx,0,8,A2,00,69,01,F8,00,7C,4E,
984501498,000002B5,false,Rx,0,8,B0,00,32,00,00,00,00,82,
984501740,000002B6,false,Rx,0,8,B2,00,69,01,F8,00,7C,5E,
984601506,000002B5,false,Rx,0,8,C0,00,32,00,00,00,00,F2,
984601748,000002B6,false,Rx,0,8,C2,00,69,01,F8,00,7C,2E,
984701490,000002B5,false,Rx,0,8,D0,00,32,00,00,00,00,E2,
984701733,000002B6,false,Rx,0,8,D2,00,69,01,F8,00,7C,3E,
984801490,000002B5,false,Rx,0,8,E0,00,32,00,00,00,00,D2,
984801734,000002B6,false,Rx,0,8,E2,00,69,01,F8,00,7C,0E,
984901505,000002B5,false,Rx,0,8,F0,00,32,00,00,00,00,C2,
984901736,000002B6,false,Rx,0,8,F2,00,69,01,F8,00,7C,1E,
985001490,000002B5,false,Rx,0,8,00,00,32,00,00,00,00,32,
985001722,000002B6,false,Rx,0,8,02,00,69,01,F8,00,7C,EE,
985101483,000002B5,false,Rx,0,8,10,00,32,00,00,00,00,22,
985101725,000002B6,false,Rx,0,8,12,00,69,01,F8,00,7C,FE,
985201486,000002B5,false,Rx,0,8,20,00,32,00,00,00,00,12,
985201728,000002B6,false,Rx,0,8,22,00,69,01,F8,00,7C,CE,
985301476,000002B5,false,Rx,0,8,30,00,32,00,00,00,00,02,
985301719,000002B6,false,Rx,0,8,32,00,69,01,F8,00,7C,DE,
985401473,000002B5,false,Rx,0,8,40,00,32,00,00,00,00,72,
985401715,000002B6,false,Rx,0,8,42,00,69,01,F8,00,7C,AE,
985501485,000002B5,false,Rx,0,8,50,00,32,00,00,00,00,62,
985501727,000002B6,false,Rx,0,8,52,00,69,01,F8,00,7C,BE,
985601489,000002B5,false,Rx,0,8,60,00,32,00,00,00,00,52,
985601721,000002B6,false,Rx,0,8,62,00,69,01,F8,00,7C,8E,
985701471,000002B5,false,Rx,0,8,70,00,32,00,00,00,00,42,
985701703,000002B6,false,Rx,0,8,72,00,69,01,F8,00,7C,9E,
985801484,000002B5,false,Rx,0,8,80,00,32,00,00,00,00,B2,
985801717,000002B6,false,Rx,0,8,82,00,69,01,F8,00,7C,6E,
985901469,000002B5,false,Rx,0,8,90,00,32,00,00,00,00,A2,
985901701,000002B6,false,Rx,0,8,92,00,69,01,F8,00,7C,7E,
986001462,000002B5,false,Rx,0,8,A0,00,32,00,00,00,00,92,
986001704,000002B6,false,Rx,0,8,A2,00,69,01,F8,00,7C,4E,
986101473,000002B5,false,Rx,0,8,B0,00,32,00,00,00,00,82,
986101715,000002B6,false,Rx,0,8,B2,00,69,01,F8,00,7C,5E,
986201456,000002B5,false,Rx,0,8,C0,00,32,00,00,00,00,F2,
986201698,000002B6,false,Rx,0,8,C2,00,6A,01,F8,00,7C,2D,
986301455,000002B5,false,Rx,0,8,D0,00,32,00,00,00,00,E2,
986301699,000002B6,false,Rx,0,8,D2,00,6B,81,F8,00,7C,BC,
986401464,000002B5,false,Rx,0,8,E0,00,32,00,00,00,00,D2,
986401706,000002B6,false,Rx,0,8,E2,00,6D,81,F8,00,7C,8A,
986501457,000002B5,false,Rx,0,8,F0,00,32,00,00,00,00,C2,
986501689,000002B6,false,Rx,0,8,F2,00,70,01,F8,00,7C,07,
986601470,000002B5,false,Rx,0,8,00,00,32,00,00,00,00,32,
986601702,000002B6,false,Rx,0,8,02,00,72,01,F8,00,7C,F5,
986701453,000002B5,false,Rx,0,8,10,00,32,00,00,00,00,22,
986701696,000002B6,false,Rx,0,8,12,00,74,81,F8,00,7C,63,
986801466,000002B5,false,Rx,0,8,20,00,32,00,00,00,00,12,
986801699,000002B6,false,Rx,0,8,22,00,77,01,F8,00,7C,D0,
986901450,000002B5,false,Rx,0,8,30,00,32,00,00,00,00,02,
986901682,000002B6,false,Rx,0,8,32,00,7A,81,F8,00,7C,4D,
987001457,000002B5,false,Rx,0,8,40,00,32,00,00,00,00,72,
987001699,000002B6,false,Rx,0,8,42,00,7F,81,F8,00,7C,38,
987101437,000002B5,false,Rx,0,8,50,00,32,00,00,00,00,62,
987101669,000002B6,false,Rx,0,8,52,00,84,01,F8,00,7C,53,
987201438,000002B5,false,Rx,0,8,60,00,32,00,00,00,00,52,
987201671,000002B6,false,Rx,0,8,62,00,87,01,F8,00,7C,60,
987301435,000002B5,false,Rx,0,8,70,00,32,00,00,00,00,42,
987301668,000002B6,false,Rx,0,8,72,00,89,81,F8,00,7C,FE,
987401429,000002B5,false,Rx,0,8,80,00,32,00,00,00,00,B2,
987401671,000002B6,false,Rx,0,8,82,00,8A,81,F8,00,7C,0D,
987501435,000002B5,false,Rx,0,8,90,00,32,00,00,00,00,A2,
987501667,000002B6,false,Rx,0,8,92,00,8B,81,F8,00,7C,1C,
987601432,000002B5,false,Rx,0,8,A0,00,32,00,00,00,00,92,
987601674,000002B6,false,Rx,0,8,A2,00,8B,81,F8,00,7C,2C,
987701428,000002B5,false,Rx,0,8,B0,00,32,00,00,00,00,82,
987701661,000002B6,false,Rx,0,8,B2,00,8C,01,F8,00,7C,BB,
987801427,000002B5,false,Rx,0,8,C0,00,32,00,00,00,00,F2,
987801660,000002B6,false,Rx,0,8,C2,00,8C,01,F8,00,7C,CB,
987901424,000002B5,false,Rx,0,8,D0,00,32,00,00,00,00,E2,
987901656,000002B6,false,Rx,0,8,D2,00,8C,01,F8,00,7C,DB,
988001430,000002B5,false,Rx,0,8,E0,00,32,00,00,00,00,D2,
988001672,000002B6,false,Rx,0,8,E2,00,8B,01,F8,00,7C,EC,
988101417,000002B5,false,Rx,0,8,F0,00,32,00,00,00,00,C2,
988101659,000002B6,false,Rx,0,8,F2,00,8A,01,F8,00,7C,FD,
988201432,000002B5,false,Rx,0,8,00,00,32,00,00,00,00,32,
988201675,000002B6,false,Rx,0,8,02,00,88,81,F8,00,7C,8F,
988301416,000002B5,false,Rx,0,8,10,00,32,00,00,00,00,22,
988301659,000002B6,false,Rx,0,8,12,00,87,01,F8,00,7C,10,
988401420,000002B5,false,Rx,0,8,20,00,32,00,00,00,00,12,
988401662,000002B6,false,Rx,0,8,22,00,85,01,F8,00,7C,22,
988501427,000002B5,false,Rx,0,8,30,00,32,00,00,00,00,02,
988501669,000002B6,false,Rx,0,8,32,00,82,01,F8,00,7C,35,
988601407,000002B5,false,Rx,0,8,40,00,32,00,00,00,00,72,
988601649,000002B6,false,Rx,0,8,42,00,7E,01,F8,00,7C,B9,
988701399,000002B5,false,Rx,0,8,50,00,32,00,00,00,00,62,
988701642,000002B6,false,Rx,0,8,52,00,7A,81,F8,00,7C,2D,
988801419,000002B5,false,Rx,0,8,60,00,32,00,00,00,00,52,
988801661,000002B6,false,Rx,0,8,62,00,75,81,F8,00,7C,12,
988901397,000002B5,false,Rx,0,8,70,00,32,00,00,00,00,42,
988901639,000002B6,false,Rx,0,8,72,00,70,81,F8,00,7C,07,
989001400,000002B5,false,Rx,0,8,80,00,32,00,00,00,00,B2,
989001642,000002B6,false,Rx,0,8,82,00,6D,81,F8,00,7C,EA,
989101412,000002B5,false,Rx,0,8,90,00,32,00,00,00,00,A2,
989101654,000002B6,false,Rx,0,8,92,00,69,81,F8,00,7C,FE,
989201395,000002B5,false,Rx,0,8,A0,00,32,00,00,00,00,92,
989201628,000002B6,false,Rx,0,8,A2,00,65,81,F8,00,7C,C2,
989301412,000002B5,false,Rx,0,8,B0,00,32,00,00,00,00,82,
989301644,000002B6,false,Rx,0,8,B2,00,63,01,F8,00,7C,54,
989401407,000002B5,false,Rx,0,8,C0,00,32,00,00,00,00,F2,
989401638,000002B6,false,Rx,0,8,C2,00,61,01,F8,00,7C,26,
989501404,000002B5,false,Rx,0,8,D0,00,32,00,00,00,00,E2,
989501646,000002B6,false,Rx,0,8,D2,00,60,01,F8,00,7C,37,
989601392,000002B5,false,Rx,0,8,E0,00,32,00,00,00,00,D2,
989601624,000002B6,false,Rx,0,8,E2,00,5F,81,F8,00,7C,B8,
989701395,000002B5,false,Rx,0,8,F0,00,32,00,00,00,00,C2,
989701638,000002B6,false,Rx,0,8,F2,00,5F,81,F8,00,7C,A8,
989801386,000002B5,false,Rx,0,8,00,00,32,00,00,00,00,32,
989801628,000002B6,false,Rx,0,8,02,00,5F,01,F8,00,7C,D8,
989901381,000002B5,false,Rx,0,8,10,00,32,00,00,00,00,22,
989901623,000002B6,false,Rx,0,8,12,00,5E,01,F8,00,7C,C9,
990001397,000002B5,false,Rx,0,8,20,00,32,00,00,00,00,12,
990001639,000002B6,false,Rx,0,8,22,00,5C,81,F8,00,7C,7B,
990101373,000002B5,false,Rx,0,8,30,00,32,00,00,00,00,02,
990101617,000002B6,false,Rx,0,8,32,00,59,01,F8,00,7C,EE,
990201390,000002B5,false,Rx,0,8,40,00,32,00,00,00,00,72,
990201624,000002B6,false,Rx,0,8,42,00,55,01,F8,00,7C,92,
990301381,000002B5,false,Rx,0,8,50,00,32,00,00,00,00,62,
990301613,000002B6,false,Rx,0,8,52,00,51,01,F8,00,7C,86,
990401386,000002B5,false,Rx,0,8,60,00,32,00,00,00,00,52,
990401618,000002B6,false,Rx,0,8,62,00,4E,81,F8,00,7C,29,
990501370,000002B5,false,Rx,0,8,70,00,32,00,00,00,00,42,
990501603,000002B6,false,Rx,0,8,72,00,4D,01,F8,00,7C,BA,
990601382,000002B5,false,Rx,0,8,80,00,32,00,00,00,00,B2,
990601615,000002B6,false,Rx,0,8,82,00,4C,01,F8,00,7C,4B,
990701377,000002B5,false,Rx,0,8,90,00,32,00,00,00,00,A2,
990701610,000002B6,false,Rx,0,8,92,00,4B,81,F8,00,7C,DC,
990801365,000002B5,false,Rx,0,8,A0,00,32,00,00,00,00,92,
990801599,000002B6,false,Rx,0,8,A2,00,4B,81,F8,00,7C,EC,
990901361,000002B5,false,Rx,0,8,B0,00,32,00,00,00,00,82,
990901604,000002B6,false,Rx,0,8,B2,00,4A,81,F8,00,7C,FD,
991001353,000002B5,false,Rx,0,8,C0,00,32,00,00,00,00,F2,
991001586,000002B6,false,Rx,0,8,C2,00,49,81,F8,00,7C,8E,
991101369,000002B5,false,Rx,0,8,D0,00,32,00,00,00,00,E2,
991101613,000002B6,false,Rx,0,8,D2,00,48,01,F8,00,7C,1F,
991201371,000002B5,false,Rx,0,8,E0,00,32,00,00,00,00,D2,
991201605,000002B6,false,Rx,0,8,E2,00,46,01,F8,00,7C,21,
991301345,000002B5,false,Rx,0,8,F0,00,32,00,00,00,00,C2,
991301588,000002B6,false,Rx,0,8,F2,00,43,81,F8,00,7C,B4,
991401347,000002B5,false,Rx,0,8,00,00,32,00,00,00,00,32,
991401590,000002B6,false,Rx,0,8,02,00,41,01,F8,00,7C,C6,
991501351,000002B5,false,Rx,0,8,10,00,32,00,00,00,00,22,
991501594,000002B6,false,Rx,0,8,12,00,3F,01,F8,00,7C,A8,
991601343,000002B5,false,Rx,0,8,20,00,32,00,00,00,00,12,
991601587,000002B6,false,Rx,0,8,22,00,3D,81,F8,00,7C,1A,
991701339,000002B5,false,Rx,0,8,30,00,32,00,00,00,00,02,
991701583,000002B6,false,Rx,0,8,32,00,3D,01,F8,00,7C,8A,
991801340,000002B5,false,Rx,0,8,40,00,32,00,00,00,00,72,
991801573,000002B6,false,Rx,0,8,42,00,3C,81,F8,00,7C,7B,
991901333,000002B5,false,Rx,0,8,50,00,32,00,00,00,00,62,
991901576,000002B6,false,Rx,0,8,52,00,3C,81,F8,00,7C,6B,
992001330,000002B5,false,Rx,0,8,60,00,32,00,00,00,00,52,
992001573,000002B6,false,Rx,0,8,62,00,3C,01,F8,00,7C,DB,
992101350,000002B5,false,Rx,0,8,70,00,32,00,00,00,00,42,
992101585,000002B6,false,Rx,0,8,72,00,3C,01,F8,00,7C,CB,
992201327,000002B5,false,Rx,0,8,80,00,32,00,00,00,00,B2,
992201570,000002B6,false,Rx,0,8,82,00,3C,01,F8,00,7C,3B,
992301337,000002B5,false,Rx,0,8,90,00,32,00,00,00,00,A2,
992301580,000002B6,false,Rx,0,8,92,00,3C,01,F8,00,7C,2B,
992401323,000002B5,false,Rx,0,8,A0,00,32,00,00,00,00,92,
992401566,000002B6,false,Rx,0,8,A2,00,3C,01,F8,00,7C,1B,
992501339,000002B5,false,Rx,0,8,B0,00,32,00,00,00,00,82,
992501582,000002B6,false,Rx,0,8,B2,00,3C,01,F8,00,7C,0B,
992601325,000002B5,false,Rx,0,8,C0,00,32,00,00,00,00,F2,
992601560,000002B6,false,Rx,0,8,C2,00,3C,01,F8,00,7C,7B,
992701332,000002B5,false,Rx,0,8,D0,00,32,00,00,00,00,E2,
992701575,000002B6,false,Rx,0,8,D2,00,3B,01,F8,00,7C,6C,
992801333,000002B5,false,Rx,0,8,E0,00,32,00,00,00,00,D2,
992801566,000002B6,false,Rx,0,8,E2,00,39,01,F8,00,7C,5E,
992901327,000002B5,false,Rx,0,8,F0,00,32,00,00,00,00,C2,
992901571,000002B6,false,Rx,0,8,F2,00,37,81,F8,00,7C,C0,
993001333,000002B5,false,Rx,0,8,00,00,32,00,00,00,00,32,
993001566,000002B6,false,Rx,0,8,02,00,35,01,F8,00,7C,B2,
993101313,000002B5,false,Rx,0,8,10,00,32,00,00,00,00,22,
993101547,000002B6,false,Rx,0,8,12,00,34,01,F8,00,7C,A3,
993201317,000002B5,false,Rx,0,8,20,00,32,00,00,00,00,12,
993201550,000002B6,false,Rx,0,8,22,00,33,01,F8,00,7C,94,
993301310,000002B5,false,Rx,0,8,30,00,32,00,00,00,00,02,
993301543,000002B6,false,Rx,0,8,32,00,32,81,F8,00,7C,05,
993401303,000002B5,false,Rx,0,8,40,00,32,00,00,00,00,72,
993401536,000002B6,false,Rx,0,8,42,00,32,81,F8,00,7C,75,
993501300,000002B5,false,Rx,0,8,50,00,32,00,00,00,00,62,
993501533,000002B6,false,Rx,0,8,52,00,32,81,F8,00,7C,65,
993601315,000002B5,false,Rx,0,8,60,00,32,00,00,00,00,52,
993601549,000002B6,false,Rx,0,8,62,00,31,81,F8,00,7C,56,
993701293,000002B5,false,Rx,0,8,70,00,32,00,00,00,00,42,
993701536,000002B6,false,Rx,0,8,72,00,30,01,F8,00,7C,C7,
993801297,000002B5,false,Rx,0,8,80,00,32,00,00,00,00,B2,
993801530,000002B6,false,Rx,0,8,82,00,2E,81,F8,00,7C,A9,
993901290,000002B5,false,Rx,0,8,90,00,32,00,00,00,00,A2,
993901533,000002B6,false,Rx,0,8,92,00,2C,81,F8,00,7C,BB,
994001295,000002B5,false,Rx,0,8,A0,00,32,00,00,00,00,92,
994001539,000002B6,false,Rx,0,8,A2,00,29,01,F8,00,7C,0E,
994101295,000002B5,false,Rx,0,8,B0,00,32,00,00,00,00,82,
994101530,000002B6,false,Rx,0,8,B2,00,26,01,F8,00,7C,11,
994201282,000002B5,false,Rx,0,8,C0,00,32,00,00,00,00,F2,
994201525,000002B6,false,Rx,0,8,C2,00,23,01,F8,00,7C,64,
994301297,000002B5,false,Rx,0,8,D0,00,32,00,00,00,00,E2,
994301540,000002B6,false,Rx,0,8,D2,00,20,81,F8,00,7C,F7,
994401280,000002B5,false,Rx,0,8,E0,00,32,00,00,00,00,D2,
994401523,000002B6,false,Rx,0,8,E2,00,1F,81,F8,00,7C,F8,
994501285,000002B5,false,Rx,0,8,F0,00,32,00,00,00,00,C2,
994501519,000002B6,false,Rx,0,8,F2,00,1F,01,F8,00,7C,68,
994601292,000002B5,false,Rx,0,8,00,00,32,00,00,00,00,32,
994601537,000002B6,false,Rx,0,8,02,00,1E,81,F8,00,7C,19,
994701279,000002B5,false,Rx,0,8,10,00,32,00,00,00,00,22,
994701512,000002B6,false,Rx,0,8,12,00,1E,01,F8,00,7C,89,
994801289,000002B5,false,Rx,0,8,20,00,32,00,00,00,00,12,
994801532,000002B6,false,Rx,0,8,22,00,1B,81,F8,00,7C,3C,
994901275,000002B5,false,Rx,0,8,30,00,32,00,00,00,00,02,
994901518,000002B6,false,Rx,0,8,32,00,18,81,F8,00,7C,2F,
995001267,000002B5,false,Rx,0,8,40,00,32,00,00,00,00,72,
995001511,000002B6,false,Rx,0,8,42,00,17,01,F8,00,7C,D0,
995101281,000002B5,false,Rx,0,8,50,00,32,00,00,00,00,62,
995101515,000002B6,false,Rx,0,8,52,00,15,81,F8,00,7C,42,
995201265,000002B5,false,Rx,0,8,60,00,32,00,00,00,00,52,
995201508,000002B6,false,Rx,0,8,62,00,15,01,F8,00,7C,F2,
995301276,000002B5,false,Rx,0,8,70,00,32,00,00,00,00,42,
995301509,000002B6,false,Rx,0,8,72,00,14,81,F8,00,7C,63,
995401271,000002B5,false,Rx,0,8,80,00,32,00,00,00,00,B2,
995401514,000002B6,false,Rx,0,8,82,00,14,81,F8,00,7C,93,
995501270,000002B5,false,Rx,0,8,90,00,32,00,00,00,00,A2,
995501504,000002B6,false,Rx,0,8,92,00,14,81,F8,00,7C,83,
995601255,000002B5,false,Rx,0,8,A0,00,32,00,00,00,00,92,
995601499,000002B6,false,Rx,0,8,A2,00,14,81,F8,00,7C,B3,
995701270,000002B5,false,Rx,0,8,B0,00,32,00,00,00,00,82,
995701513,000002B6,false,Rx,0,8,B2,00,14,01,F8,00,7C,23,
995801249,000002B5,false,Rx,0,8,C0,00,32,00,00,00,00,F2,
995801492,000002B6,false,Rx,0,8,C2,00,14,01,F8,00,7C,53,
995901247,000002B5,false,Rx,0,8,D0,00,32,00,00,00,00,E2,
995901490,000002B6,false,Rx,0,8,D2,00,11,01,F8,00,7C,46,
996001260,000002B5,false,Rx,0,8,E0,00,32,00,00,00,00,D2,
996001494,000002B6,false,Rx,0,8,E2,00,0C,01,F8,00,7C,6B,
996101243,000002B5,false,Rx,0,8,F0,00,32,00,00,00,00,C2,
996101487,000002B6,false,Rx,0,8,F2,00,07,81,F8,00,7C,F0,
996201246,000002B5,false,Rx,0,8,00,00,32,00,00,00,00,32,
996201489,000002B6,false,Rx,0,8,02,00,03,01,F8,00,7C,84,
996301242,000002B5,false,Rx,0,8,10,00,32,00,00,00,00,22,
996301485,000002B6,false,Rx,0,8,12,00,00,01,F8,00,7C,97,
996401247,000002B5,false,Rx,0,8,20,00,32,00,00,00,00,12,
996401490,000002B6,false,Rx,0,8,22,00,00,01,F8,00,7C,A7,
996501242,000002B5,false,Rx,0,8,30,00,32,00,00,00,00,02,
996501487,000002B6,false,Rx,0,8,32,00,00,01,F8,00,7C,B7,
996601232,000002B5,false,Rx,0,8,40,00,32,00,00,00,00,72,
996601475,000002B6,false,Rx,0,8,42,00,00,01,F8,00,7C,C7,
996701231,000002B5,false,Rx,0,8,50,00,32,00,00,00,00,62,
996701474,000002B6,false,Rx,0,8,52,00,00,01,F8,00,7C,D7,
996801229,000002B5,false,Rx,0,8,60,00,32,00,00,00,00,52,
996801472,000002B6,false,Rx,0,8,62,00,00,01,F8,00,7C,E7,
996901242,000002B5,false,Rx,0,8,70,00,32,00,00,00,00,42,
996901475,000002B6,false,Rx,0,8,72,00,00,01,F8,00,7C,F7,
997001227,000002B5,false,Rx,0,8,80,00,32,00,00,00,00,B2,
997001472,000002B6,false,Rx,0,8,82,00,00,01,F8,00,7C,07,
997101228,000002B5,false,Rx,0,8,90,00,32,00,00,00,00,A2,
997101472,000002B6,false,Rx,0,8,92,00,00,01,F8,00,7C,17,
997201239,000002B5,false,Rx,0,8,A0,00,32,00,00,00,00,92,
997201482,000002B6,false,Rx,0,8,A2,00,00,01,F8,00,7C,27,
997301224,000002B5,false,Rx,0,8,B0,00,32,00,00,00,00,82,
997301467,000002B6,false,Rx,0,8,B2,00,00,01,F8,00,7C,37,
997401217,000002B5,false,Rx,0,8,C0,00,32,00,00,00,00,F2,
997401461,000002B6,false,Rx,0,8,C2,00,00,01,F8,00,7C,47,
997501234,000002B5,false,Rx,0,8,D0,00,32,00,00,00,00,E2,
997501468,000002B6,false,Rx,0,8,D2,00,00,01,F8,00,7C,57,
997601213,000002B5,false,Rx,0,8,E0,00,32,00,00,00,00,D2,
997601457,000002B6,false,Rx,0,8,E2,00,00,01,F8,00,7C,67,
997701215,000002B5,false,Rx,0,8,F0,00,32,00,00,00,00,C2,
997701458,000002B6,false,Rx,0,8,F2,00,00,01,F8,00,7C,77,
997801219,000002B5,false,Rx,0,8,00,00,32,00,00,00,00,32,
997801452,000002B6,false,Rx,0,8,02,00,00,01,F8,00,7C,87,
997901224,000002B5,false,Rx,0,8,10,00,32,00,00,00,00,22,
997901468,000002B6,false,Rx,0,8,12,00,00,01,F8,00,7C,97,
998001221,000002B5,false,Rx,0,8,20,00,32,00,00,00,00,12,
998001466,000002B6,false,Rx,0,8,22,00,00,01,F8,00,7C,A7,
998101219,000002B5,false,Rx,0,8,30,00,32,00,00,00,00,02,
998101462,000002B6,false,Rx,0,8,32,00,00,01,F8,00,7C,B7,
998201212,000002B5,false,Rx,0,8,40,00,32,00,00,00,00,72,
998201455,000002B6,false,Rx,0,8,42,00,00,01,F8,00,7C,C7,
998301211,000002B5,false,Rx,0,8,50,00,32,00,00,00,00,62,
998301454,000002B6,false,Rx,0,8,52,00,00,01,F8,00,7C,D7,
998401207,000002B5,false,Rx,0,8,60,00,32,00,00,00,00,52,
998401452,000002B6,false,Rx,0,8,62,00,00,01,F8,00,7C,E7,
998501212,000002B5,false,Rx,0,8,70,00,32,00,00,00,00,42,
998501447,000002B6,false,Rx,0,8,72,00,00,01,F8,00,7C,F7,
998601195,000002B5,false,Rx,0,8,80,00,32,00,00,00,00,B2,
998601439,000002B6,false,Rx,0,8,82,00,00,01,F8,00,7C,07,
998701188,000002B5,false,Rx,0,8,90,00,32,00,00,00,00,A2,
998701431,000002B6,false,Rx,0,8,92,00,00,01,F8,00,7C,17,
998801194,000002B5,false,Rx,0,8,A0,00,32,00,00,00,00,92,
998801427,000002B6,false,Rx,0,8,A2,00,00,01,F8,00,7C,27,
998901194,000002B5,false,Rx,0,8,B0,00,32,00,00,00,00,82,
998901438,000002B6,false,Rx,0,8,B2,00,00,01,F8,00,7C,37,
999001181,000002B5,false,Rx,0,8,C0,00,32,00,00,00,00,F2,
999001427,000002B6,false,Rx,0,8,C2,00,00,01,F8,00,7C,47,
999101181,000002B5,false,Rx,0,8,D0,00,32,00,00,00,00,E2,
999101424,000002B6,false,Rx,0,8,D2,00,00,01,F8,00,7C,57,
999201178,000002B5,false,Rx,0,8,E0,00,32,00,00,00,00,D2,
999201422,000002B6,false,Rx,0,8,E2,00,00,01,F8,00,7C,67,
999301188,000002B5,false,Rx,0,8,F0,00,32,00,00,00,00,C2,
999301431,000002B6,false,Rx,0,8,F2,00,00,01,F8,00,7C,77,
999401184,000002B5,false,Rx,0,8,00,00,32,00,00,00,00,32,
999401418,000002B6,false,Rx,0,8,02,00,00,01,F8,00,7C,87,
999501192,000002B5,false,Rx,0,8,10,00,32,00,00,00,00,22,
999501425,000002B6,false,Rx,0,8,12,00,00,01,F8,00,7C,97,
999601180,000002B5,false,Rx,0,8,20,00,32,00,00,00,00,12,
999601413,000002B6,false,Rx,0,8,22,00,00,01,F8,00,7C,A7,
999701174,000002B5,false,Rx,0,8,30,00,32,00,00,00,00,02,
999701417,000002B6,false,Rx,0,8,32,00,00,01,F8,00,7C,B7,
999801171,000002B5,false,Rx,0,8,40,00,32,00,00,00,00,72,
999801404,000002B6,false,Rx,0,8,42,00,00,01,F8,00,7C,C7,
999901166,000002B5,false,Rx,0,8,50,00,32,00,00,00,00,62,
999901400,000002B6,false,Rx,0,8,52,00,00,01,F8,00,7C,D7,
1000001165,000002B5,false,Rx,0,8,60,00,32,00,00,00,00,52,
1000001408,000002B6,false,Rx,0,8,62,00,00,01,F8,00,7C,E7,
1000101163,000002B5,false,Rx,0,8,70,00,32,00,00,00,00,42,
1000101396,000002B6,false,Rx,0,8,72,00,00,01,F8,00,7C,F7,
1000201168,000002B5,false,Rx,0,8,80,00,32,00,00,00,00,B2,
1000201412,000002B6,false,Rx,0,8,82,00,00,01,F8,00,7C,07,
1000301161,000002B5,false,Rx,0,8,90,00,32,00,00,00,00,A2,
1000301404,000002B6,false,Rx,0,8,92,00,00,01,F8,00,7C,17,
1000401154,000002B5,false,Rx,0,8,A0,00,32,00,00,00,00,92,
1000401398,000002B6,false,Rx,0,8,A2,00,00,01,F8,00,7C,27,
1000501170,000002B5,false,Rx,0,8,B0,00,32,00,00,00,00,82,
1000501413,000002B6,false,Rx,0,8,B2,00,00,01,F8,00,7C,37,
1000601151,000002B5,false,Rx,0,8,C0,00,32,00,00,00,00,F2,
1000601394,000002B6,false,Rx,0,8,C2,00,00,01,F8,00,7C,47,
1000701144,000002B5,false,Rx,0,8,D0,00,32,00,00,00,00,E2,
1000701388,000002B6,false,Rx,0,8,D2,00,00,01,F8,00,7C,57,
1000801148,000002B5,false,Rx,0,8,E0,00,32,00,00,00,00,D2,
1000801392,000002B6,false,Rx,0,8,E2,00,00,01,F8,00,7C,67,
1000901141,000002B5,false,Rx,0,8,F0,00,32,00,00,00,00,C2,
1000901385,000002B6,false,Rx,0,8,F2,00,00,01,F8,00,7C,77,
1001001145,000002B5,false,Rx,0,8,00,00,32,00,00,00,00,32,
1001001388,000002B6,false,Rx,0,8,02,00,00,01,F8,00,7C,87,
1001101158,000002B5,false,Rx,0,8,10,00,32,00,00,00,00,22,
1001101401,000002B6,false,Rx,0,8,12,00,00,01,F8,00,7C,97,
1001201151,000002B5,false,Rx,0,8,20,00,32,00,00,00,00,12,
1001201393,000002B6,false,Rx,0,8,22,00,00,01,F8,00,7C,A7,
1001301153,000002B5,false,Rx,0,8,30,00,32,00,00,00,00,02,
1001301398,000002B6,false,Rx,0,8,32,00,00,01,F8,00,7C,B7,
1001401129,000002B5,false,Rx,0,8,40,00,32,00,00,00,00,72,
1001401372,000002B6,false,Rx,0,8,42,00,00,01,F8,00,7C,C7,
1001501143,000002B5,false,Rx,0,8,50,00,32,00,00,00,00,62,
1001501386,000002B6,false,Rx,0,8,52,00,00,01,F8,00,7C,D7,
