Time Stamp,ID,Extended,Dir,Bus,LEN,D1,D2,D3,D4,D5,D6,D7,D8
0,00000000,false,Rx,0,0,00,00,00,00,00,00,00,00,
0,00000000,false,Rx,0,0,00,00,00,00,00,00,00,00,
0,00000000,false,Rx,0,0,00,00,00,00,00,00,00,00,
0,00000000,false,Rx,0,0,00,00,00,00,00,00,00,00,
0,00000000,false,Rx,0,0,00,00,00,00,00,00,00,00,
0,00000000,false,Rx,0,0,00,00,00,00,00,00,00,00,
519221,000002B6,false,Rx,0,8,C2,00,7D,02,00,00,7E,C3,
778204,000002B5,false,Rx,0,8,D0,00,32,00,00,00,00,E2,
1098632,000002B5,false,Rx,0,8,D0,00,32,00,00,00,00,E2,
1098871,000002B6,false,Rx,0,8,D2,00,7D,02,00,00,7E,D3,
1198637,000002B5,false,Rx,0,8,E0,00,32,00,00,00,00,D2,
1198866,000002B6,false,Rx,0,8,E2,00,7D,02,00,00,7E,E3,
1298617,000002B5,false,Rx,0,8,F0,00,32,00,00,00,00,C2,
1298856,000002B6,false,Rx,0,8,F2,00,7D,02,00,00,7E,F3,
1398621,000002B5,false,Rx,0,8,00,00,32,00,00,00,00,32,
1398860,000002B6,false,Rx,0,8,02,00,7D,02,00,00,7E,03,
1498631,000002B5,false,Rx,0,8,10,00,32,00,00,00,00,22,
1498869,000002B6,false,Rx,0,8,12,00,7D,02,00,00,7E,13,
1598619,000002B5,false,Rx,0,8,20,00,32,00,00,00,00,12,
1598859,000002B6,false,Rx,0,8,22,00,7D,02,00,00,7E,23,
1698621,000002B5,false,Rx,0,8,30,00,32,00,00,00,00,02,
1698861,000002B6,false,Rx,0,8,32,00,7D,02,00,00,7E,33,
1798602,000002B5,false,Rx,0,8,40,00,32,00,00,00,00,72,
1798841,000002B6,false,Rx,0,8,42,00,7D,02,00,00,7E,43,
1898605,000002B5,false,Rx,0,8,50,00,32,00,00,00,00,62,
1898844,000002B6,false,Rx,0,8,52,00,7D,02,00,00,7E,53,
1998614,000002B5,false,Rx,0,8,60,00,32,00,00,00,00,52,
1998852,000002B6,false,Rx,0,8,62,00,7D,02,00,00,7E,63,
2019196,000002B6,false,Rx,0,8,B2,00,7D,02,00,00,7E,B3,
2019196,000002B6,false,Rx,0,8,B2,00,7D,02,00,00,7E,B3,
2098613,000002B5,false,Rx,0,8,70,00,32,00,00,00,00,42,
2098852,000002B6,false,Rx,0,8,72,00,7D,02,00,00,7E,73,
2198614,000002B5,false,Rx,0,8,80,00,32,00,00,00,00,B2,
2198854,000002B6,false,Rx,0,8,82,00,7D,02,00,00,7E,83,
2298595,000002B5,false,Rx,0,8,90,00,32,00,00,00,00,A2,
2298834,000002B6,false,Rx,0,8,92,00,7D,02,00,00,7E,93,
2308126,00000200,false,Tx,0,8,C9,C7,06,07,48,77,B8,BF,
2316523,00000201,false,Tx,0,8,EC,74,AA,59,D8,E3,5F,5E,
2326743,00000202,false,Tx,0,8,04,AD,26,E0,D0,40,3F,A3,
2338438,00000203,false,Tx,0,8,7C,80,E0,2F,82,BC,08,F9,
2347095,00000204,false,Tx,0,8,0F,D3,25,4D,88,89,76,1A,
2356578,00000205,false,Tx,0,8,7C,AF,02,96,8C,E8,97,89,
2369252,00000206,false,Tx,0,8,34,FF,A1,71,DC,37,B5,89,
2377207,00000207,false,Tx,0,8,81,63,42,9F,11,CB,64,5A,
2387988,00000208,false,Tx,0,8,CC,F2,50,58,86,0C,F3,C0,
2398599,000002B5,false,Rx,0,8,A0,00,32,00,00,00,00,92,
2399636,00000209,false,Tx,0,8,10,87,09,50,34,9F,A1,A8,
2407351,0000020A,false,Tx,0,8,48,56,48,22,E3,75,C8,9A,
2421921,0000020B,false,Tx,0,8,36,C6,65,32,73,7A,D6,A7,
2461000,0000020C,false,Tx,0,8,33,07,24,23,49,42,3B,34,
2466967,0000020D,false,Tx,0,8,67,E2,FE,DA,67,D8,F4,7D,
2478219,0000020E,false,Tx,0,8,C0,57,43,14,62,7D,86,26,
2487413,0000020F,false,Tx,0,8,36,04,1B,8B,0C,94,C0,FE,
2497490,00000210,false,Tx,0,8,A8,FE,07,F8,6C,58,AD,B8,
2498607,000002B5,false,Rx,0,8,B0,00,32,00,00,00,00,82,
2498846,000002B6,false,Rx,0,8,B2,00,7D,02,00,00,7E,B3,
2509666,00000211,false,Tx,0,8,BA,9E,76,F9,79,04,AA,88,
2517370,00000212,false,Tx,0,8,E8,4C,31,FF,B3,75,40,C4,
2528062,00000213,false,Tx,0,8,EE,50,9C,FE,AC,18,E4,79,
2536698,00000214,false,Tx,0,8,A2,94,1B,24,8F,D0,57,24,
2547024,00000215,false,Tx,0,8,A4,CB,81,E7,BB,21,73,3C,
2557383,00000216,false,Tx,0,8,14,59,4B,C4,CB,B9,A3,47,
2557383,00000216,false,Tx,0,8,14,59,4B,C4,CB,B9,A3,47,
2567393,00000217,false,Tx,0,8,2D,A4,AB,B2,10,5E,14,42,
2577271,00000218,false,Tx,0,8,BF,3E,AD,35,9E,E3,43,34,
2587280,00000219,false,Tx,0,8,92,C6,8C,D2,D5,D6,78,EA,
2597546,0000021A,false,Tx,0,8,D8,00,7E,63,C2,D6,8F,DB,
2598599,000002B5,false,Rx,0,8,C0,00,32,00,00,00,00,F2,
2607513,0000021B,false,Tx,0,8,FD,C4,6F,EF,89,61,7C,D8,
2617497,0000021C,false,Tx,0,8,92,80,B8,CC,00,A0,BD,F4,
2619174,000002B6,false,Rx,0,8,12,00,7D,02,00,00,7E,13,
2619174,000002B6,false,Rx,0,8,12,00,7D,02,00,00,7E,13,
2627580,0000021D,false,Tx,0,8,6A,CC,5B,5F,1C,D5,FE,1D,
2638736,0000021E,false,Tx,0,8,D2,6C,16,0F,F5,36,86,D6,
2648874,0000021F,false,Tx,0,8,19,6A,C4,C4,BE,CE,17,E2,
2657748,00000220,false,Tx,0,8,71,5C,FE,F6,73,17,4F,7B,
2698585,000002B5,false,Rx,0,8,D0,00,32,00,00,00,00,E2,
2698825,000002B6,false,Rx,0,8,D2,00,7D,02,00,00,7E,D3,
2743863,00000222,false,Tx,0,8,B6,C7,51,D5,05,C5,F9,34,
2788486,00000223,false,Tx,0,8,67,DB,69,1D,FB,5F,A8,1F,
2796825,00000224,false,Tx,0,8,C6,62,F1,95,40,83,4D,AC,
2798587,000002B5,false,Rx,0,8,E0,00,32,00,00,00,00,D2,
2798826,000002B6,false,Rx,0,8,E2,00,7D,02,00,00,7E,E3,
2807678,00000225,false,Tx,0,8,53,40,3E,A3,EB,F1,88,8E,
2816693,00000226,false,Tx,0,8,4F,2D,80,BF,CC,E6,7E,90,
2826658,00000227,false,Tx,0,8,92,68,44,C8,6E,AB,74,42,
2836914,00000228,false,Tx,0,8,16,8B,16,78,14,D9,F4,5C,
2846898,00000229,false,Tx,0,8,31,C2,90,35,76,75,2A,A4,
2857544,0000022A,false,Tx,0,8,E3,E1,54,6E,79,1C,07,68,
2868125,0000022B,false,Tx,0,8,F2,F7,38,AF,FD,93,B3,09,
2877823,0000022C,false,Tx,0,8,55,BC,80,6C,2E,90,2B,51,
2886666,0000022D,false,Tx,0,8,2B,5D,B6,B7,6F,B5,F7,63,
2898586,000002B5,false,Rx,0,8,F0,00,32,00,00,00,00,C2,
2898824,000002B6,false,Rx,0,8,F2,00,7D,02,00,00,7E,F3,
2899848,0000022E,false,Tx,0,8,C3,6A,0C,CA,52,13,C9,D9,
2906945,0000022F,false,Tx,0,8,73,A2,49,E7,ED,D3,3E,BB,
2936822,00000230,false,Tx,0,8,CE,59,C9,CF,C3,53,B3,87,
2998845,000002B6,false,Rx,0,8,02,00,7D,02,00,00,7E,03,
3004854,00000231,false,Tx,0,8,1A,05,4B,9C,72,DC,CB,47,
3014210,00000232,false,Tx,0,8,ED,4B,71,26,0E,A9,86,88,
3017112,00000233,false,Tx,0,8,D5,36,C7,8F,FF,3E,DE,DB,
3026973,00000234,false,Tx,0,8,89,8C,E4,E7,8E,F1,F9,7C,
3026973,00000234,false,Tx,0,8,89,8C,E4,E7,8E,F1,F9,7C,
3037081,00000235,false,Tx,0,8,04,98,81,E2,8A,A7,08,3A,
3047029,00000236,false,Tx,0,8,04,F9,2B,4C,22,27,6B,A7,
3057079,00000237,false,Tx,0,8,4A,0E,28,98,E8,60,0B,9A,
3067193,00000238,false,Tx,0,8,17,EE,75,8B,B3,A0,D4,9E,
3077351,00000239,false,Tx,0,8,65,95,3A,BA,F8,E9,A3,92,
3090430,0000023A,false,Tx,0,8,58,EF,E4,D4,92,F2,36,D2,
3098577,000002B5,false,Rx,0,8,10,00,32,00,00,00,00,22,
3098817,000002B6,false,Rx,0,8,12,00,7D,02,00,00,7E,13,
3109922,0000023B,false,Tx,0,8,99,E0,D5,9E,C8,AA,FB,F6,
3117984,0000023C,false,Tx,0,8,5B,0B,16,2A,AF,03,66,7A,
3127259,0000023D,false,Tx,0,8,BE,45,FD,5D,93,D4,DB,DC,
3136966,0000023E,false,Tx,0,8,E6,E3,D1,F9,75,16,0C,21,
3148671,0000023F,false,Tx,0,8,BB,2C,3D,84,DF,8E,1E,0B,
3157789,00000240,false,Tx,0,8,E7,30,3B,11,F6,C3,0B,F4,
3186797,000002B6,false,Rx,0,8,12,00,00,01,40,00,50,03,
3198589,000002B5,false,Rx,0,8,20,00,32,00,00,00,00,12,
3198829,000002B6,false,Rx,0,8,22,00,7D,02,00,00,7E,23,
3215017,00000241,false,Tx,0,8,0D,BC,D5,4E,A6,76,56,26,
3298583,000002B5,false,Rx,0,8,30,00,32,00,00,00,00,02,
3298832,000002B6,false,Rx,0,8,32,00,7D,02,00,00,7E,33,
3325221,00000243,false,Tx,0,8,DA,10,71,A3,28,0E,A8,19,
3327052,00000244,false,Tx,0,8,F8,98,4C,F7,E5,85,77,7D,
3337913,00000245,false,Tx,0,8,AA,F4,FF,B5,95,EE,A8,C0,
3347209,00000246,false,Tx,0,8,96,F9,58,B8,5A,14,0C,DF,
3357269,00000247,false,Tx,0,8,2B,4D,02,F7,B7,9C,7D,FF,
3368025,00000248,false,Tx,0,8,F3,2F,57,53,F2,50,26,BE,
3376973,00000249,false,Tx,0,8,EE,D1,22,B3,6D,50,08,2F,
3387127,0000024A,false,Tx,0,8,E1,66,98,18,ED,48,DF,00,
3398580,000002B5,false,Rx,0,8,40,00,32,00,00,00,00,72,
3399053,0000024B,false,Tx,0,8,3E,20,38,A7,D0,B9,8D,97,
3407068,0000024C,false,Tx,0,8,C3,26,F2,74,33,A2,9E,63,
3419292,0000024D,false,Tx,0,8,45,BB,D0,35,F5,25,01,A9,
3498582,000002B5,false,Rx,0,8,50,00,32,00,00,00,00,62,
3498821,000002B6,false,Rx,0,8,52,00,7D,02,00,00,7E,53,
3598581,000002B5,false,Rx,0,8,60,00,32,00,00,00,00,52,
3598821,000002B6,false,Rx,0,8,62,00,7D,02,00,00,7E,63,
3653080,0000024F,false,Tx,0,8,2F,15,47,18,D5,E9,BE,DB,
3659560,00000250,false,Tx,0,8,E0,A8,D0,12,0F,CF,A3,BF,
3659560,00000250,false,Tx,0,8,E0,A8,D0,12,0F,CF,A3,BF,
3698583,000002B5,false,Rx,0,8,70,00,32,00,00,00,00,42,
3698822,000002B6,false,Rx,0,8,72,00,7D,02,00,00,7E,73,
3786651,000002B6,false,Rx,0,8,70,00,7D,02,00,00,7E,71,
3798572,000002B5,false,Rx,0,8,80,00,32,00,00,00,00,B2,
3798820,000002B6,false,Rx,0,8,82,00,7D,02,00,00,7E,83,
3851754,00000252,false,Tx,0,8,6E,B1,0E,F1,4D,AE,39,8B,
3858550,00000253,false,Tx,0,8,BC,E6,B1,26,E3,E1,FA,C8,
3868437,00000254,false,Tx,0,8,34,6F,17,B4,58,75,B4,F4,
3877785,00000255,false,Tx,0,8,A2,16,DE,F5,8C,42,58,FE,
3887109,00000256,false,Tx,0,8,2C,51,F4,A8,96,54,DC,E7,
3898151,00000257,false,Tx,0,8,29,2C,EC,63,B9,08,5E,25,
3898562,000002B5,false,Rx,0,8,90,00,32,00,00,00,00,A2,
3898801,000002B6,false,Rx,0,8,92,00,7D,02,00,00,7E,93,
3911323,00000258,false,Tx,0,8,8C,4E,F8,2A,8B,67,68,23,
3998577,000002B5,false,Rx,0,8,A0,00,32,00,00,00,00,92,
3998816,000002B6,false,Rx,0,8,A2,00,7D,02,00,00,7E,A3,
4098577,000002B5,false,Rx,0,8,B0,00,32,00,00,00,00,82,
4108053,0000025A,false,Tx,0,8,31,0F,3B,52,F4,E0,4B,ED,
4117294,0000025B,false,Tx,0,8,35,E8,D4,DA,DF,9E,F1,A3,
4127028,0000025C,false,Tx,0,8,A1,82,D3,42,52,8B,DE,6C,
4137297,0000025D,false,Tx,0,8,AE,3F,8D,27,FB,9B,AF,4B,
4147627,0000025E,false,Tx,0,8,3C,0B,A8,4C,43,AF,CD,32,
4157296,0000025F,false,Tx,0,8,0B,0D,76,CC,CB,C4,14,36,
4198557,000002B5,false,Rx,0,8,C0,00,32,00,00,00,00,F2,
4198796,000002B6,false,Rx,0,8,C2,00,7D,02,00,00,7E,C3,
4298549,000002B5,false,Rx,0,8,D0,00,32,00,00,00,00,E2,
4298788,000002B6,false,Rx,0,8,D2,00,7D,02,00,00,7E,D3,
4398556,000002B5,false,Rx,0,8,E0,00,32,00,00,00,00,D2,
4398794,000002B6,false,Rx,0,8,E2,00,7D,02,00,00,7E,E3,
4409469,00000262,false,Tx,0,8,FD,D8,60,4E,D5,99,67,85,
4498545,000002B5,false,Rx,0,8,F0,00,32,00,00,00,00,C2,
4498784,000002B6,false,Rx,0,8,F2,00,7D,02,00,00,7E,F3,
4538572,00000264,false,Tx,0,8,23,75,CF,F2,6F,58,1C,E2,
4547257,00000265,false,Tx,0,8,91,97,7F,2A,46,7F,F9,54,
4558039,00000266,false,Tx,0,8,62,FC,5D,5B,F4,AC,B8,33,
4567583,00000267,false,Tx,0,8,73,2A,06,55,1E,26,34,4B,
4577386,00000268,false,Tx,0,8,C8,56,71,53,AF,A3,56,39,
4588569,00000269,false,Tx,0,8,03,90,48,C0,53,3B,4C,FC,
4597382,0000026A,false,Tx,0,8,64,84,4F,49,95,15,81,A3,
4598557,000002B5,false,Rx,0,8,00,00,32,00,00,00,00,32,
4607410,0000026B,false,Tx,0,8,D3,22,C6,A1,E8,65,65,7C,
4617991,0000026C,false,Tx,0,8,E0,97,6E,91,82,74,DE,7E,
4627344,0000026D,false,Tx,0,8,EC,A1,5A,84,37,63,DF,D4,
4638348,0000026E,false,Tx,0,8,E7,9A,54,BC,B3,73,AD,35,
4648067,0000026F,false,Tx,0,8,AB,E9,E2,CC,A2,7E,91,C2,
4657451,00000270,false,Tx,0,8,F9,42,F9,6E,42,E2,49,1C,
4698542,000002B5,false,Rx,0,8,10,00,32,00,00,00,00,22,
4698781,000002B6,false,Rx,0,8,12,00,7D,02,00,00,7E,13,
4786644,000002B6,false,Rx,0,8,12,00,7D,02,00,00,7E,13,
4798552,000002B5,false,Rx,0,8,20,00,32,00,00,00,00,12,
4798791,000002B6,false,Rx,0,8,22,00,7D,02,00,00,7E,23,
4853260,00000272,false,Tx,0,8,98,A1,3D,42,74,CB,53,06,
4857429,00000273,false,Tx,0,8,A6,08,52,F3,19,21,52,4C,
4867480,00000274,false,Tx,0,8,BE,2C,03,87,D2,E8,13,B2,
4877576,00000275,false,Tx,0,8,28,7D,C8,07,06,61,97,50,
4888034,00000276,false,Tx,0,8,EA,B4,21,7A,4F,5C,15,C5,
4898359,00000277,false,Tx,0,8,6B,59,4D,67,7A,F5,BD,F2,
4898552,000002B5,false,Rx,0,8,30,00,32,00,00,00,00,02,
4907266,00000278,false,Tx,0,8,1B,A6,6A,84,12,F8,04,CC,
4998547,000002B5,false,Rx,0,8,40,00,32,00,00,00,00,72,
4998787,000002B6,false,Rx,0,8,42,00,7D,02,00,00,7E,43,
5051202,0000027A,false,Tx,0,8,11,C1,A7,72,B6,A5,F8,C6,
5057439,0000027B,false,Tx,0,8,FC,5E,57,E4,84,48,8A,68,
5067241,0000027C,false,Tx,0,8,B3,4D,B6,1B,48,E2,6A,37,
5077273,0000027D,false,Tx,0,8,49,8A,B4,80,91,0D,D6,CC,
5088116,0000027E,false,Tx,0,8,5D,33,08,12,63,AD,F4,00,
5097237,0000027F,false,Tx,0,8,FE,A5,94,27,9D,FA,45,72,
5098544,000002B5,false,Rx,0,8,50,00,32,00,00,00,00,62,
5107198,00000280,false,Tx,0,8,67,25,59,B0,86,5E,C1,1F,
5117391,00000281,false,Tx,0,8,F7,8F,AF,ED,FC,B7,E8,14,
5127353,00000282,false,Tx,0,8,AD,17,78,F9,8B,46,EF,FB,
5137219,00000283,false,Tx,0,8,17,FF,DA,13,78,A9,E0,06,
5148910,00000284,false,Tx,0,8,2F,9F,A8,E1,F5,CF,A0,68,
5157282,00000285,false,Tx,0,8,03,E1,16,21,9D,8F,D9,35,
5198528,000002B5,false,Rx,0,8,60,00,32,00,00,00,00,52,
5198767,000002B6,false,Rx,0,8,62,00,7D,02,00,00,7E,63,
5198767,000002B6,false,Rx,0,8,62,00,7D,02,00,00,7E,63,
5220650,00000286,false,Tx,0,8,F8,43,33,3C,F7,5A,A3,C6,
5296498,00000287,false,Tx,0,8,9F,5C,33,FB,6D,63,92,EF,
5298532,000002B5,false,Rx,0,8,70,00,32,00,00,00,00,42,
5307597,00000288,false,Tx,0,8,B1,40,08,C8,87,42,14,3E,
5316856,00000289,false,Tx,0,8,6E,D4,BB,69,53,3F,42,4F,
5326806,0000028A,false,Tx,0,8,90,0E,1B,23,A9,E7,D0,20,
5336912,0000028B,false,Tx,0,8,4E,AE,0F,33,62,80,E2,AF,
5346884,0000028C,false,Tx,0,8,FF,BD,F4,05,8F,68,AE,5B,
5357602,0000028D,false,Tx,0,8,28,2C,30,43,12,DB,F9,EF,
5367109,0000028E,false,Tx,0,8,56,A9,BA,F4,D6,DB,AF,A3,
5376686,0000028F,false,Tx,0,8,97,4F,1D,40,2C,42,68,84,
5376686,0000028F,false,Tx,0,8,97,4F,1D,40,2C,42,68,84,
5386626,000002B6,false,Rx,0,8,72,00,7D,02,00,00,7E,73,
5387426,00000290,false,Tx,0,8,7B,7D,14,3F,A5,CC,FE,2C,
5398532,000002B5,false,Rx,0,8,80,00,32,00,00,00,00,B2,
5398895,00000291,false,Tx,0,8,DF,1A,19,75,4D,BE,32,7C,
5407527,00000292,false,Tx,0,8,0D,A7,E5,A3,C9,55,ED,01,
5498527,000002B5,false,Rx,0,8,90,00,32,00,00,00,00,A2,
5498767,000002B6,false,Rx,0,8,92,00,7D,02,00,00,7E,93,
5547161,00000294,false,Tx,0,8,6A,F0,05,51,8E,62,D3,A4,
5557051,00000295,false,Tx,0,8,F7,F2,D1,76,D9,A7,E7,96,
5567096,00000296,false,Tx,0,8,2F,62,57,B8,34,E6,18,53,
5577115,00000297,false,Tx,0,8,30,01,2C,D0,B2,D2,B6,9F,
5587179,00000298,false,Tx,0,8,1E,6E,44,48,2A,11,BF,8A,
5597110,00000299,false,Tx,0,8,3B,C5,6E,75,A5,13,D4,A0,
5598534,000002B5,false,Rx,0,8,A0,00,32,00,00,00,00,92,
5607011,0000029A,false,Tx,0,8,97,8B,46,EE,97,39,76,89,
5617100,0000029B,false,Tx,0,8,08,60,D5,03,12,1B,66,8E,
5627157,0000029C,false,Tx,0,8,74,1C,40,5E,67,05,8A,FB,
5627157,0000029C,false,Tx,0,8,74,1C,40,5E,67,05,8A,FB,
5637207,0000029D,false,Tx,0,8,A0,A3,78,C9,4E,9D,82,68,
5647548,0000029E,false,Tx,0,8,B1,B0,57,6D,82,97,B7,11,
5657568,0000029F,false,Tx,0,8,66,4E,D4,0F,69,87,6E,3E,
5698542,000002B5,false,Rx,0,8,B0,00,32,00,00,00,00,82,
5698781,000002B6,false,Rx,0,8,B2,00,7D,02,00,00,7E,B3,
5728393,000002A0,false,Tx,0,8,04,D7,A6,BB,F8,F5,68,89,
5786615,000002B6,false,Rx,0,8,B2,00,7D,02,00,00,7E,B3,
5793360,000002A1,false,Tx,0,8,31,4D,D6,CF,70,8B,4C,E5,
5797666,000002A2,false,Tx,0,8,23,B8,4D,3A,AA,97,D0,9C,
5798520,000002B5,false,Rx,0,8,C0,00,32,00,00,00,00,F2,
5807683,000002A3,false,Tx,0,8,34,9B,47,2B,87,D8,10,7C,
5817256,000002A4,false,Tx,0,8,6B,05,9C,F3,F1,B4,E7,61,
5817256,000002A4,false,Tx,0,8,6B,05,9C,F3,F1,B4,E7,61,
5827474,000002A5,false,Tx,0,8,64,6F,C5,C0,82,A4,CB,2C,
5836673,000002A6,false,Tx,0,8,C8,84,3B,B4,97,AA,C7,20,
5847513,000002A7,false,Tx,0,8,2A,E8,1F,36,40,5E,FB,7A,
5857078,000002A8,false,Tx,0,8,73,03,75,8D,B7,9E,70,37,
5868481,000002A9,false,Tx,0,8,2E,D2,15,33,4A,7C,57,FC,
5877086,000002AA,false,Tx,0,8,C2,50,95,8F,40,65,BB,D2,
5886683,000002AB,false,Tx,0,8,AE,C8,56,A0,A4,B2,2A,F8,
5898198,000002AC,false,Tx,0,8,F7,9F,81,53,AD,5E,32,DA,
5898198,000002AC,false,Tx,0,8,F7,9F,81,53,AD,5E,32,DA,
5898536,000002B5,false,Rx,0,8,D0,00,32,00,00,00,00,E2,
5907290,000002AD,false,Tx,0,8,D5,8D,8E,D4,0B,DD,BE,24,
5998521,000002B5,false,Rx,0,8,E0,00,32,00,00,00,00,D2,
5998751,000002B6,false,Rx,0,8,E0,00,7D,02,00,00,7E,E1,
6049169,000002AF,false,Tx,0,8,CC,E1,C2,16,6A,FC,CA,78,
6057724,000002B0,false,Tx,0,8,B6,59,95,0C,CE,AE,2B,00,
6066918,000002B1,false,Tx,0,8,2A,67,2D,C3,EE,02,66,B9,
6076792,000002B2,false,Tx,0,8,E9,B6,A8,55,C5,DB,D1,62,
6087608,000002B3,false,Tx,0,8,CA,4C,13,F8,22,AD,B7,85,
6097420,000002B4,false,Tx,0,8,37,35,45,AF,CF,48,5F,03,
6097420,000002B4,false,Tx,0,8,37,35,45,AF,CF,48,5F,03,
6098528,000002B5,false,Rx,0,8,F0,00,32,00,00,00,00,C2,
6107646,000002B5,false,Tx,0,8,55,1A,4C,72,84,71,0E,34,
6116653,00000200,false,Tx,0,8,0A,1F,3C,1C,D8,67,55,23,
6126900,00000201,false,Tx,0,8,09,4B,91,81,93,9D,93,CF,
6137140,00000202,false,Tx,0,8,3C,D0,95,38,86,3D,D5,CF,
6150447,00000203,false,Tx,0,8,8C,D1,08,3B,02,9E,21,75,
6156858,00000204,false,Tx,0,8,46,64,E7,11,9C,1F,F7,81,
6156858,00000204,false,Tx,0,8,46,64,E7,11,9C,1F,F7,81,
6198526,000002B5,false,Rx,0,8,00,00,32,00,00,00,00,32,
6198774,000002B6,false,Rx,0,8,00,00,7D,02,00,00,7E,01,
6237021,00000205,false,Tx,0,8,26,B1,34,F5,14,3B,51,1E,
6298514,000002B5,false,Rx,0,8,10,00,32,00,00,00,00,22,
6298752,000002B6,false,Rx,0,8,10,00,7D,02,00,00,7E,11,
6301789,00000206,false,Tx,0,8,FC,F9,61,49,D7,BF,70,60,
6306758,00000207,false,Tx,0,8,4C,9D,63,EB,CD,08,63,6D,
6316774,00000208,false,Tx,0,8,D7,43,7C,82,EA,18,DC,D3,
6326986,00000209,false,Tx,0,8,FA,4D,A4,DE,07,3F,38,E7,
6337015,0000020A,false,Tx,0,8,50,89,BE,F6,D0,3D,AA,F3,
6346870,0000020B,false,Tx,0,8,D1,15,7C,8F,7E,F3,7A,7F,
6356784,0000020C,false,Tx,0,8,38,30,C1,42,1D,7D,79,D0,
6367005,0000020D,false,Tx,0,8,8F,46,76,8A,86,29,E5,DA,
6377518,0000020E,false,Tx,0,8,AE,5F,D6,99,9F,FE,C8,6B,
6386605,000002B6,false,Rx,0,8,12,00,7D,02,00,00,7E,13,
6387680,0000020F,false,Tx,0,8,59,63,A9,EF,22,4C,55,F7,
6398409,00000210,false,Tx,0,8,6B,69,0F,79,0B,13,80,36,
6398527,000002B5,false,Rx,0,8,20,00,32,00,00,00,00,12,
6407073,00000211,false,Tx,0,8,DD,8E,3E,E7,12,C7,69,20,
6498521,000002B5,false,Rx,0,8,30,00,32,00,00,00,00,02,
6498761,000002B6,false,Rx,0,8,30,00,7D,02,00,00,7E,31,
6594819,00000212,false,Tx,0,8,CB,FA,FD,9D,B6,03,DB,64,
6598744,000002B6,false,Rx,0,8,40,00,7D,02,00,00,7E,41,
6603799,00000213,false,Tx,0,8,D6,02,75,1D,08,A9,3F,89,
6617407,00000214,false,Tx,0,8,93,7B,01,30,F9,C6,CE,CC,
6643647,00000215,false,Tx,0,8,1A,2A,B7,C2,2A,86,DC,F2,
6656159,00000216,false,Tx,0,8,3F,3B,2F,7D,69,79,23,B4,
6662445,00000217,false,Tx,0,8,F7,2C,71,86,9D,86,38,7B,
6698507,000002B5,false,Rx,0,8,50,00,32,00,00,00,00,62,
6698756,000002B6,false,Rx,0,8,50,00,7D,02,00,00,7E,51,
6735802,00000218,false,Tx,0,8,C6,44,16,CB,ED,71,3E,12,
6737970,00000219,false,Tx,0,8,F2,BF,48,FD,E0,80,DD,D7,
6747792,0000021A,false,Tx,0,8,E3,FA,5C,ED,11,AC,0E,67,
6763438,0000021B,false,Tx,0,8,0B,38,15,D1,26,CA,FA,D3,
6769754,0000021C,false,Tx,0,8,9D,3B,EF,DC,ED,23,E3,DE,
6779158,0000021D,false,Tx,0,8,72,30,33,2E,E5,85,6D,74,
6787398,0000021E,false,Tx,0,8,1D,EB,64,40,E5,3D,80,EE,
6798516,000002B5,false,Rx,0,8,60,00,32,00,00,00,00,52,
6798755,000002B6,false,Rx,0,8,60,00,7D,02,00,00,7E,61,
6798767,0000021F,false,Tx,0,8,5D,18,A0,46,B8,E8,18,47,
6808639,00000220,false,Tx,0,8,58,50,11,58,5E,C7,B2,48,
6817790,00000221,false,Tx,0,8,51,D9,10,A2,34,98,E7,B6,
6828213,00000222,false,Tx,0,8,83,2D,78,F6,D9,27,89,60,
6838302,00000223,false,Tx,0,8,EA,DD,6E,E1,44,23,BC,A8,
6838302,00000223,false,Tx,0,8,EA,DD,6E,E1,44,23,BC,A8,
6847786,00000224,false,Tx,0,8,3D,D9,D6,5F,8D,87,2A,F5,
6858218,00000225,false,Tx,0,8,72,D9,CD,A5,8B,45,4D,78,
6867959,00000226,false,Tx,0,8,2B,F0,74,95,A2,1C,C4,E8,
6877797,00000227,false,Tx,0,8,D9,12,A7,24,5D,5C,9D,38,
6888649,00000228,false,Tx,0,8,1B,8F,A4,9B,94,78,08,70,
6898142,00000229,false,Tx,0,8,7F,E5,30,C3,E4,2D,25,BE,
6898509,000002B5,false,Rx,0,8,70,00,32,00,00,00,00,42,
6898748,000002B6,false,Rx,0,8,72,00,7D,02,00,00,7E,73,
6908130,0000022A,false,Tx,0,8,6E,55,7F,C3,3B,CB,63,E9,
6998504,000002B5,false,Rx,0,8,80,00,32,00,00,00,00,B2,
6998754,000002B6,false,Rx,0,8,82,00,7D,02,00,00,7E,83,
7098505,000002B5,false,Rx,0,8,90,00,32,00,00,00,00,A2,
7098744,000002B6,false,Rx,0,8,92,00,7D,02,00,00,7E,93,
7104843,00000201,false,Tx,0,8,93,45,2F,B3,50,58,02,01,
7178067,000002B5,false,Rx,0,8,D0,00,32,00,00,00,00,E2,
7196899,00000209,false,Tx,0,8,F1,B9,F0,E9,2A,E9,95,23,
7198502,000002B5,false,Rx,0,8,A0,00,32,00,00,00,00,92,
7198741,000002B6,false,Rx,0,8,A2,00,7D,02,00,00,7E,A3,
7291854,0000022D,false,Tx,0,8,3D,01,C6,52,16,E9,23,84,
7297540,0000022E,false,Tx,0,8,3A,30,B6,F1,AD,4C,C1,A8,
7298496,000002B5,false,Rx,0,8,B0,00,32,00,00,00,00,82,
7298496,000002B5,false,Rx,0,8,B0,00,32,00,00,00,00,82,
7307767,0000022F,false,Tx,0,8,EA,2F,AC,C1,EA,44,D7,8C,
7317533,00000230,false,Tx,0,8,83,97,D8,2D,D6,AC,14,D9,
7327726,00000231,false,Tx,0,8,5B,09,9F,F7,17,B8,F9,3A,
7338196,00000232,false,Tx,0,8,86,D3,FF,AF,DC,37,A1,50,
7348146,00000233,false,Tx,0,8,2A,2E,0B,75,97,DB,8D,69,
7358478,00000234,false,Tx,0,8,B8,AD,0C,A3,23,87,D7,0F,
7367950,00000235,false,Tx,0,8,2F,71,E2,EB,63,9E,44,37,
7377734,00000236,false,Tx,0,8,BF,D9,08,D5,86,76,EB,A9,
7388532,00000237,false,Tx,0,8,F8,3F,3B,9C,DB,4A,3E,3D,
7397650,00000238,false,Tx,0,8,5E,38,04,46,5E,EA,E7,B8,
7398489,000002B5,false,Rx,0,8,C0,00,32,00,00,00,00,F2,
7407436,00000239,false,Tx,0,8,49,6C,A4,05,AB,3E,94,E6,
7447904,00000218,false,Tx,0,8,A5,4E,31,21,27,02,41,AE,
7498501,000002B5,false,Rx,0,8,D0,00,32,00,00,00,00,E2,
7501505,0000023A,false,Tx,0,8,EC,9E,AA,DB,94,B3,A1,B8,
7507627,0000023B,false,Tx,0,8,C3,F9,A1,06,6C,C0,76,74,
7517267,0000023C,false,Tx,0,8,9F,9C,69,C9,83,4A,E7,87,
7527575,0000023D,false,Tx,0,8,B4,55,AF,5D,B9,F9,85,C5,
7537447,0000023E,false,Tx,0,8,A0,DE,5B,D4,58,60,35,99,
7547251,0000023F,false,Tx,0,8,5C,B0,5D,10,7B,7D,B8,06,
7557284,00000240,false,Tx,0,8,57,71,65,91,EC,87,99,3F,
7567230,00000241,false,Tx,0,8,26,BB,62,A4,67,53,40,C2,
7577512,00000242,false,Tx,0,8,A7,19,EF,88,6A,2D,57,FD,
7587865,00000243,false,Tx,0,8,90,DA,71,61,14,B3,D8,3B,
7598497,000002B5,false,Rx,0,8,E0,00,32,00,00,00,00,D2,
7598795,00000244,false,Tx,0,8,13,76,2A,EF,75,DE,2B,33,
7607306,00000245,false,Tx,0,8,D9,2D,A5,D8,72,8E,FD,0E,
7617310,00000246,false,Tx,0,8,E5,5C,70,FD,79,B4,7D,51,
7627488,00000247,false,Tx,0,8,E1,4F,20,76,52,B1,3D,A9,
7627488,00000247,false,Tx,0,8,E1,4F,20,76,52,B1,3D,A9,
7637955,00000248,false,Tx,0,8,67,0E,36,C2,1F,FC,25,A0,
7649831,00000249,false,Tx,0,8,AB,E3,A9,FC,DD,5A,A8,57,
7658257,0000024A,false,Tx,0,8,F5,46,99,4F,DD,F7,75,86,
7698482,000002B5,false,Rx,0,8,F0,00,32,00,00,00,00,C2,
7698721,000002B6,false,Rx,0,8,F2,00,7D,02,00,00,7E,F3,
7778061,000002B5,false,Rx,0,8,30,00,32,00,00,00,00,02,
7798482,000002B5,false,Rx,0,8,00,00,32,00,00,00,00,32,
7798730,000002B6,false,Rx,0,8,02,00,7D,02,00,00,7E,03,
7830718,0000024C,false,Tx,0,8,82,E2,4C,22,5B,95,78,7E,
7838202,0000024D,false,Tx,0,8,C0,EA,39,0C,B5,67,2D,41,
7847540,0000024E,false,Tx,0,8,81,D1,CF,97,D1,7B,2D,DA,
7857873,0000024F,false,Tx,0,8,C9,51,65,EC,6C,BF,46,8D,
7867347,00000250,false,Tx,0,8,92,3B,F9,F3,6D,E4,34,D4,
7877576,00000251,false,Tx,0,8,31,15,29,3B,75,8A,0E,65,
7888151,00000252,false,Tx,0,8,3C,99,54,C6,49,27,B5,0A,
7898487,000002B5,false,Rx,0,8,10,00,32,00,00,00,00,22,
7899543,00000253,false,Tx,0,8,83,4D,4F,6B,5A,EB,19,61,
7907340,00000254,false,Tx,0,8,30,9D,60,8E,3C,3D,3E,37,
7993471,0000022B,false,Tx,0,8,4B,57,4E,7B,3D,07,45,7D,
7998483,000002B5,false,Rx,0,8,20,00,32,00,00,00,00,12,
7998723,000002B6,false,Rx,0,8,22,00,7D,02,00,00,7E,23,
8078294,000002B6,false,Rx,0,8,62,00,7D,02,00,00,7E,63,
8097433,00000256,false,Tx,0,8,E0,87,AA,19,37,C3,C8,7B,
8098483,000002B5,false,Rx,0,8,30,00,32,00,00,00,00,02,
8107412,00000257,false,Tx,0,8,AC,F9,70,AE,D3,1F,EB,A2,
8117619,00000258,false,Tx,0,8,D7,2B,8E,E1,4D,1D,CC,20,
8127460,00000259,false,Tx,0,8,84,CA,83,49,18,8B,61,14,
8137565,0000025A,false,Tx,0,8,08,8E,BE,68,E9,FD,EB,AD,
8148641,0000025B,false,Tx,0,8,4B,E7,62,9D,80,76,1D,68,
8157543,0000025C,false,Tx,0,8,2A,D6,D3,18,BF,22,07,42,
8198477,000002B5,false,Rx,0,8,40,00,32,00,00,00,00,72,
8198716,000002B6,false,Rx,0,8,42,00,7D,02,00,00,7E,43,
8298469,000002B5,false,Rx,0,8,50,00,32,00,00,00,00,62,
8298708,000002B6,false,Rx,0,8,52,00,7D,02,00,00,7E,53,
8321033,0000025E,false,Tx,0,8,15,0E,66,BC,F7,28,74,9F,
8327171,0000025F,false,Tx,0,8,5F,6D,81,3B,E4,00,C8,1D,
8337379,00000260,false,Tx,0,8,B9,EE,CD,17,98,34,80,7C,
8346658,00000261,false,Tx,0,8,DF,FC,CC,2C,CD,92,39,7C,
8346658,00000261,false,Tx,0,8,DF,FC,CC,2C,CD,92,39,7C,
8357966,00000262,false,Tx,0,8,B6,EB,44,47,DA,73,77,55,
8366639,00000263,false,Tx,0,8,2A,BC,BE,66,EA,05,9C,B7,
8376656,00000264,false,Tx,0,8,E0,8C,B1,1C,5C,30,E3,EB,
8387289,00000265,false,Tx,0,8,90,A6,0C,54,90,EC,0F,F2,
8398483,000002B5,false,Rx,0,8,60,00,32,00,00,00,00,52,
8398711,000002B6,false,Rx,0,8,62,00,7D,02,00,00,7E,63,
8399139,00000266,false,Tx,0,8,CB,81,C6,C8,67,DA,9D,FF,
8406720,00000267,false,Tx,0,8,60,6F,72,EA,A0,19,8A,02,
8498479,000002B5,false,Rx,0,8,70,00,32,00,00,00,00,42,
8498719,000002B6,false,Rx,0,8,72,00,7D,02,00,00,7E,73,
8565222,00000269,false,Tx,0,8,83,4E,7F,0E,85,7B,84,9C,
8565222,00000269,false,Tx,0,8,83,4E,7F,0E,85,7B,84,9C,
8567250,0000026A,false,Tx,0,8,60,E9,A5,D3,EA,89,DB,69,
8576663,0000026B,false,Tx,0,8,65,81,98,42,3B,B8,A0,89,
8586734,0000026C,false,Tx,0,8,D3,C2,1B,4B,BC,90,28,7F,
8596710,0000026D,false,Tx,0,8,9D,59,9C,D7,EB,9E,83,C3,
8598464,000002B5,false,Rx,0,8,80,00,32,00,00,00,00,B2,
8598703,000002B6,false,Rx,0,8,82,00,7D,02,00,00,7E,83,
8606551,0000026E,false,Tx,0,8,AF,AF,80,9E,9D,ED,D8,F7,
8616536,0000026F,false,Tx,0,8,B7,5B,41,4C,31,7E,25,5B,
8626652,00000270,false,Tx,0,8,D7,40,22,0C,CE,E5,1F,E6,
8637961,00000271,false,Tx,0,8,83,0D,91,BC,18,B1,72,E1,
8649904,00000272,false,Tx,0,8,C8,99,26,95,42,9B,C3,E0,
8659598,00000273,false,Tx,0,8,E1,00,DF,50,02,B2,FE,D8,
8678278,000002B6,false,Rx,0,8,C2,00,7D,02,00,00,7E,C3,
8698461,000002B5,false,Rx,0,8,90,00,32,00,00,00,00,A2,
8698700,000002B6,false,Rx,0,8,92,00,7D,02,00,00,7E,93,
8798469,000002B5,false,Rx,0,8,A0,00,32,00,00,00,00,92,
8798708,000002B6,false,Rx,0,8,A2,00,7D,02,00,00,7E,A3,
8886545,000002B6,false,Rx,0,8,A2,00,7D,02,00,00,7E,A3,
8898461,000002B5,false,Rx,0,8,B0,00,32,00,00,00,00,82,
8898701,000002B6,false,Rx,0,8,B2,00,7D,02,00,00,7E,B3,
8998456,000002B5,false,Rx,0,8,C0,00,32,00,00,00,00,F2,
8998696,000002B6,false,Rx,0,8,C2,00,7D,02,00,00,7E,C3,
9045230,00000276,false,Tx,0,8,6E,BE,60,E9,E1,EB,32,DD,
9047470,00000277,false,Tx,0,8,1B,B9,36,6E,CF,52,4B,0B,
9057154,00000278,false,Tx,0,8,83,99,87,8A,58,F0,3E,69,
9067190,00000279,false,Tx,0,8,8A,0E,0C,FC,78,1C,C3,F9,
9077303,0000027A,false,Tx,0,8,A8,A6,91,55,04,78,9F,26,
9087639,0000027B,false,Tx,0,8,49,BB,F7,C7,EF,61,1E,0D,
9097215,0000027C,false,Tx,0,8,64,5A,9E,DB,F3,18,96,08,
9098454,000002B5,false,Rx,0,8,D0,00,32,00,00,00,00,E2,
9107218,0000027D,false,Tx,0,8,CD,49,12,7B,79,37,75,A5,
9118079,0000027E,false,Tx,0,8,8C,57,D1,37,33,C1,32,29,
9127239,0000027F,false,Tx,0,8,FB,81,8D,25,D3,70,AF,0B,
9137573,00000280,false,Tx,0,8,AF,CD,B3,10,0B,3E,04,5E,
9148182,00000281,false,Tx,0,8,66,D2,D8,BC,1E,55,F9,B3,
9157203,00000282,false,Tx,0,8,C2,F6,E5,F9,4A,37,09,3E,
9186541,000002B6,false,Rx,0,8,D2,00,7D,02,00,00,7E,D3,
9198449,000002B5,false,Rx,0,8,E0,00,32,00,00,00,00,D2,
9198688,000002B6,false,Rx,0,8,E2,00,7D,02,00,00,7E,E3,
9249048,00000283,false,Tx,0,8,15,C4,08,44,0F,F4,8C,CE,
9298451,000002B5,false,Rx,0,8,F0,00,32,00,00,00,00,C2,
9298690,000002B6,false,Rx,0,8,F2,00,7D,02,00,00,7E,F3,
9389957,00000284,false,Tx,0,8,3D,B3,77,A5,14,30,22,71,
9398457,000002B5,false,Rx,0,8,00,00,32,00,00,00,00,32,
9398636,00000285,false,Tx,0,8,BF,69,75,4C,3E,10,1B,2A,
9398707,000002B6,false,Rx,0,8,02,00,7D,02,00,00,7E,03,
9408362,00000286,false,Tx,0,8,75,CE,3B,E8,1D,0F,3A,F9,
9498454,000002B5,false,Rx,0,8,10,00,32,00,00,00,00,22,
9498694,000002B6,false,Rx,0,8,12,00,7D,02,00,00,7E,13,
9524865,00000287,false,Tx,0,8,EB,BC,E4,D8,84,B6,81,69,
9528232,00000288,false,Tx,0,8,03,85,49,F2,B2,21,15,85,
9537584,00000289,false,Tx,0,8,12,CA,E4,67,3B,DF,63,4F,
9537584,00000289,false,Tx,0,8,12,CA,E4,67,3B,DF,63,4F,
9547370,0000028A,false,Tx,0,8,B0,B9,17,17,25,A9,44,D4,
9557261,0000028B,false,Tx,0,8,95,C3,B5,BD,B8,B5,92,88,
9567706,0000028C,false,Tx,0,8,0D,00,6A,D1,E3,43,25,8D,
9577706,0000028D,false,Tx,0,8,A6,62,8A,E7,D8,97,F4,2D,
9587335,0000028E,false,Tx,0,8,8B,57,0A,E5,FF,EE,CF,92,
9597292,0000028F,false,Tx,0,8,43,A8,3C,31,F0,3D,5B,8C,
9598444,000002B5,false,Rx,0,8,20,00,32,00,00,00,00,12,
9607163,00000290,false,Tx,0,8,57,6D,AD,79,95,8F,E7,7D,
9617846,00000291,false,Tx,0,8,75,87,99,E6,CD,DC,07,7C,
9627382,00000292,false,Tx,0,8,B7,D7,75,33,8C,09,C8,6D,
9638683,00000293,false,Tx,0,8,9C,0E,95,66,A8,44,A5,92,
9649086,00000294,false,Tx,0,8,4C,B2,6B,97,D5,0C,67,96,
9698442,000002B5,false,Rx,0,8,30,00,32,00,00,00,00,02,
9698681,000002B6,false,Rx,0,8,32,00,7D,02,00,00,7E,33,
9798449,000002B5,false,Rx,0,8,40,00,32,00,00,00,00,72,
9798688,000002B6,false,Rx,0,8,42,00,7D,02,00,00,7E,43,
9859114,00000297,false,Tx,0,8,D7,99,B6,84,3E,D7,F1,F4,
9859114,00000297,false,Tx,0,8,D7,99,B6,84,3E,D7,F1,F4,
9867328,00000298,false,Tx,0,8,68,20,92,47,BB,79,01,F9,
9878124,00000299,false,Tx,0,8,74,0A,BA,63,82,94,03,C7,
9888041,0000029A,false,Tx,0,8,D6,C1,25,20,F1,53,4C,F2,
9898092,0000029B,false,Tx,0,8,CC,02,D8,55,FC,0B,C8,30,
9898441,000002B5,false,Rx,0,8,50,00,32,00,00,00,00,62,
9898680,000002B6,false,Rx,0,8,52,00,7D,02,00,00,7E,53,
9908725,0000029C,false,Tx,0,8,1B,EA,94,E3,A4,D3,7D,89,
9998444,000002B5,false,Rx,0,8,60,00,32,00,00,00,00,52,
9998684,000002B6,false,Rx,0,8,62,00,7D,02,00,00,7E,63,
10020883,0000029D,false,Tx,0,8,24,6E,BC,38,EB,67,7B,57,
10027922,0000029E,false,Tx,0,8,CB,74,3A,A2,51,AE,81,61,
10037413,0000029F,false,Tx,0,8,43,FC,BE,8E,5F,F6,4C,96,
10037413,0000029F,false,Tx,0,8,43,FC,BE,8E,5F,F6,4C,96,
10037413,0000029F,false,Tx,0,8,43,FC,BE,8E,5F,F6,4C,96,
10047580,000002A0,false,Tx,0,8,1B,4C,8A,7E,73,05,1B,DA,
10057401,000002A1,false,Tx,0,8,F0,E9,C5,E4,F5,70,9E,4B,
10067310,000002A2,false,Tx,0,8,30,70,90,1F,B4,CB,C6,B3,
10077258,000002A3,false,Tx,0,8,80,D5,42,62,3B,22,50,CA,
10088204,000002A4,false,Tx,0,8,49,A8,0D,B1,04,F9,D1,AD,
10097383,000002A5,false,Tx,0,8,C3,55,26,4D,94,F7,E9,14,
10098432,000002B5,false,Rx,0,8,70,00,32,00,00,00,00,42,
10104809,00000258,false,Tx,0,8,CB,3F,C4,A4,9F,5E,C7,4D,
10107278,000002A6,false,Tx,0,8,AA,F9,E9,A2,17,FF,2D,F9,
10117231,000002A7,false,Tx,0,8,B9,D1,23,97,49,74,8E,08,
10127208,000002A8,false,Tx,0,8,CF,8C,C2,50,DA,3D,E7,09,
10137349,000002A9,false,Tx,0,8,68,1E,59,B0,69,2D,0A,C2,
10148026,000002AA,false,Tx,0,8,70,7F,29,EE,EB,9B,56,1A,
10158712,000002AB,false,Tx,0,8,79,F5,D9,0C,3D,FD,F3,7F,
10198426,000002B5,false,Rx,0,8,80,00,32,00,00,00,00,B2,
10198664,000002B6,false,Rx,0,8,80,00,7D,02,00,00,7E,81,
10218774,000002AC,false,Tx,0,8,68,C9,45,A6,BD,25,12,CE,
10227176,000002AD,false,Tx,0,8,7E,F1,9A,93,2B,D1,E3,76,
10237388,000002AE,false,Tx,0,8,91,27,D8,72,F0,72,0A,26,
10247350,000002AF,false,Tx,0,8,98,1C,91,7F,14,56,62,27,
10257501,000002B0,false,Tx,0,8,1E,5A,04,1D,2B,76,EB,0D,
10267611,000002B1,false,Tx,0,8,B6,41,FB,15,F3,8D,90,6B,
10278296,000002B2,false,Tx,0,8,40,06,F8,93,39,1B,6B,A9,
10287769,000002B3,false,Tx,0,8,BC,02,23,70,08,78,0A,05,
10298294,000002B4,false,Tx,0,8,F7,71,76,0F,A0,D4,D2,DB,
10298436,000002B5,false,Rx,0,8,90,00,32,00,00,00,00,A2,
10307230,000002B5,false,Tx,0,8,BD,CB,CD,83,F0,CC,13,A1,
10310864,0000025C,false,Tx,0,8,19,03,2B,83,62,13,BF,D3,
10317361,00000200,false,Tx,0,8,E8,D2,4F,24,42,C2,24,FE,
10327350,00000201,false,Tx,0,8,BC,D9,DC,5D,AB,57,89,21,
10337376,00000202,false,Tx,0,8,C7,FA,91,83,6B,BC,0B,A1,
10347280,00000203,false,Tx,0,8,7C,68,1B,64,5C,28,A3,75,
10357472,00000204,false,Tx,0,8,9E,5B,CA,16,88,30,CE,3E,
10367514,00000205,false,Tx,0,8,7F,E1,DF,56,C5,17,0B,B3,
10377304,00000206,false,Tx,0,8,C4,65,E7,58,ED,D7,4F,74,
10387221,00000207,false,Tx,0,8,09,E5,73,12,BC,36,9B,F7,
10397337,00000208,false,Tx,0,8,46,2B,37,6A,49,38,16,D4,
10398422,000002B5,false,Rx,0,8,A0,00,32,00,00,00,00,92,
10407145,00000209,false,Tx,0,8,DA,86,8C,F8,75,A1,54,44,
10498438,000002B5,false,Rx,0,8,B0,00,32,00,00,00,00,82,
10498677,000002B6,false,Rx,0,8,B0,00,7D,02,00,00,7E,B1,
10501875,0000020A,false,Tx,0,8,6C,BD,AB,2D,05,C9,FB,62,
10581934,0000020B,false,Tx,0,8,98,F2,A8,64,B6,6B,66,04,
10587757,0000020C,false,Tx,0,8,E2,03,26,EF,56,C7,F1,93,
10597208,0000020D,false,Tx,0,8,AB,D0,DA,9D,27,4C,65,D1,
10598430,000002B5,false,Rx,0,8,C0,00,32,00,00,00,00,F2,
10607921,0000020E,false,Tx,0,8,D3,E8,90,6B,04,1A,95,90,
10619254,0000020F,false,Tx,0,8,B4,9A,DB,B3,C3,C8,D6,6A,
10629351,00000210,false,Tx,0,8,42,53,5E,7B,DE,2C,3C,9B,
10638692,00000211,false,Tx,0,8,98,CB,D0,60,3F,7A,CC,3E,
10648906,00000212,false,Tx,0,8,50,FD,EF,41,44,F1,1A,19,
10658798,00000213,false,Tx,0,8,E7,C8,39,D4,0A,82,9F,2B,
10698415,000002B5,false,Rx,0,8,D0,00,32,00,00,00,00,E2,
10698654,000002B6,false,Rx,0,8,D0,00,7D,02,00,00,7E,D1,
10729607,00000264,false,Tx,0,8,74,57,7A,B4,AB,C6,F3,25,
10798424,000002B5,false,Rx,0,8,E0,00,32,00,00,00,00,D2,
10798663,000002B6,false,Rx,0,8,E0,00,7D,02,00,00,7E,E1,
10799522,00000265,false,Tx,0,8,6A,C2,0C,E2,2A,39,C3,D9,
10853373,00000214,false,Tx,0,8,40,5D,C4,C8,0A,D5,A9,A1,
10857675,00000215,false,Tx,0,8,F3,3B,85,D1,59,7D,02,FF,
10867265,00000216,false,Tx,0,8,36,60,D8,20,C0,8C,9A,C8,
10877257,00000217,false,Tx,0,8,C1,67,A5,A5,39,40,93,19,
10886518,000002B6,false,Rx,0,8,E2,00,7D,02,00,00,7E,E3,
10887355,00000218,false,Tx,0,8,B1,E6,55,8E,54,7C,AC,8B,
10897217,00000219,false,Tx,0,8,C9,9C,5B,35,EC,AA,9B,43,
10898428,000002B5,false,Rx,0,8,F0,00,32,00,00,00,00,C2,
10907320,0000021A,false,Tx,0,8,58,D0,2E,31,2D,08,0D,78,
10975676,0000021B,false,Tx,0,8,DE,52,A3,2C,6F,0C,1F,66,
10977397,0000021C,false,Tx,0,8,54,47,67,16,33,06,AE,E4,
10987381,0000021D,false,Tx,0,8,0B,CB,80,CB,5C,E9,20,EC,
10997303,0000021E,false,Tx,0,8,D8,B4,DE,40,B7,AE,A5,96,
10998417,000002B5,false,Rx,0,8,00,00,32,00,00,00,00,32,
11007266,0000021F,false,Tx,0,8,D7,86,3C,0A,EB,28,5A,1E,
11007266,0000021F,false,Tx,0,8,D7,86,3C,0A,EB,28,5A,1E,
11017219,00000220,false,Tx,0,8,88,0F,62,37,DA,9A,F7,97,
11028019,00000221,false,Tx,0,8,7D,F5,17,D2,40,A9,23,61,
11037416,00000222,false,Tx,0,8,39,D2,50,25,31,CE,1E,20,
11047332,00000223,false,Tx,0,8,C6,F9,FC,AD,ED,0A,F3,50,
11057387,00000224,false,Tx,0,8,AC,B0,F5,12,4A,49,BD,BA,
11067404,00000225,false,Tx,0,8,07,82,B0,AE,8E,C5,34,10,
11077288,00000226,false,Tx,0,8,7B,E4,D5,9D,C9,4F,45,E9,
11077288,00000226,false,Tx,0,8,7B,E4,D5,9D,C9,4F,45,E9,
11086520,000002B6,false,Rx,0,8,02,00,7D,02,00,00,7E,03,
11087376,00000227,false,Tx,0,8,82,12,FB,F6,D7,B5,2D,2D,
11098380,00000228,false,Tx,0,8,8C,29,D3,81,E2,C4,1E,7D,
11098419,000002B5,false,Rx,0,8,10,00,32,00,00,00,00,22,
11107271,00000229,false,Tx,0,8,6F,AA,14,D2,4B,05,16,32,
11118068,0000022A,false,Tx,0,8,06,6D,8C,BC,CC,96,44,26,
11127294,0000022B,false,Tx,0,8,C3,89,73,6B,20,7E,E5,FF,
11137251,0000022C,false,Tx,0,8,E6,FD,8A,79,B3,F9,19,99,
11148131,0000022D,false,Tx,0,8,45,FC,7D,71,89,88,B0,56,
11157255,0000022E,false,Tx,0,8,7A,9F,AA,D5,C7,8D,C2,C0,
11186512,000002B6,false,Rx,0,8,12,00,7D,02,00,00,7E,13,
11198423,000002B5,false,Rx,0,8,20,00,32,00,00,00,00,12,
11198662,000002B6,false,Rx,0,8,22,00,7D,02,00,00,7E,23,
11198662,000002B6,false,Rx,0,8,22,00,7D,02,00,00,7E,23,
11226821,0000022F,false,Tx,0,8,56,25,CF,16,50,95,FD,24,
11237489,00000230,false,Tx,0,8,36,8D,A2,04,DF,13,18,55,
11246758,00000231,false,Tx,0,8,61,CE,4A,57,E4,30,62,A5,
11257374,00000232,false,Tx,0,8,F4,8E,01,FE,25,23,09,42,
11266891,00000233,false,Tx,0,8,1D,5B,98,CB,F8,1E,C4,2E,
11276945,00000234,false,Tx,0,8,34,A4,37,8C,AA,B9,3E,0A,
11286509,000002B6,false,Rx,0,8,22,00,7D,02,00,00,7E,23,
11286812,00000235,false,Tx,0,8,B6,D1,6F,59,62,BE,32,09,
11296839,00000236,false,Tx,0,8,EF,2C,10,41,6D,C7,6C,3E,
11298416,000002B5,false,Rx,0,8,30,00,32,00,00,00,00,02,
11298654,000002B6,false,Rx,0,8,32,00,7D,02,00,00,7E,33,
11306733,00000237,false,Tx,0,8,94,23,4C,42,BE,11,53,9A,
11318721,00000238,false,Tx,0,8,1F,43,95,E0,EF,7E,35,43,
11327561,00000239,false,Tx,0,8,A5,16,59,7F,34,ED,0D,A7,
11337439,0000023A,false,Tx,0,8,51,B7,5B,90,69,15,DD,58,
11347516,0000023B,false,Tx,0,8,91,18,5A,32,9C,AE,38,68,
11357416,0000023C,false,Tx,0,8,61,1C,CF,CC,81,EB,8D,FE,
11367943,0000023D,false,Tx,0,8,98,A6,69,EA,B8,F0,CA,4E,
11376978,0000023E,false,Tx,0,8,1F,30,96,3E,4C,5D,85,B5,
11386988,0000023F,false,Tx,0,8,FB,81,81,36,26,79,A4,45,
11397957,00000240,false,Tx,0,8,55,BE,80,14,97,CA,0F,A0,
11397957,00000240,false,Tx,0,8,55,BE,80,14,97,CA,0F,A0,
11398399,000002B5,false,Rx,0,8,40,00,32,00,00,00,00,72,
11398639,000002B6,false,Rx,0,8,42,00,7D,02,00,00,7E,43,
11485426,00000271,false,Tx,0,8,3A,3A,18,6E,20,A2,9D,97,
11498414,000002B5,false,Rx,0,8,50,00,32,00,00,00,00,62,
11498653,000002B6,false,Rx,0,8,52,00,7D,02,00,00,7E,53,
11569389,00000242,false,Tx,0,8,A0,58,95,19,F5,19,42,0B,
11577066,00000243,false,Tx,0,8,9B,7A,97,34,0B,CB,34,A7,
11587580,00000244,false,Tx,0,8,60,91,C1,60,CC,38,D0,E2,
11596947,00000245,false,Tx,0,8,1C,03,F3,E9,F3,87,FF,E7,
11598394,000002B5,false,Rx,0,8,60,00,32,00,00,00,00,52,
11606994,00000246,false,Tx,0,8,66,52,29,0B,DF,7C,8D,FF,
11617162,00000247,false,Tx,0,8,35,6C,B5,97,B4,55,C5,F0,
11626838,00000248,false,Tx,0,8,A1,2A,F3,21,9F,9E,4D,B9,
11638518,00000249,false,Tx,0,8,14,91,CB,11,EA,B3,AA,8D,
11648043,0000024A,false,Tx,0,8,16,51,6C,98,18,44,A9,BD,
11656931,0000024B,false,Tx,0,8,B6,C0,2D,1D,0B,55,06,F2,
11698408,000002B5,false,Rx,0,8,70,00,32,00,00,00,00,42,
11698647,000002B6,false,Rx,0,8,72,00,7D,02,00,00,7E,73,
11715299,0000024C,false,Tx,0,8,FC,B7,F8,1D,F8,9B,EE,4D,
11717043,0000024D,false,Tx,0,8,45,47,ED,AE,0F,B1,8F,84,
11727041,0000024E,false,Tx,0,8,C0,45,68,2A,79,07,DC,DF,
11737245,0000024F,false,Tx,0,8,0C,E4,4D,63,8E,DD,B5,25,
11747058,00000250,false,Tx,0,8,A7,3B,4C,89,16,43,A5,52,
11757305,00000251,false,Tx,0,8,EA,D2,5B,C8,97,9A,9B,36,
11766925,00000252,false,Tx,0,8,BC,70,46,82,6D,B9,D3,B0,
11777018,00000253,false,Tx,0,8,44,29,10,DD,4D,4F,90,60,
11787476,00000254,false,Tx,0,8,EF,0F,F3,9E,B9,21,50,62,
11797367,00000255,false,Tx,0,8,64,F6,22,1A,77,9C,C0,A3,
11798393,000002B5,false,Rx,0,8,80,00,32,00,00,00,00,B2,
11798632,000002B6,false,Rx,0,8,82,00,7D,02,00,00,7E,83,
11798632,000002B6,false,Rx,0,8,82,00,7D,02,00,00,7E,83,
11806986,00000256,false,Tx,0,8,40,16,B6,B9,0F,1F,FB,0F,
11816507,00000257,false,Tx,0,8,7A,FF,90,3E,A9,2E,E3,4B,
11826517,00000258,false,Tx,0,8,D1,89,86,D8,BA,48,A1,A4,
11836814,00000259,false,Tx,0,8,B7,A3,F6,FB,D4,31,C2,08,
11847298,0000025A,false,Tx,0,8,02,AC,69,0A,9C,CB,37,1C,
11856727,0000025B,false,Tx,0,8,79,CF,22,78,DB,1E,39,51,
11867110,0000025C,false,Tx,0,8,86,61,FE,57,6E,25,FF,6B,
11876788,0000025D,false,Tx,0,8,0B,D9,06,A9,39,47,7A,C7,
11877970,000002B5,false,Rx,0,8,C0,00,32,00,00,00,00,F2,
11887733,0000025E,false,Tx,0,8,C1,28,51,99,94,90,23,E6,
11898408,000002B5,false,Rx,0,8,90,00,32,00,00,00,00,A2,
11898844,0000025F,false,Tx,0,8,01,63,D6,D4,90,65,75,91,
11907729,00000260,false,Tx,0,8,41,F5,91,4F,8A,DE,6E,DD,
11964779,00000261,false,Tx,0,8,8D,51,87,34,A1,6F,A9,34,
11968471,00000262,false,Tx,0,8,5B,4C,F4,E7,82,49,50,9C,
11977726,00000263,false,Tx,0,8,DB,48,21,09,89,BE,EC,C6,
11988246,00000264,false,Tx,0,8,65,8B,4B,87,E9,3C,BC,90,
11997716,00000265,false,Tx,0,8,5B,49,1A,B4,C5,F4,21,23,
11998390,000002B5,false,Rx,0,8,A0,00,32,00,00,00,00,92,
11998629,000002B6,false,Rx,0,8,A2,00,7D,02,00,00,7E,A3,
12008210,00000266,false,Tx,0,8,6F,6D,07,67,BA,0D,78,68,
12018038,00000267,false,Tx,0,8,F5,64,C7,21,3A,85,2D,05,
12028132,00000268,false,Tx,0,8,6E,36,FF,52,37,62,45,DE,
12038339,00000269,false,Tx,0,8,D0,E8,92,C4,92,8F,70,3C,
12047894,0000026A,false,Tx,0,8,16,4F,67,0D,00,78,E9,55,
12061637,0000026B,false,Tx,0,8,ED,02,AA,8B,65,0E,61,49,
12068591,0000026C,false,Tx,0,8,21,CA,66,2F,3F,E6,45,93,
12077971,000002B5,false,Rx,0,8,E0,00,32,00,00,00,00,D2,
12079009,0000026D,false,Tx,0,8,16,FB,4A,A9,25,3E,67,A3,
12088723,0000026E,false,Tx,0,8,82,0F,CE,F4,15,20,74,EB,
12098648,000002B6,false,Rx,0,8,B2,00,7D,02,00,00,7E,B3,
12100339,0000026F,false,Tx,0,8,3E,D6,66,8F,EC,DE,2B,6B,
12113595,00000270,false,Tx,0,8,EB,B6,24,F0,71,8E,4A,F2,
12113595,00000270,false,Tx,0,8,EB,B6,24,F0,71,8E,4A,F2,
12123669,00000271,false,Tx,0,8,B1,D5,DD,38,F4,B5,EA,F3,
12133580,00000272,false,Tx,0,8,2F,5D,30,21,05,B8,16,47,
12145430,00000273,false,Tx,0,8,37,47,E9,DB,49,85,75,F2,
12155747,00000274,false,Tx,0,8,DF,2F,E2,AC,8D,F5,CA,E6,
12163590,00000275,false,Tx,0,8,37,A9,7A,24,24,CE,4F,D6,
12198388,000002B5,false,Rx,0,8,C0,00,32,00,00,00,00,F2,
12198626,000002B6,false,Rx,0,8,C2,00,7D,02,00,00,7E,C3,
12286221,00000277,false,Tx,0,8,13,F7,42,65,8D,CB,F3,2E,
12288716,00000278,false,Tx,0,8,68,AC,97,A7,66,74,07,67,
12297507,00000279,false,Tx,0,8,90,21,92,D6,CE,6F,54,FD,
12298391,000002B5,false,Rx,0,8,D0,00,32,00,00,00,00,E2,
12307526,0000027A,false,Tx,0,8,B5,D3,27,13,B1,E9,DC,EB,
12316418,0000027B,false,Tx,0,8,45,3B,C1,34,73,E3,1D,A0,
12327477,0000027C,false,Tx,0,8,CF,4B,96,8E,AE,CF,29,B7,
12337610,0000027D,false,Tx,0,8,27,BF,C9,3A,EA,51,B5,B8,
12346481,0000027E,false,Tx,0,8,7B,23,6D,76,21,8C,F8,7E,
12357616,0000027F,false,Tx,0,8,8A,42,44,D0,3E,99,E1,29,
12367929,00000280,false,Tx,0,8,C0,CC,BD,EE,CC,55,E6,03,
12377458,00000281,false,Tx,0,8,70,C7,F3,4C,6B,58,5B,38,
12388850,00000282,false,Tx,0,8,B4,E8,D4,E0,9A,20,35,C6,
12398397,000002B5,false,Rx,0,8,E0,00,32,00,00,00,00,D2,
12398637,000002B6,false,Rx,0,8,E2,00,7D,02,00,00,7E,E3,
12398680,00000283,false,Tx,0,8,16,02,D1,8F,C6,D9,BC,D3,
12409043,00000284,false,Tx,0,8,91,55,03,D9,B4,99,E3,07,
12415458,00000282,false,Tx,0,8,85,5D,1F,F1,BC,DE,47,12,
12495768,00000285,false,Tx,0,8,72,25,AE,DE,D9,F4,A0,CE,
12497386,00000286,false,Tx,0,8,E1,83,6A,AB,72,4D,56,7B,
12498374,000002B5,false,Rx,0,8,F0,00,32,00,00,00,00,C2,
12507519,00000287,false,Tx,0,8,05,AD,70,67,5F,B2,77,CF,
12516445,00000288,false,Tx,0,8,FF,CF,14,FF,FC,90,41,97,
12526604,00000289,false,Tx,0,8,D6,0E,FD,44,0B,D1,3C,01,
12537532,0000028A,false,Tx,0,8,0D,1D,90,F2,3D,44,76,8B,
12547919,0000028B,false,Tx,0,8,F5,7D,98,D4,5E,EB,C4,3E,
12557598,0000028C,false,Tx,0,8,43,A2,CD,91,57,79,C7,02,
12568639,0000028D,false,Tx,0,8,C9,25,2B,FF,93,8C,3F,45,
12576594,0000028E,false,Tx,0,8,0A,1D,04,D0,87,0A,9F,54,
12586478,000002B6,false,Rx,0,8,F2,00,7D,02,00,00,7E,F3,
12588818,0000028F,false,Tx,0,8,9C,D3,50,EB,E2,22,AA,1D,
12588818,0000028F,false,Tx,0,8,9C,D3,50,EB,E2,22,AA,1D,
12596564,00000290,false,Tx,0,8,1E,8D,F7,12,12,BC,C6,F4,
12598397,000002B5,false,Rx,0,8,00,00,32,00,00,00,00,32,
12607522,00000291,false,Tx,0,8,EA,D3,F9,6D,8A,34,16,15,
12618562,00000292,false,Tx,0,8,66,79,AE,5E,01,DB,82,3F,
12629121,00000293,false,Tx,0,8,60,35,E5,99,26,37,1D,BB,
12637500,00000294,false,Tx,0,8,5B,9A,D5,BF,81,7D,FE,A7,
12646481,00000295,false,Tx,0,8,92,92,29,71,ED,0E,46,66,
12657542,00000296,false,Tx,0,8,30,0B,42,7B,ED,96,A3,93,
12698379,000002B5,false,Rx,0,8,10,00,32,00,00,00,00,22,
12698618,000002B6,false,Rx,0,8,12,00,7D,02,00,00,7E,13,
12742534,00000297,false,Tx,0,8,D4,F8,FA,97,96,A1,0A,48,
12747491,00000298,false,Tx,0,8,83,A2,87,24,A5,EA,F2,EA,
12757602,00000299,false,Tx,0,8,63,50,08,F6,73,35,BE,63,
12766641,0000029A,false,Tx,0,8,27,B3,66,D1,E3,6B,CD,FF,
12766641,0000029A,false,Tx,0,8,27,B3,66,D1,E3,6B,CD,FF,
12776945,0000029B,false,Tx,0,8,CE,7B,23,35,8B,C6,01,98,
12786687,0000029C,false,Tx,0,8,65,BC,60,89,C1,F8,84,09,
12797217,0000029D,false,Tx,0,8,AF,48,97,BD,5F,CE,F9,67,
12798374,000002B5,false,Rx,0,8,20,00,32,00,00,00,00,12,
12806867,0000029E,false,Tx,0,8,8E,F2,27,90,E0,E1,D2,1C,
12816657,0000029F,false,Tx,0,8,49,FC,3A,F7,7A,11,1F,56,
12826818,000002A0,false,Tx,0,8,C6,D1,28,DE,64,45,D3,7D,
12837309,000002A1,false,Tx,0,8,9C,46,91,FB,95,CF,39,B4,
12847446,000002A2,false,Tx,0,8,CE,46,28,7B,08,3B,73,B9,
12857491,000002A3,false,Tx,0,8,2B,30,43,A9,A3,71,C9,B0,
12866614,000002A4,false,Tx,0,8,5B,2D,9F,06,EB,7E,EA,B9,
12876784,000002A5,false,Tx,0,8,F0,56,EF,FB,6B,C2,6A,B3,
12886585,000002A6,false,Tx,0,8,0F,C3,78,84,5D,76,E1,6B,
12898369,000002B5,false,Rx,0,8,30,00,32,00,00,00,00,02,
12899640,000002A7,false,Tx,0,8,73,05,E1,7C,7E,D5,24,F4,
12907372,000002A8,false,Tx,0,8,E4,E8,B2,B9,14,9C,63,E2,
12915651,0000028A,false,Tx,0,8,73,B2,A8,C5,91,51,50,F1,
12969134,000002A9,false,Tx,0,8,76,78,E5,9D,63,D1,19,37,
12977371,000002AA,false,Tx,0,8,69,47,D9,C7,C6,00,86,67,
12977371,000002AA,false,Tx,0,8,69,47,D9,C7,C6,00,86,67,
12987309,000002AB,false,Tx,0,8,1A,F6,59,42,B6,B1,31,8A,
12997337,000002AC,false,Tx,0,8,A2,7D,BB,D6,F7,13,BE,5D,
12998376,000002B5,false,Rx,0,8,40,00,32,00,00,00,00,72,
13007507,000002AD,false,Tx,0,8,5A,08,52,4A,D3,55,5F,0D,
13017891,000002AE,false,Tx,0,8,1A,1E,28,E6,0A,67,8D,76,
13027387,000002AF,false,Tx,0,8,89,72,93,54,FD,0F,5E,3E,
13037416,000002B0,false,Tx,0,8,0C,7C,F9,76,67,33,57,88,
13047361,000002B1,false,Tx,0,8,8A,B1,87,C9,97,31,EA,71,
13058438,000002B2,false,Tx,0,8,CC,19,4B,6C,05,13,A0,92,
13067755,000002B3,false,Tx,0,8,E5,9B,1F,AA,B8,ED,71,25,
13077272,000002B4,false,Tx,0,8,50,0E,96,41,02,66,D1,F3,
13077272,000002B4,false,Tx,0,8,50,0E,96,41,02,66,D1,F3,
13087236,000002B5,false,Tx,0,8,A6,D3,EF,7E,DC,4E,D1,40,
13097869,00000200,false,Tx,0,8,19,CF,31,F3,F5,42,51,8E,
13098371,000002B5,false,Rx,0,8,50,00,32,00,00,00,00,62,
13107402,00000201,false,Tx,0,8,E0,1F,BF,A4,2A,E8,5B,3F,
13117982,00000202,false,Tx,0,8,EE,12,B2,5D,8C,C4,9E,2A,
13127328,00000203,false,Tx,0,8,84,81,29,AF,C8,A7,AF,17,
13137304,00000204,false,Tx,0,8,FE,6C,D6,89,6F,F1,99,A1,
13137304,00000204,false,Tx,0,8,FE,6C,D6,89,6F,F1,99,A1,
13148429,00000205,false,Tx,0,8,C9,78,48,75,93,E8,4C,76,
13157342,00000206,false,Tx,0,8,54,A0,37,45,2F,A1,4B,F6,
13198364,000002B5,false,Rx,0,8,60,00,32,00,00,00,00,52,
13198603,000002B6,false,Rx,0,8,60,00,7D,02,00,00,7E,61,
13226865,00000207,false,Tx,0,8,26,9A,31,EB,83,51,82,11,
13237083,00000208,false,Tx,0,8,CB,7F,79,51,9A,8F,97,55,
13247382,00000209,false,Tx,0,8,04,15,3A,B5,C4,E2,36,6A,
13257242,0000020A,false,Tx,0,8,70,B0,4B,D4,6B,49,5F,30,
13268424,0000020B,false,Tx,0,8,3F,1F,77,8D,F9,C5,64,E2,
13278176,0000020C,false,Tx,0,8,61,B5,BB,F4,B6,A1,B5,30,
13287695,0000020D,false,Tx,0,8,03,32,90,A9,82,3A,C2,0F,
13297442,0000020E,false,Tx,0,8,FA,52,71,76,A5,4F,4B,F6,
13298376,000002B5,false,Rx,0,8,70,00,32,00,00,00,00,42,
13308200,0000020F,false,Tx,0,8,DD,DF,A9,92,8B,47,24,84,
13316722,00000210,false,Tx,0,8,5E,F3,73,34,29,47,0F,4F,
13327063,00000211,false,Tx,0,8,3A,71,2B,3E,D9,DF,51,C5,
13338896,00000212,false,Tx,0,8,BA,3E,E9,E5,13,5F,14,6D,
13346706,00000213,false,Tx,0,8,AE,4D,EE,FD,A0,88,44,C8,
13347274,00000294,false,Tx,0,8,34,73,2A,54,3D,DC,F3,71,
13357407,00000214,false,Tx,0,8,29,74,82,44,67,C2,A1,87,
13368339,00000215,false,Tx,0,8,46,BE,C7,A0,30,8E,FF,68,
13377248,00000216,false,Tx,0,8,DF,AF,1F,66,EF,9E,D3,5E,
13386964,00000217,false,Tx,0,8,D2,3C,40,FB,D5,33,86,03,
13397709,00000218,false,Tx,0,8,95,5E,5C,3B,A3,FB,C9,47,
13398361,000002B5,false,Rx,0,8,80,00,32,00,00,00,00,B2,
13407066,00000219,false,Tx,0,8,77,89,0F,9D,E0,E4,3A,76,
13467243,0000021A,false,Tx,0,8,15,6F,08,C9,B3,03,34,F6,
13477170,0000021B,false,Tx,0,8,5B,DE,FD,4F,4A,19,20,A1,
13487077,0000021C,false,Tx,0,8,E4,A7,7C,ED,CB,1B,AD,84,
13496691,0000021D,false,Tx,0,8,14,11,3B,39,C9,FF,0F,D4,
13498368,000002B5,false,Rx,0,8,90,00,32,00,00,00,00,A2,
13507130,0000021E,false,Tx,0,8,3E,9A,81,C5,11,60,AD,0D,
13517082,0000021F,false,Tx,0,8,0B,F4,93,66,0A,3D,CD,17,
13527413,00000220,false,Tx,0,8,2F,1A,49,1D,6E,3A,91,0B,
13536647,00000221,false,Tx,0,8,0A,1A,E0,9F,34,32,71,73,
13546761,00000222,false,Tx,0,8,E9,69,40,9B,E0,0F,07,A3,
13558510,00000223,false,Tx,0,8,B1,E3,E0,F6,87,8F,99,28,
13567920,00000224,false,Tx,0,8,E4,8B,79,6E,89,DF,8E,0C,
13577184,00000225,false,Tx,0,8,56,DE,31,39,C0,5A,37,BE,
13587032,00000226,false,Tx,0,8,A0,BB,B9,14,0B,6B,61,5F,
13597486,00000227,false,Tx,0,8,7A,08,09,E3,44,3F,FB,B2,
13598351,000002B5,false,Rx,0,8,A0,00,32,00,00,00,00,92,
13607405,00000228,false,Tx,0,8,62,C9,98,D3,55,F7,70,D6,
13617456,00000229,false,Tx,0,8,D3,89,47,F8,52,29,56,13,
13626645,0000022A,false,Tx,0,8,7B,89,4E,D6,80,EF,62,56,
13636564,0000022B,false,Tx,0,8,D7,71,E5,45,B4,C9,54,FF,
13648462,0000022C,false,Tx,0,8,23,B2,09,39,97,DB,BC,6D,
13648462,0000022C,false,Tx,0,8,23,B2,09,39,97,DB,BC,6D,
13658076,0000022D,false,Tx,0,8,88,26,4A,B4,3E,76,A9,7A,
13672386,0000029A,false,Tx,0,8,B0,E3,77,74,98,BA,AE,90,
13698371,000002B5,false,Rx,0,8,B0,00,32,00,00,00,00,82,
13698610,000002B6,false,Rx,0,8,B0,00,7D,02,00,00,7E,B1,
13721817,0000022E,false,Tx,0,8,D3,FB,5C,23,58,4B,82,39,
13727458,0000022F,false,Tx,0,8,5A,68,E4,AD,67,07,9A,8D,
13737841,00000230,false,Tx,0,8,A3,25,F8,31,BD,A1,3D,44,
13747589,00000231,false,Tx,0,8,58,6F,10,C6,B5,21,B9,45,
13758153,00000232,false,Tx,0,8,B0,A1,88,8D,4F,F2,62,F5,
13768186,00000233,false,Tx,0,8,32,08,61,1C,9F,C9,D9,50,
13777676,00000234,false,Tx,0,8,61,83,E7,F3,D5,CC,79,45,
13787922,00000235,false,Tx,0,8,B3,E0,33,C5,62,77,6D,C7,
13797673,00000236,false,Tx,0,8,5B,90,FB,C2,CA,0D,29,15,
13798359,000002B5,false,Rx,0,8,C0,00,32,00,00,00,00,F2,
13807663,00000237,false,Tx,0,8,43,40,9D,27,47,31,06,13,
13819869,00000238,false,Tx,0,8,0D,2D,25,F7,31,01,C6,26,
13827644,00000239,false,Tx,0,8,F9,85,A7,9D,FA,5C,ED,4F,
13837423,0000023A,false,Tx,0,8,1F,88,38,52,B5,8B,BD,E6,
13847405,0000023B,false,Tx,0,8,94,0E,6E,54,80,D8,B7,91,
13858111,0000023C,false,Tx,0,8,0C,DF,F7,34,EB,CB,20,0E,
13868451,0000023D,false,Tx,0,8,47,E2,85,D2,38,00,09,5B,
13877499,0000023E,false,Tx,0,8,C6,AC,D3,42,BD,1B,A2,2A,
13887480,0000023F,false,Tx,0,8,62,D4,EA,23,84,BB,24,DF,
13898262,00000240,false,Tx,0,8,BD,A0,F1,F8,BC,E3,F1,D1,
13898365,000002B5,false,Rx,0,8,D0,00,32,00,00,00,00,E2,
13907427,00000241,false,Tx,0,8,39,FB,5D,72,D1,10,F2,C5,
13974060,00000242,false,Tx,0,8,85,FE,9B,BA,70,D8,73,5C,
13977376,00000243,false,Tx,0,8,67,87,57,31,30,5C,AB,7E,
13987422,00000244,false,Tx,0,8,C2,AB,24,A0,CC,BE,5F,0B,
13997642,00000245,false,Tx,0,8,DD,03,17,D8,1C,6D,AC,CD,
13998362,000002B5,false,Rx,0,8,E0,00,32,00,00,00,00,D2,
14007394,00000246,false,Tx,0,8,81,D5,E9,76,96,61,3C,39,
14018316,00000247,false,Tx,0,8,36,B6,EF,7A,D8,DF,85,56,
14027413,00000248,false,Tx,0,8,A3,31,5F,7F,00,36,EE,C4,
14038890,00000249,false,Tx,0,8,DA,A5,4A,8C,1C,FF,DA,2B,
14047511,0000024A,false,Tx,0,8,5A,18,54,C3,D0,2F,48,59,
14057967,0000024B,false,Tx,0,8,A5,D4,22,4C,CF,D0,DE,9D,
14068195,0000024C,false,Tx,0,8,EC,8C,E5,88,AC,33,E7,79,
14077392,0000024D,false,Tx,0,8,48,A5,29,95,9E,BF,37,EE,
14087306,0000024E,false,Tx,0,8,39,3C,FD,8C,2E,61,6F,24,
14097577,0000024F,false,Tx,0,8,0E,72,8C,27,43,24,EF,DC,
14098354,000002B5,false,Rx,0,8,F0,00,32,00,00,00,00,C2,
14107338,00000250,false,Tx,0,8,4D,52,BE,58,AF,D1,1B,64,
14107338,00000250,false,Tx,0,8,4D,52,BE,58,AF,D1,1B,64,
14118260,00000251,false,Tx,0,8,71,D3,A8,E3,A5,2F,B3,26,
14127292,00000252,false,Tx,0,8,D9,6F,F4,77,F9,C0,90,90,
14137351,00000253,false,Tx,0,8,B2,6F,3C,3A,E4,DA,B6,43,
14148427,00000254,false,Tx,0,8,26,DF,39,87,E2,9B,6D,D4,
14148427,00000254,false,Tx,0,8,26,DF,39,87,E2,9B,6D,D4,
14157548,00000255,false,Tx,0,8,77,A7,64,E1,3B,77,52,94,
14198343,000002B5,false,Rx,0,8,00,00,32,00,00,00,00,32,
14198592,000002B6,false,Rx,0,8,02,00,7D,02,00,00,7E,03,
14229470,00000256,false,Tx,0,8,D0,97,DA,00,D6,B9,84,28,
14236838,00000257,false,Tx,0,8,1B,18,E7,89,9A,DB,17,E9,
14246791,00000258,false,Tx,0,8,4A,27,02,63,76,02,A8,18,
14257975,00000259,false,Tx,0,8,81,9C,FF,1C,84,B0,CE,EE,
14268346,0000025A,false,Tx,0,8,03,78,A1,87,FE,45,BE,FC,
14277579,0000025B,false,Tx,0,8,5C,2F,E0,16,28,1F,8B,6D,
14288063,0000025C,false,Tx,0,8,6C,1B,1A,12,5A,32,44,B2,
14296513,0000025D,false,Tx,0,8,A1,8C,F7,E6,3D,CE,58,E7,
14298356,000002B5,false,Rx,0,8,10,00,32,00,00,00,00,22,
14298356,000002B5,false,Rx,0,8,10,00,32,00,00,00,00,22,
14298596,000002B6,false,Rx,0,8,12,00,7D,02,00,00,7E,13,
14306545,0000025E,false,Tx,0,8,85,B3,CF,85,E5,B7,95,9E,
14317179,0000025F,false,Tx,0,8,07,21,75,C0,A8,3D,A0,E4,
14327367,00000260,false,Tx,0,8,E2,5D,A5,A3,2B,46,6C,00,
14337436,00000261,false,Tx,0,8,94,AC,2D,02,5C,C1,ED,51,
14347582,00000262,false,Tx,0,8,16,C0,A8,0E,43,90,E7,CD,
14358651,00000263,false,Tx,0,8,40,2D,0F,92,C5,85,66,A9,
14367506,00000264,false,Tx,0,8,E5,12,82,8B,A2,13,78,9C,
14377455,00000265,false,Tx,0,8,6C,6F,59,1A,A3,E4,9D,AB,
14386668,00000266,false,Tx,0,8,70,9A,1C,74,94,1E,97,9B,
14398342,000002B5,false,Rx,0,8,20,00,32,00,00,00,00,12,
14399771,00000267,false,Tx,0,8,B1,03,18,4D,DA,3D,19,36,
14407469,00000268,false,Tx,0,8,37,B4,0D,B7,DA,CA,B9,7D,
14467760,00000269,false,Tx,0,8,C5,F3,DD,16,74,C6,21,B0,
14477198,0000026A,false,Tx,0,8,72,0F,F1,6A,85,4E,76,5F,
14486564,0000026B,false,Tx,0,8,49,1E,2C,1B,EC,43,66,E4,
14496647,0000026C,false,Tx,0,8,B9,55,32,28,9D,AF,5C,E0,
14496647,0000026C,false,Tx,0,8,B9,55,32,28,9D,AF,5C,E0,
14498349,000002B5,false,Rx,0,8,30,00,32,00,00,00,00,02,
14507551,0000026D,false,Tx,0,8,2D,1C,F5,15,22,52,22,00,
14517108,0000026E,false,Tx,0,8,98,65,4A,EE,6C,9A,DA,A4,
14526710,0000026F,false,Tx,0,8,C1,F5,BA,E4,A6,FD,32,65,
14536728,00000270,false,Tx,0,8,25,EC,26,D1,AF,E1,45,04,
14546669,00000271,false,Tx,0,8,B2,FD,11,85,08,7E,A9,40,
14557782,00000272,false,Tx,0,8,11,BC,02,92,3B,02,0A,D4,
14568243,00000273,false,Tx,0,8,47,1A,21,3D,68,EE,E1,BF,
14577692,00000274,false,Tx,0,8,CD,7B,46,61,06,95,D6,BE,
14588235,00000275,false,Tx,0,8,E7,CA,79,DE,4E,DC,6C,7B,
14597385,00000276,false,Tx,0,8,F2,0E,FA,57,54,51,7D,42,
14597385,00000276,false,Tx,0,8,F2,0E,FA,57,54,51,7D,42,
14598334,000002B5,false,Rx,0,8,40,00,32,00,00,00,00,72,
14607473,00000277,false,Tx,0,8,CF,24,8B,2A,4F,9F,3F,76,
14616900,00000278,false,Tx,0,8,92,0B,56,D0,73,5E,5A,B1,
14626914,00000279,false,Tx,0,8,AD,5D,F9,B3,53,29,AE,1D,
14636608,0000027A,false,Tx,0,8,13,CC,51,72,61,F0,C2,29,
14648388,0000027B,false,Tx,0,8,CD,A4,48,FB,C1,B2,8D,C7,
14648388,0000027B,false,Tx,0,8,CD,A4,48,FB,C1,B2,8D,C7,
14657408,0000027C,false,Tx,0,8,48,54,49,6E,8D,EA,87,2C,
14698328,000002B5,false,Rx,0,8,50,00,32,00,00,00,00,62,
14698567,000002B6,false,Rx,0,8,52,00,7D,02,00,00,7E,53,
14715479,0000027D,false,Tx,0,8,F6,AD,EB,D6,84,8F,F1,BA,
14717629,0000027E,false,Tx,0,8,0A,2D,47,E7,30,CE,4A,09,
14726881,0000027F,false,Tx,0,8,6F,90,F1,7D,04,DE,B3,45,
14737383,00000280,false,Tx,0,8,2E,1D,4D,D6,A6,7B,D0,B1,
14747486,00000281,false,Tx,0,8,7D,81,C0,16,E1,8B,C9,D1,
14758629,00000282,false,Tx,0,8,C3,62,2A,23,A5,76,F6,EB,
14767627,00000283,false,Tx,0,8,45,CB,D4,0E,69,5B,32,0C,
14777284,00000284,false,Tx,0,8,A5,4D,FE,F6,71,86,48,4F,
14787295,00000285,false,Tx,0,8,76,33,55,EF,26,FD,12,45,
14787295,00000285,false,Tx,0,8,76,33,55,EF,26,FD,12,45,
14796861,00000286,false,Tx,0,8,7D,C9,19,60,D6,2D,0C,3C,
14798343,000002B5,false,Rx,0,8,60,00,32,00,00,00,00,52,
14807006,00000287,false,Tx,0,8,F1,DE,74,29,69,5B,23,19,
14817294,00000288,false,Tx,0,8,F1,E9,9C,74,DD,7B,20,3B,
14826798,00000289,false,Tx,0,8,86,5D,AA,92,C3,F8,91,E8,
14836712,0000028A,false,Tx,0,8,A0,78,03,FB,DE,47,64,4D,
14847255,0000028B,false,Tx,0,8,6F,71,5F,DC,13,DD,98,9E,
14856898,0000028C,false,Tx,0,8,52,7C,63,0E,0B,8E,F2,10,
14868522,0000028D,false,Tx,0,8,7A,5E,40,67,36,AE,C0,01,
14877340,0000028E,false,Tx,0,8,AD,A7,7D,21,60,D7,B3,55,
14888044,0000028F,false,Tx,0,8,CB,FE,73,93,3A,1C,7E,B5,
14898339,000002B5,false,Rx,0,8,70,00,32,00,00,00,00,42,
14899256,00000290,false,Tx,0,8,FF,EA,5E,C3,09,06,18,CF,
14907969,00000291,false,Tx,0,8,2B,42,C1,C3,1B,FF,B4,12,
14973518,00000292,false,Tx,0,8,EC,C1,5C,A1,00,7A,16,A5,
14977426,00000293,false,Tx,0,8,0F,CC,D1,A9,25,E4,47,A5,
14977906,000002B5,false,Rx,0,8,B0,00,32,00,00,00,00,82,
14988350,00000294,false,Tx,0,8,2F,C2,11,1D,3D,05,28,45,
14997727,00000295,false,Tx,0,8,32,50,09,39,17,14,84,BE,
14998336,000002B5,false,Rx,0,8,80,00,32,00,00,00,00,B2,
15007483,00000296,false,Tx,0,8,08,C9,DC,7D,6B,F9,EB,54,
15017206,00000297,false,Tx,0,8,C0,CD,52,5F,FC,6E,3D,5C,
15027139,00000298,false,Tx,0,8,48,11,FB,FC,2D,D3,D4,00,
15036634,00000299,false,Tx,0,8,49,C2,C5,90,B1,E5,09,0E,
15047496,0000029A,false,Tx,0,8,C1,FF,43,0D,7D,40,80,C7,
15057582,0000029B,false,Tx,0,8,3E,DE,ED,95,32,DE,5A,A1,
15067684,0000029C,false,Tx,0,8,8A,1E,65,FD,9F,8E,05,99,
15077618,0000029D,false,Tx,0,8,4E,50,00,7A,FD,9F,38,4C,
15088173,0000029E,false,Tx,0,8,00,E8,0E,0E,ED,C1,97,88,
15088173,0000029E,false,Tx,0,8,00,E8,0E,0E,ED,C1,97,88,
15097557,0000029F,false,Tx,0,8,92,3D,EC,6F,0F,58,8C,CD,
15098339,000002B5,false,Rx,0,8,90,00,32,00,00,00,00,A2,
15107317,000002A0,false,Tx,0,8,D4,6C,69,1A,68,72,A8,2C,
15117407,000002A1,false,Tx,0,8,A0,13,79,02,3B,E1,B5,07,
15127639,000002A2,false,Tx,0,8,50,0B,D2,1C,9A,61,5F,A7,
15137332,000002A3,false,Tx,0,8,6B,F6,C5,95,A2,58,84,5A,
15149195,000002A4,false,Tx,0,8,13,85,81,2C,85,1E,21,7A,
15157353,000002A5,false,Tx,0,8,40,C2,0E,32,5E,38,EA,41,
15198336,000002B5,false,Rx,0,8,A0,00,32,00,00,00,00,92,
15198574,000002B6,false,Rx,0,8,A0,00,7D,02,00,00,7E,A1,
15220197,000002A6,false,Tx,0,8,9C,9A,40,FB,93,88,14,8E,
15229248,000002A7,false,Tx,0,8,D1,A8,25,18,75,38,28,D0,
15237028,000002A8,false,Tx,0,8,3A,84,85,E1,41,C8,51,AC,
15246851,000002A9,false,Tx,0,8,15,76,6F,33,75,55,4E,37,
15256969,000002AA,false,Tx,0,8,51,1B,FC,B7,A2,BD,2D,F8,
15267350,000002AB,false,Tx,0,8,54,56,8E,E8,C2,AF,36,93,
15277284,000002AC,false,Tx,0,8,83,B8,4E,22,51,AF,9D,1F,
15287864,000002AD,false,Tx,0,8,FF,5C,E1,C6,F5,C0,65,60,
15296540,000002AE,false,Tx,0,8,48,63,34,44,A8,62,6F,F7,
15298325,000002B5,false,Rx,0,8,B0,00,32,00,00,00,00,82,
15298565,000002B6,false,Rx,0,8,B0,00,7D,02,00,00,7E,B1,
15318188,000002B0,false,Tx,0,8,E0,1A,76,70,36,52,5E,77,
15327153,000002B1,false,Tx,0,8,9A,F2,BC,72,25,5B,CC,F3,
15336657,000002B2,false,Tx,0,8,7E,8D,FC,6A,CE,03,65,97,
15347457,000002B3,false,Tx,0,8,A5,01,CC,D1,6B,8E,8E,43,
15357832,000002B4,false,Tx,0,8,21,5A,FA,10,61,4D,66,92,
15366969,000002B5,false,Tx,0,8,2C,09,C5,65,A4,0E,ED,78,
15376919,00000200,false,Tx,0,8,40,40,B2,BF,38,E9,49,57,
15386634,00000201,false,Tx,0,8,D2,6F,00,4C,98,A4,51,7A,
15398331,000002B5,false,Rx,0,8,C0,00,32,00,00,00,00,F2,
15399552,00000202,false,Tx,0,8,FC,A4,31,0B,FA,F2,B0,A0,
15407633,00000203,false,Tx,0,8,A2,6B,4B,07,55,9E,F2,82,
15472121,00000204,false,Tx,0,8,58,F4,95,7A,7D,28,F2,17,
15498323,000002B5,false,Rx,0,8,D0,00,32,00,00,00,00,E2,
15498561,000002B6,false,Rx,0,8,D0,00,7D,02,00,00,7E,D1,
15523262,00000206,false,Tx,0,8,1A,A9,69,A6,02,4D,88,EA,
15526594,00000207,false,Tx,0,8,0D,0F,DF,1D,7B,50,16,CB,
15536577,00000208,false,Tx,0,8,A6,EE,28,18,F6,E9,E6,F0,
15546503,00000209,false,Tx,0,8,CD,64,E8,A0,FE,D2,93,3F,
15556498,0000020A,false,Tx,0,8,89,F3,C5,46,E4,7A,5C,13,
15566536,0000020B,false,Tx,0,8,96,35,FD,D8,5A,AA,31,50,
15577573,0000020C,false,Tx,0,8,5D,3E,7A,34,EA,14,99,B1,
15588150,0000020D,false,Tx,0,8,8F,90,FD,9B,06,BC,AA,25,
15597397,0000020E,false,Tx,0,8,1A,90,D5,D9,B1,98,D1,72,
15598323,000002B5,false,Rx,0,8,E0,00,32,00,00,00,00,D2,
15607320,0000020F,false,Tx,0,8,55,96,08,65,41,E7,8B,64,
15617472,00000210,false,Tx,0,8,CA,86,A1,FC,07,3E,C3,56,
15617472,00000210,false,Tx,0,8,CA,86,A1,FC,07,3E,C3,56,
15627246,00000211,false,Tx,0,8,FB,09,EC,FB,2D,0E,11,34,
15637632,00000212,false,Tx,0,8,F1,B3,E4,18,40,34,0E,54,
15650543,00000213,false,Tx,0,8,82,8B,13,AE,C1,5B,41,61,
15658545,00000214,false,Tx,0,8,0D,1D,E4,DF,4D,A6,28,8D,
15698309,000002B5,false,Rx,0,8,F0,00,32,00,00,00,00,C2,
15698548,000002B6,false,Rx,0,8,F0,00,7D,02,00,00,7E,F1,
15717640,00000215,false,Tx,0,8,35,29,56,DE,41,6B,EA,E4,
15727655,00000216,false,Tx,0,8,B9,75,0C,D8,C2,93,18,81,
15727655,00000216,false,Tx,0,8,B9,75,0C,D8,C2,93,18,81,
15737714,00000217,false,Tx,0,8,95,F3,D5,8B,47,DF,9D,B6,
15746750,00000218,false,Tx,0,8,54,3B,DD,8C,DD,8E,85,69,
15756707,00000219,false,Tx,0,8,8E,5E,7E,44,91,C1,82,47,
15766854,0000021A,false,Tx,0,8,06,23,FE,E2,5E,B8,B9,CF,
15776715,0000021B,false,Tx,0,8,EB,C7,E7,C7,56,49,9A,A3,
15786704,0000021C,false,Tx,0,8,C1,A9,36,91,B9,9F,D5,93,
15796945,0000021D,false,Tx,0,8,93,16,E0,F1,FE,E9,A1,B9,
15798308,000002B5,false,Rx,0,8,00,00,32,00,00,00,00,32,
15806872,0000021E,false,Tx,0,8,56,A9,97,F1,8B,21,E1,0D,
15817603,0000021F,false,Tx,0,8,19,1E,DB,6E,CE,86,57,89,
15827601,00000220,false,Tx,0,8,3B,09,BB,A3,D7,24,DA,4B,
15827601,00000220,false,Tx,0,8,3B,09,BB,A3,D7,24,DA,4B,
15836678,00000221,false,Tx,0,8,9B,BC,7D,84,6D,15,52,E8,
15844131,00000212,false,Tx,0,8,F4,18,76,67,8B,07,3E,F2,
15844131,00000212,false,Tx,0,8,F4,18,76,67,8B,07,3E,F2,
15846826,00000222,false,Tx,0,8,26,B4,00,5D,8A,FB,64,DD,
15857000,00000223,false,Tx,0,8,6A,6E,C7,68,AF,E3,43,F9,
15866935,00000224,false,Tx,0,8,BD,3B,CD,90,17,5E,8E,97,
15876851,00000225,false,Tx,0,8,00,EE,EF,BE,4B,90,1D,C9,
15886761,00000226,false,Tx,0,8,27,79,06,0F,2B,C6,BF,0E,
15898309,000002B5,false,Rx,0,8,10,00,32,00,00,00,00,22,
15898798,00000227,false,Tx,0,8,0A,19,09,FF,9B,8C,D6,F0,
15907023,00000228,false,Tx,0,8,B9,D4,0D,75,C8,52,3C,52,
15966199,00000229,false,Tx,0,8,8D,B4,7A,1B,C1,80,21,F5,
15968190,0000022A,false,Tx,0,8,CA,DF,B0,35,0E,BF,C3,64,
15977520,0000022B,false,Tx,0,8,9F,53,42,68,11,73,1A,02,
15987381,0000022C,false,Tx,0,8,65,5D,4E,BC,B8,71,5E,29,
15997545,0000022D,false,Tx,0,8,0D,9C,B4,A6,10,75,1D,84,
15998313,000002B5,false,Rx,0,8,20,00,32,00,00,00,00,12,
15998552,000002B6,false,Rx,0,8,20,00,7D,02,00,00,7E,21,
16009331,0000022E,false,Tx,0,8,EC,7D,C4,BD,2A,83,29,35,
16017403,0000022F,false,Tx,0,8,85,5D,97,DC,8F,E0,01,EF,
16017403,0000022F,false,Tx,0,8,85,5D,97,DC,8F,E0,01,EF,
16027489,00000230,false,Tx,0,8,9F,97,19,35,23,31,06,44,
16037118,00000231,false,Tx,0,8,FC,6E,69,1B,3D,29,04,EC,
16046633,00000232,false,Tx,0,8,C0,3C,93,C7,32,F7,91,39,
16057790,00000233,false,Tx,0,8,D8,05,14,A4,DE,B1,F8,4D,
16067685,00000234,false,Tx,0,8,CB,11,21,BC,19,79,A4,2E,
16077680,00000235,false,Tx,0,8,2A,82,10,73,48,16,6E,4A,
16087956,00000236,false,Tx,0,8,98,3A,BE,BE,87,EF,A7,D4,
16097010,00000237,false,Tx,0,8,1C,1A,A7,2A,0D,90,FD,2F,
16098315,000002B5,false,Rx,0,8,30,00,32,00,00,00,00,02,
16098553,000002B6,false,Rx,0,8,30,00,7D,02,00,00,7E,31,
16108061,00000238,false,Tx,0,8,6E,49,A6,E2,E1,94,61,1B,
16116113,00000218,false,Tx,0,8,68,A3,7C,A5,44,FC,AE,98,
16118189,00000239,false,Tx,0,8,50,33,75,20,38,0A,6B,6B,
16127534,0000023A,false,Tx,0,8,30,8E,E1,41,A8,0E,39,80,
16137882,0000023B,false,Tx,0,8,B9,48,24,A6,6A,CB,9E,0A,
16149137,0000023C,false,Tx,0,8,78,AF,48,D1,B5,A1,2D,40,
16157551,0000023D,false,Tx,0,8,CE,A2,3C,20,E1,38,37,71,
16198310,000002B5,false,Rx,0,8,40,00,32,00,00,00,00,72,
16198549,000002B6,false,Rx,0,8,42,00,7D,02,00,00,7E,43,
16218842,0000023E,false,Tx,0,8,52,0E,CF,5A,0E,CE,11,35,
16218842,0000023E,false,Tx,0,8,52,0E,CF,5A,0E,CE,11,35,
16227113,0000023F,false,Tx,0,8,A8,53,E9,77,60,10,1C,5F,
16236843,00000240,false,Tx,0,8,FA,07,93,7B,57,15,7C,7D,
16247110,00000241,false,Tx,0,8,F7,97,B8,C2,0E,4D,E6,DE,
16257117,00000242,false,Tx,0,8,07,46,18,ED,C9,1E,8B,BF,
16266985,00000243,false,Tx,0,8,38,72,A6,8C,27,97,9B,C9,
16276801,00000244,false,Tx,0,8,FE,37,2D,44,6C,43,13,70,
16286384,000002B6,false,Rx,0,8,42,00,7D,02,00,00,7E,43,
16286843,00000245,false,Tx,0,8,F9,D4,77,11,18,F2,3C,A9,
16297263,00000246,false,Tx,0,8,3D,CA,82,5E,92,B9,3E,55,
16298306,000002B5,false,Rx,0,8,50,00,32,00,00,00,00,62,
16307223,00000247,false,Tx,0,8,50,A3,79,43,F3,C1,0D,B9,
16317197,00000248,false,Tx,0,8,0D,79,CE,DE,C0,EC,E3,6B,
16317197,00000248,false,Tx,0,8,0D,79,CE,DE,C0,EC,E3,6B,
16327628,00000249,false,Tx,0,8,D0,F9,1F,F7,9F,10,F3,2D,
16336930,0000024A,false,Tx,0,8,EA,7A,E6,B4,3A,0A,C2,41,
16346906,0000024B,false,Tx,0,8,1D,E8,43,8C,FD,39,FF,C4,
16356965,0000024C,false,Tx,0,8,E6,00,DC,8F,69,64,87,45,
16367806,0000024D,false,Tx,0,8,24,59,B3,E3,AF,BC,8C,D3,
16377692,0000024E,false,Tx,0,8,A6,CC,D9,AA,65,C3,F1,59,
16387000,0000024F,false,Tx,0,8,B7,59,53,EF,D3,B5,F1,BA,
16397103,00000250,false,Tx,0,8,29,49,E9,BD,71,8B,22,0E,
16398312,000002B5,false,Rx,0,8,60,00,32,00,00,00,00,52,
16407191,00000251,false,Tx,0,8,20,85,0F,68,1F,73,21,D3,
16464499,00000252,false,Tx,0,8,3A,EA,24,22,6D,88,20,36,
16467010,00000253,false,Tx,0,8,E6,53,FB,4E,00,B3,95,EE,
16477049,00000254,false,Tx,0,8,8A,EE,3A,99,88,AE,03,2E,
16487481,00000255,false,Tx,0,8,3D,FB,3F,11,A6,10,C8,8D,
16496879,00000256,false,Tx,0,8,A1,41,F3,37,7E,72,BA,54,
16498303,000002B5,false,Rx,0,8,70,00,32,00,00,00,00,42,
16507172,00000257,false,Tx,0,8,12,2B,17,A6,95,92,24,5C,
16518322,00000258,false,Tx,0,8,F4,AA,48,1B,84,45,A5,99,
16527013,00000259,false,Tx,0,8,59,5D,CC,E8,1B,74,10,C2,
16536931,0000025A,false,Tx,0,8,AA,8D,65,CC,17,7D,6F,A0,
16547065,0000025B,false,Tx,0,8,EE,D3,0E,44,71,B0,51,78,
16557965,0000025C,false,Tx,0,8,1A,FE,E0,DA,9B,E1,1A,60,
16566851,0000025D,false,Tx,0,8,42,6A,3C,C8,A2,6B,8D,C1,
16577719,0000025E,false,Tx,0,8,38,6B,36,D3,A8,EB,76,BB,
16586383,000002B6,false,Rx,0,8,72,00,7D,02,00,00,7E,73,
16586998,0000025F,false,Tx,0,8,73,37,81,61,A2,BB,6F,9F,
16597377,00000260,false,Tx,0,8,33,74,3E,45,AD,EC,C2,62,
16598306,000002B5,false,Rx,0,8,80,00,32,00,00,00,00,B2,
16607827,00000261,false,Tx,0,8,F4,2B,9C,AE,83,09,F0,45,
16617330,00000262,false,Tx,0,8,1F,AA,EB,22,86,F5,EF,9C,
16617330,00000262,false,Tx,0,8,1F,AA,EB,22,86,F5,EF,9C,
16627932,00000263,false,Tx,0,8,4A,39,C8,05,82,D0,8B,0D,
16637184,00000264,false,Tx,0,8,B1,4A,60,75,F3,20,D4,83,
16647300,00000265,false,Tx,0,8,A2,8E,B7,22,C1,66,91,63,
16656893,00000266,false,Tx,0,8,57,1D,A9,70,22,A7,DE,EC,
16698290,000002B5,false,Rx,0,8,90,00,32,00,00,00,00,A2,
16698530,000002B6,false,Rx,0,8,92,00,7D,02,00,00,7E,93,
16719041,00000267,false,Tx,0,8,9E,77,AF,08,3C,B5,B5,F6,
16728072,00000268,false,Tx,0,8,F9,25,E7,31,6B,03,DB,99,
16728072,00000268,false,Tx,0,8,F9,25,E7,31,6B,03,DB,99,
16737859,00000269,false,Tx,0,8,C8,AE,C0,B9,F5,E8,14,A8,
16748126,0000026A,false,Tx,0,8,46,56,0D,DD,C0,8A,21,40,
16757431,0000026B,false,Tx,0,8,AE,C0,AA,3D,6E,99,81,22,
16767836,0000026C,false,Tx,0,8,D9,9F,DC,47,C7,8C,26,83,
16776788,0000026D,false,Tx,0,8,9C,F1,7B,95,23,AE,97,A9,
16786726,0000026E,false,Tx,0,8,23,1F,63,53,83,BE,3D,34,
16796725,0000026F,false,Tx,0,8,52,82,34,99,1D,C5,DD,F0,
16798293,000002B5,false,Rx,0,8,A0,00,32,00,00,00,00,92,
16807572,00000270,false,Tx,0,8,AE,DE,49,49,76,E7,E8,DB,
16816980,00000271,false,Tx,0,8,95,3B,2C,9F,DC,98,E3,66,
16827452,00000272,false,Tx,0,8,EC,C7,92,5E,26,AD,BE,1B,
16827452,00000272,false,Tx,0,8,EC,C7,92,5E,26,AD,BE,1B,
16837582,00000273,false,Tx,0,8,23,DA,C3,FC,D2,96,51,52,
16847162,00000274,false,Tx,0,8,43,C2,67,58,17,C1,43,CB,
16857454,00000275,false,Tx,0,8,55,B5,2D,B7,93,7B,00,4C,
16867073,00000276,false,Tx,0,8,A8,5B,07,84,11,12,AC,54,
16876816,00000277,false,Tx,0,8,D5,48,91,C7,4B,E5,A8,4E,
16887226,00000278,false,Tx,0,8,D5,38,4A,D4,E4,89,2E,1C,
16898016,00000279,false,Tx,0,8,6F,33,78,F5,A0,7A,EA,88,
16898292,000002B5,false,Rx,0,8,B0,00,32,00,00,00,00,82,
16906848,0000027A,false,Tx,0,8,D7,FA,61,45,3C,BF,89,6F,
16969127,0000027B,false,Tx,0,8,07,40,AB,75,0D,AD,9F,C4,
16977740,0000027C,false,Tx,0,8,0B,70,75,6E,11,CF,C1,9C,
16986957,0000027D,false,Tx,0,8,45,51,51,1B,4B,EB,5F,EA,
16996739,0000027E,false,Tx,0,8,29,44,83,40,B1,68,26,E4,
16998297,000002B5,false,Rx,0,8,C0,00,32,00,00,00,00,F2,
16998535,000002B6,false,Rx,0,8,C2,00,7D,02,00,00,7E,C3,
17006699,0000027F,false,Tx,0,8,D2,C7,92,80,C9,D8,DF,9B,
17017311,00000280,false,Tx,0,8,EE,7A,1A,3F,CD,5A,57,31,
17026943,00000281,false,Tx,0,8,DC,36,57,8C,7E,26,43,19,
17037402,00000282,false,Tx,0,8,11,53,F0,27,08,4F,8D,A5,
17037402,00000282,false,Tx,0,8,11,53,F0,27,08,4F,8D,A5,
17047338,00000283,false,Tx,0,8,0F,2E,4F,F1,C7,8A,E4,73,
17057319,00000284,false,Tx,0,8,D7,C2,87,9A,46,6C,F2,BA,
17067361,00000285,false,Tx,0,8,75,B5,15,8D,D9,B9,AF,74,
17077890,00000286,false,Tx,0,8,2E,69,08,41,AB,1C,35,0F,
17087305,00000287,false,Tx,0,8,6F,5C,75,19,AE,8E,B6,99,
17097030,00000288,false,Tx,0,8,CC,E2,1B,56,3A,AB,05,32,
17098278,000002B5,false,Rx,0,8,D0,00,32,00,00,00,00,E2,
17107024,00000289,false,Tx,0,8,CC,1D,DC,49,F4,D6,EB,BA,
17117849,0000028A,false,Tx,0,8,CD,7D,A4,2A,0C,65,96,E6,
17126784,0000028B,false,Tx,0,8,AC,7C,16,08,7E,80,92,CA,
17136649,0000028C,false,Tx,0,8,18,E4,B1,DF,82,1D,B3,CD,
17148231,0000028D,false,Tx,0,8,F9,88,5C,90,AE,4E,A2,9F,
17156735,0000028E,false,Tx,0,8,9F,FE,ED,36,D5,D2,3D,E7,
17198295,000002B5,false,Rx,0,8,E0,00,32,00,00,00,00,D2,
17198535,000002B6,false,Rx,0,8,E2,00,7D,02,00,00,7E,E3,
17214736,0000028F,false,Tx,0,8,A3,FC,20,B6,8F,8B,04,69,
17217340,00000290,false,Tx,0,8,66,5B,AB,1A,86,85,50,4A,
17227080,00000291,false,Tx,0,8,E7,2E,DD,D0,CE,29,94,B8,
17236849,00000292,false,Tx,0,8,48,51,4E,43,30,BA,6F,ED,
17246996,00000293,false,Tx,0,8,FE,B0,68,5A,2A,25,59,62,
17257358,00000294,false,Tx,0,8,79,45,D6,59,7B,10,7E,B3,
17266875,00000295,false,Tx,0,8,60,B3,A0,7A,08,8F,68,33,
17273974,0000022F,false,Tx,0,8,C5,EA,77,14,DF,6F,08,2D,
17276604,00000296,false,Tx,0,8,A1,28,1E,94,93,96,54,FF,
17286883,00000297,false,Tx,0,8,22,C4,D5,62,9C,A3,C7,60,
17298294,000002B5,false,Rx,0,8,F0,00,32,00,00,00,00,C2,
17298929,00000298,false,Tx,0,8,DD,A0,59,77,E4,13,04,4E,
17307204,00000299,false,Tx,0,8,83,92,CE,05,20,69,21,79,
17317322,0000029A,false,Tx,0,8,9A,9C,56,74,CD,AA,EA,49,
17327939,0000029B,false,Tx,0,8,B9,24,22,51,67,3A,95,BC,
17337283,0000029C,false,Tx,0,8,30,CD,E8,94,52,AD,C7,D9,
17337283,0000029C,false,Tx,0,8,30,CD,E8,94,52,AD,C7,D9,
17347296,0000029D,false,Tx,0,8,F9,C1,35,D2,7B,7A,11,13,
17357282,0000029E,false,Tx,0,8,E2,33,A8,49,AB,8F,FC,F9,
17367342,0000029F,false,Tx,0,8,D2,64,09,9E,66,47,36,BF,
17378058,000002A0,false,Tx,0,8,77,98,ED,69,90,E3,20,B9,
17387419,000002A1,false,Tx,0,8,A0,10,B2,E4,F4,C0,A5,2B,
17398281,000002B5,false,Rx,0,8,00,00,32,00,00,00,00,32,
17398564,000002A2,false,Tx,0,8,A1,0C,B5,A7,94,7F,72,18,
17407532,000002A3,false,Tx,0,8,7B,9D,70,A0,9E,87,D2,8B,
17467512,000002A4,false,Tx,0,8,F2,7C,3A,66,96,11,CD,0A,
17477433,000002A5,false,Tx,0,8,60,82,1A,95,8F,0B,36,F0,
17487179,000002A6,false,Tx,0,8,C8,D3,FD,96,F0,4A,69,37,
17496783,000002A7,false,Tx,0,8,D7,8E,F5,21,A6,15,B3,32,
17498288,000002B5,false,Rx,0,8,10,00,32,00,00,00,00,22,
17498526,000002B6,false,Rx,0,8,10,00,7D,02,00,00,7E,11,
17498526,000002B6,false,Rx,0,8,10,00,7D,02,00,00,7E,11,
17506756,000002A8,false,Tx,0,8,38,F3,BF,A3,29,F7,35,62,
17517141,000002A9,false,Tx,0,8,64,6A,EB,85,C6,29,73,89,
17527636,000002AA,false,Tx,0,8,D9,5E,96,A1,96,00,10,91,
17537413,000002AB,false,Tx,0,8,82,19,19,7E,8F,78,BB,E3,
17546645,000002AC,false,Tx,0,8,FD,ED,1D,24,92,06,BE,C7,
17557476,000002AD,false,Tx,0,8,52,94,38,17,15,F8,72,0D,
17567210,000002AE,false,Tx,0,8,3E,32,92,6E,B0,4E,8E,9A,
17577554,000002AF,false,Tx,0,8,09,5C,51,C0,A5,2C,DE,8B,
17586365,000002B6,false,Rx,0,8,12,00,7D,02,00,00,7E,13,
17587273,000002B0,false,Tx,0,8,A6,38,47,8E,06,E6,E4,1F,
17596823,000002B1,false,Tx,0,8,BE,02,1D,90,C1,5C,1B,24,
17598288,000002B5,false,Rx,0,8,20,00,32,00,00,00,00,12,
17607335,000002B2,false,Tx,0,8,02,6A,D5,EC,22,1D,F7,9E,
17617316,000002B3,false,Tx,0,8,C6,AE,FD,95,43,E1,49,6D,
17627235,000002B4,false,Tx,0,8,CA,29,76,95,F1,33,0E,38,
17637015,000002B5,false,Tx,0,8,9F,22,0F,CB,B6,34,5F,4B,
17648961,00000200,false,Tx,0,8,23,47,84,AF,A6,DA,72,82,
17657006,00000201,false,Tx,0,8,86,54,71,50,37,99,1E,46,
17698271,000002B5,false,Rx,0,8,30,00,32,00,00,00,00,02,
17698511,000002B6,false,Rx,0,8,30,00,7D,02,00,00,7E,31,
17722922,00000202,false,Tx,0,8,4F,3D,A4,E9,AF,89,18,F6,
17727924,00000203,false,Tx,0,8,13,CD,25,A2,90,CD,02,2B,
17737310,00000204,false,Tx,0,8,AA,17,CE,BB,FA,5D,86,A8,
17747416,00000205,false,Tx,0,8,14,6C,29,AB,6C,B4,C4,E9,
17756725,00000206,false,Tx,0,8,C3,5A,E1,7D,D7,D6,8D,6C,
17767471,00000207,false,Tx,0,8,74,86,8A,C8,93,48,5E,94,
17777912,00000208,false,Tx,0,8,DF,7D,56,91,00,79,B7,D4,
17787163,00000209,false,Tx,0,8,CB,4A,5D,DD,98,25,8F,CA,
17797122,0000020A,false,Tx,0,8,33,ED,8A,56,8B,EE,84,C7,
17798278,000002B5,false,Rx,0,8,40,00,32,00,00,00,00,72,
17807529,0000020B,false,Tx,0,8,65,0E,9F,1F,BB,8F,0A,E0,
17817630,0000020C,false,Tx,0,8,1A,A8,66,63,F9,65,E3,75,
17827819,0000020D,false,Tx,0,8,05,84,2E,6A,F5,A3,DB,75,
17836828,0000020E,false,Tx,0,8,5B,63,96,2B,F7,A8,FA,43,
17846706,0000020F,false,Tx,0,8,37,C8,DF,F4,1E,59,D1,11,
17857050,00000210,false,Tx,0,8,3D,E1,62,BA,84,8C,64,9A,
17867569,00000211,false,Tx,0,8,34,CA,6D,95,9C,EB,9B,8D,
17877784,00000212,false,Tx,0,8,C4,38,2A,FA,EF,70,2E,B2,
17887401,00000213,false,Tx,0,8,06,B3,12,1E,1C,47,12,EC,
17898271,000002B5,false,Rx,0,8,50,00,32,00,00,00,00,62,
17898535,00000214,false,Tx,0,8,70,1B,A4,59,87,0F,41,07,
17907567,00000215,false,Tx,0,8,2B,2B,D8,70,25,3A,C7,A7,
17917318,00000216,false,Tx,0,8,39,48,E1,48,26,89,88,10,
17968984,00000217,false,Tx,0,8,16,55,41,3E,81,70,B3,AA,
17977765,00000218,false,Tx,0,8,97,33,34,38,9B,83,29,61,
17987440,00000219,false,Tx,0,8,5A,3B,E2,79,44,6A,1B,4A,
17996802,0000021A,false,Tx,0,8,6F,EA,27,76,0B,06,F4,2F,
17998261,000002B5,false,Rx,0,8,60,00,32,00,00,00,00,52,
17998500,000002B6,false,Rx,0,8,60,00,7D,02,00,00,7E,61,
18007047,0000021B,false,Tx,0,8,02,7E,AB,1A,27,7E,01,62,
18017165,0000021C,false,Tx,0,8,46,2E,8C,B5,E0,35,E6,8C,
18026666,0000021D,false,Tx,0,8,AF,F4,20,1F,85,22,8C,1B,
18036837,0000021E,false,Tx,0,8,A0,93,5D,B4,03,79,B2,2A,
18046750,0000021F,false,Tx,0,8,EA,C5,47,7B,6E,26,AA,53,
18058116,00000220,false,Tx,0,8,D9,93,3D,F6,F4,14,21,B0,
18066598,00000221,false,Tx,0,8,26,FA,01,2F,8F,F8,A7,C1,
18077245,00000222,false,Tx,0,8,E1,29,14,30,7B,5B,A3,EE,
18086350,000002B6,false,Rx,0,8,62,00,7D,02,00,00,7E,63,
18086764,00000223,false,Tx,0,8,E4,74,25,A3,FD,9F,14,BD,
18096658,00000224,false,Tx,0,8,9F,2A,88,6C,DB,E8,FA,2F,
18098273,000002B5,false,Rx,0,8,70,00,32,00,00,00,00,42,
18098273,000002B5,false,Rx,0,8,70,00,32,00,00,00,00,42,
18098512,000002B6,false,Rx,0,8,70,00,7D,02,00,00,7E,71,
18107163,00000225,false,Tx,0,8,BE,53,BE,AA,56,64,FA,BD,
18117578,00000226,false,Tx,0,8,36,7F,25,DD,2A,08,57,B9,
18126880,00000227,false,Tx,0,8,2C,5A,5D,53,70,64,E5,56,
18137506,00000228,false,Tx,0,8,7E,D8,1A,E0,F5,9F,E9,3B,
18148400,00000229,false,Tx,0,8,83,33,25,AE,67,C0,B4,14,
18157773,0000022A,false,Tx,0,8,C4,28,D2,56,B6,A4,D7,3E,
18157773,0000022A,false,Tx,0,8,C4,28,D2,56,B6,A4,D7,3E,
18198271,000002B5,false,Rx,0,8,80,00,32,00,00,00,00,B2,
18198511,000002B6,false,Rx,0,8,80,00,7D,02,00,00,7E,81,
18216812,0000022B,false,Tx,0,8,24,9B,69,93,E1,FE,D2,0F,
18218822,0000022C,false,Tx,0,8,8E,15,CC,51,EC,9E,41,54,
18227923,0000022D,false,Tx,0,8,9B,FF,1F,3C,AF,CF,E3,85,
18237934,0000022E,false,Tx,0,8,0F,AC,75,FE,FC,B0,B7,DF,
18247462,0000022F,false,Tx,0,8,18,D5,C4,AC,97,BE,E5,2C,
18258353,00000230,false,Tx,0,8,A5,A7,09,6F,A2,4E,B1,15,
18267667,00000231,false,Tx,0,8,AB,49,9D,FB,EA,AF,0A,4F,
18277490,00000232,false,Tx,0,8,60,EE,C4,2C,2E,CF,26,F3,
18287518,00000233,false,Tx,0,8,25,97,01,0C,D5,41,95,7C,
18297440,00000234,false,Tx,0,8,0C,10,F5,A2,BE,EC,B6,DB,
18297440,00000234,false,Tx,0,8,0C,10,F5,A2,BE,EC,B6,DB,
18298253,000002B5,false,Rx,0,8,90,00,32,00,00,00,00,A2,
18307446,00000235,false,Tx,0,8,83,C1,03,A8,D0,BE,CB,BB,
18317649,00000236,false,Tx,0,8,8D,48,FC,2E,F9,F4,66,EF,
18327666,00000237,false,Tx,0,8,AD,E4,22,BD,06,F4,6C,50,
18337818,00000238,false,Tx,0,8,BA,DC,19,76,B0,65,1E,84,
18347469,00000239,false,Tx,0,8,56,9D,AE,58,BC,EE,C2,71,
18357480,0000023A,false,Tx,0,8,B1,30,16,BE,A6,97,84,5A,
18357480,0000023A,false,Tx,0,8,B1,30,16,BE,A6,97,84,5A,
18367968,0000023B,false,Tx,0,8,0B,E9,19,28,CB,75,01,82,
18378015,0000023C,false,Tx,0,8,13,C3,5F,95,B5,FA,87,A3,
18386355,000002B6,false,Rx,0,8,92,00,7D,02,00,00,7E,93,
18387798,0000023D,false,Tx,0,8,DC,EC,D6,CC,DB,FA,83,F4,
18398268,000002B5,false,Rx,0,8,A0,00,32,00,00,00,00,92,
18398365,0000023E,false,Tx,0,8,E9,1B,22,B4,58,6E,96,B0,
18398507,000002B6,false,Rx,0,8,A2,00,7D,02,00,00,7E,A3,
18408092,0000023F,false,Tx,0,8,F1,A4,12,5C,54,30,49,30,
18498251,000002B5,false,Rx,0,8,B0,00,32,00,00,00,00,82,
18498490,000002B6,false,Rx,0,8,B2,00,7D,02,00,00,7E,B3,
18498490,000002B6,false,Rx,0,8,B2,00,7D,02,00,00,7E,B3,
18510114,00000240,false,Tx,0,8,34,97,63,57,68,E8,88,12,
18517548,00000241,false,Tx,0,8,4C,1E,6C,59,5D,19,95,A2,
18527403,00000242,false,Tx,0,8,2D,F6,29,5C,2B,8B,F9,20,
18537575,00000243,false,Tx,0,8,BA,05,37,76,45,14,F2,79,
18547398,00000244,false,Tx,0,8,11,CE,41,08,47,D9,B5,18,
18557479,00000245,false,Tx,0,8,D8,A8,63,30,55,C2,11,6A,
18567610,00000246,false,Tx,0,8,20,49,CA,1E,C7,15,E6,0F,
18576984,00000247,false,Tx,0,8,3E,1E,07,87,AF,94,5A,E7,
18587741,00000248,false,Tx,0,8,61,B1,D2,F4,7A,7B,F0,AA,
18597390,00000249,false,Tx,0,8,2B,76,3C,A3,97,FC,DD,0C,
18598263,000002B5,false,Rx,0,8,C0,00,32,00,00,00,00,F2,
18598502,000002B6,false,Rx,0,8,C2,00,7D,02,00,00,7E,C3,
18606853,0000024A,false,Tx,0,8,5E,A3,B9,78,AA,A5,5C,E0,
18617526,0000024B,false,Tx,0,8,74,A4,F0,57,E5,07,71,CD,
18627415,0000024C,false,Tx,0,8,EE,1A,87,9A,30,A1,5E,18,
18638057,0000024D,false,Tx,0,8,75,B0,57,BD,03,DA,AC,6F,
18648819,0000024E,false,Tx,0,8,09,FC,81,7F,3C,44,98,FA,
18656664,0000024F,false,Tx,0,8,BA,31,94,09,27,99,BA,1C,
18656664,0000024F,false,Tx,0,8,BA,31,94,09,27,99,BA,1C,
18698248,000002B5,false,Rx,0,8,D0,00,32,00,00,00,00,E2,
18698488,000002B6,false,Rx,0,8,D2,00,7D,02,00,00,7E,D3,
18719339,00000251,false,Tx,0,8,8E,BB,CC,8A,CF,08,8E,14,
18727718,00000252,false,Tx,0,8,74,81,D9,02,6F,45,68,69,
18737162,00000253,false,Tx,0,8,FC,E4,DA,D7,27,DB,61,78,
18747338,00000254,false,Tx,0,8,B6,B7,F4,A0,32,C9,AA,CA,
18757404,00000255,false,Tx,0,8,0E,F2,15,5D,52,34,EA,53,
18767686,00000256,false,Tx,0,8,E2,13,F7,13,7A,89,8A,7D,
18777400,00000257,false,Tx,0,8,33,8D,CB,E0,DD,C7,61,BC,
18787220,00000258,false,Tx,0,8,5D,6B,E7,7D,41,B2,24,4C,
18797275,00000259,false,Tx,0,8,46,31,AD,F8,1D,C3,E9,C5,
18798242,000002B5,false,Rx,0,8,E0,00,32,00,00,00,00,D2,
18807336,0000025A,false,Tx,0,8,1A,AE,10,6E,20,F4,E5,3E,
18817098,0000025B,false,Tx,0,8,82,56,5E,57,CF,11,C3,B5,
18827378,0000025C,false,Tx,0,8,86,96,D0,82,8C,56,0C,DA,
18836724,0000025D,false,Tx,0,8,33,F6,4C,91,4B,75,03,52,
18846802,0000025E,false,Tx,0,8,97,01,A9,AD,10,10,BD,3C,
18856906,0000025F,false,Tx,0,8,13,04,B6,1B,45,3B,B9,4E,
18868465,00000260,false,Tx,0,8,27,44,62,82,D7,C6,37,EE,
18877541,00000261,false,Tx,0,8,B7,12,93,80,A2,8B,04,D3,
18887074,00000262,false,Tx,0,8,72,83,ED,59,6D,C6,A6,60,
18898245,000002B5,false,Rx,0,8,F0,00,32,00,00,00,00,C2,
18898452,00000263,false,Tx,0,8,75,AC,67,63,D9,41,1C,A8,
18907419,00000264,false,Tx,0,8,37,13,CC,A9,F6,B7,FC,2F,
18958540,0000024A,false,Tx,0,8,94,CF,F0,B4,62,52,73,76,
18964655,00000265,false,Tx,0,8,E0,90,28,9C,6C,88,1F,E2,
18967169,00000266,false,Tx,0,8,83,42,B6,CD,F6,2B,B7,DD,
18977106,00000267,false,Tx,0,8,EA,32,01,F2,2A,B2,5F,E5,
18987634,00000268,false,Tx,0,8,5C,FA,5F,DB,F2,F9,D5,68,
18997426,00000269,false,Tx,0,8,CE,2F,A2,24,75,6B,46,5A,
18998245,000002B5,false,Rx,0,8,00,00,32,00,00,00,00,32,
18998483,000002B6,false,Rx,0,8,02,00,7D,02,00,00,7E,03,
19006923,0000026A,false,Tx,0,8,9E,03,1B,89,B4,C7,51,B7,
19016965,0000026B,false,Tx,0,8,A9,37,34,94,B2,F0,06,A0,
19027146,0000026C,false,Tx,0,8,BB,56,A9,49,5F,72,E0,42,
19036727,0000026D,false,Tx,0,8,77,66,B0,8B,53,78,D1,8B,
19047286,0000026E,false,Tx,0,8,49,7B,6F,5B,61,C0,47,4C,
19057651,0000026F,false,Tx,0,8,3C,FF,67,EC,53,40,B5,96,
19067464,00000270,false,Tx,0,8,CB,4C,2E,9E,F6,FF,18,5C,
19076689,00000271,false,Tx,0,8,FF,AF,E8,CC,F5,38,8A,D3,
19086886,00000272,false,Tx,0,8,E2,28,14,9A,2D,16,1D,AD,
19097040,00000273,false,Tx,0,8,B6,74,AD,AE,33,BD,B3,E7,
19098245,000002B5,false,Rx,0,8,10,00,32,00,00,00,00,22,
19098484,000002B6,false,Rx,0,8,12,00,7D,02,00,00,7E,13,
19106864,00000274,false,Tx,0,8,03,09,F7,2C,D7,16,4E,01,
19118431,00000275,false,Tx,0,8,EC,82,B9,AC,1F,01,68,08,
19128106,00000276,false,Tx,0,8,2D,16,64,F2,2B,97,77,2A,
19136747,00000277,false,Tx,0,8,07,35,F9,3F,1C,4D,6E,D1,
19136747,00000277,false,Tx,0,8,07,35,F9,3F,1C,4D,6E,D1,
19149324,00000278,false,Tx,0,8,F0,A6,A2,1C,3C,C1,B9,3E,
19157558,00000279,false,Tx,0,8,F4,2D,E3,F2,BE,2A,7C,D0,
19198248,000002B5,false,Rx,0,8,20,00,32,00,00,00,00,12,
19198478,000002B6,false,Rx,0,8,22,00,7D,02,00,00,7E,23,
19210858,0000027A,false,Tx,0,8,6C,E7,1E,F3,AD,A8,2F,90,
19216763,0000027B,false,Tx,0,8,A9,63,95,5A,BE,0A,00,7D,
19227722,0000027C,false,Tx,0,8,56,C0,20,A2,D8,62,76,CF,
19237889,0000027D,false,Tx,0,8,0C,18,38,89,44,9A,D7,29,
19247680,0000027E,false,Tx,0,8,E5,C7,AE,BA,07,D2,F9,BE,
19256652,0000027F,false,Tx,0,8,9B,E5,8B,E6,72,5C,42,98,
19266666,00000280,false,Tx,0,8,2C,36,2E,42,AC,91,BB,EF,
19276725,00000281,false,Tx,0,8,65,5B,14,ED,FF,99,3F,4A,
19276725,00000281,false,Tx,0,8,65,5B,14,ED,FF,99,3F,4A,
19286694,00000282,false,Tx,0,8,46,88,90,89,87,85,CB,26,
19297853,00000283,false,Tx,0,8,B9,41,27,D9,98,B4,72,9E,
19298249,000002B5,false,Rx,0,8,30,00,32,00,00,00,00,02,
19307181,00000284,false,Tx,0,8,2E,36,44,3B,F4,52,AA,C5,
19317350,00000285,false,Tx,0,8,01,80,C2,74,7D,FE,96,71,
19327483,00000286,false,Tx,0,8,A0,7D,EB,CD,F6,D0,F1,6E,
19337345,00000287,false,Tx,0,8,70,43,75,B6,2D,B5,DA,69,
19348257,00000288,false,Tx,0,8,D8,0B,CB,DC,5B,31,DF,AE,
19356636,00000289,false,Tx,0,8,8A,0A,31,F6,AE,01,17,F2,
19367836,0000028A,false,Tx,0,8,E7,FD,E1,13,89,BA,F1,26,
19376552,0000028B,false,Tx,0,8,BD,B8,48,3E,A7,B4,4E,9A,
19386749,0000028C,false,Tx,0,8,EF,E0,41,BA,33,EF,80,CD,
19397875,0000028D,false,Tx,0,8,D0,50,42,1D,83,86,5C,23,
19398248,000002B5,false,Rx,0,8,40,00,32,00,00,00,00,72,
19398486,000002B6,false,Rx,0,8,42,00,7D,02,00,00,7E,43,
19406692,0000028E,false,Tx,0,8,8E,3B,DA,A7,54,54,31,94,
19458830,0000028F,false,Tx,0,8,94,0A,37,5F,06,9C,72,F5,
19467298,00000290,false,Tx,0,8,95,28,E6,CD,A1,7F,AB,5B,
19474079,00000254,false,Tx,0,8,0E,70,11,CF,EC,C0,A7,F6,
19474079,00000254,false,Tx,0,8,0E,70,11,CF,EC,C0,A7,F6,
19476788,00000291,false,Tx,0,8,6D,31,D7,61,EB,88,89,2A,
19486544,00000292,false,Tx,0,8,59,78,81,CD,4D,4C,F2,DA,
19497036,00000293,false,Tx,0,8,A9,73,2D,9A,7A,30,D5,5C,
19498240,000002B5,false,Rx,0,8,50,00,32,00,00,00,00,62,
19507794,00000294,false,Tx,0,8,F7,67,9B,4A,6F,CF,5E,4B,
19516704,00000295,false,Tx,0,8,87,97,A7,79,1F,6B,E6,D9,
19526905,00000296,false,Tx,0,8,4C,AE,E8,35,8A,EB,69,46,
19537137,00000297,false,Tx,0,8,75,D2,2E,9B,6E,C5,7E,C5,
19546718,00000298,false,Tx,0,8,6A,6F,5A,61,48,85,E7,61,
19556693,00000299,false,Tx,0,8,7C,33,05,5E,3F,1B,50,C8,
19556693,00000299,false,Tx,0,8,7C,33,05,5E,3F,1B,50,C8,
19566715,0000029A,false,Tx,0,8,CB,7E,CF,BF,D3,6C,CF,59,
19576732,0000029B,false,Tx,0,8,07,BD,01,74,9E,2E,10,82,
19586766,0000029C,false,Tx,0,8,9A,3D,0B,EE,2B,CE,E4,77,
19597903,0000029D,false,Tx,0,8,7A,51,6F,9D,38,A1,23,CD,
19597903,0000029D,false,Tx,0,8,7A,51,6F,9D,38,A1,23,CD,
19598245,000002B5,false,Rx,0,8,60,00,32,00,00,00,00,52,
19598475,000002B6,false,Rx,0,8,62,00,7D,02,00,00,7E,63,
19606766,0000029E,false,Tx,0,8,D8,6E,86,66,9B,A0,0A,DF,
19617248,0000029F,false,Tx,0,8,DB,EE,C3,0D,FC,4B,4E,52,
19617248,0000029F,false,Tx,0,8,DB,EE,C3,0D,FC,4B,4E,52,
19627549,000002A0,false,Tx,0,8,B1,8F,9E,93,AA,58,EB,90,
19636567,000002A1,false,Tx,0,8,74,EC,70,F9,2F,D6,48,DF,
19648095,000002A2,false,Tx,0,8,60,10,DF,DD,86,92,61,4B,
19656730,000002A3,false,Tx,0,8,A6,E7,E6,F1,C8,20,DF,F9,
19677808,000002B5,false,Rx,0,8,A0,00,32,00,00,00,00,92,
19698226,000002B5,false,Rx,0,8,70,00,32,00,00,00,00,42,
19698467,000002B6,false,Rx,0,8,70,00,7D,02,00,00,7E,71,
19713930,000002A4,false,Tx,0,8,DF,23,62,0B,56,D1,08,D1,
19717450,000002A5,false,Tx,0,8,FC,98,3E,11,3A,1F,24,70,
19717450,000002A5,false,Tx,0,8,FC,98,3E,11,3A,1F,24,70,
19727539,000002A6,false,Tx,0,8,D3,F2,AE,94,B2,32,BF,E8,
19737807,000002A7,false,Tx,0,8,0F,09,EF,95,09,A8,30,CC,
19746480,0000025A,false,Tx,0,8,25,57,B1,48,25,BF,19,AA,
19747957,000002A8,false,Tx,0,8,6F,AE,2F,36,E3,32,C9,34,
19757892,000002A9,false,Tx,0,8,83,CB,6E,C7,5B,D0,93,9A,
19767328,000002AA,false,Tx,0,8,80,A0,06,F8,7D,A1,89,C8,
19778134,000002AB,false,Tx,0,8,4F,ED,D1,FD,DB,79,5A,67,
19778134,000002AB,false,Tx,0,8,4F,ED,D1,FD,DB,79,5A,67,
19786754,000002AC,false,Tx,0,8,C5,C1,6A,1F,C6,88,8A,77,
19796678,000002AD,false,Tx,0,8,BE,C1,20,FF,EB,5A,74,E0,
19798221,000002B5,false,Rx,0,8,80,00,32,00,00,00,00,B2,
19798461,000002B6,false,Rx,0,8,80,00,7D,02,00,00,7E,81,
19817161,000002AF,false,Tx,0,8,89,A6,B8,62,C0,13,55,DE,
19827501,000002B0,false,Tx,0,8,3C,E8,06,F4,C7,41,05,04,
19837615,000002B1,false,Tx,0,8,B4,E9,7B,02,AB,54,A1,06,
19848139,000002B2,false,Tx,0,8,6A,EA,DF,D7,4B,66,FF,65,
19856630,000002B3,false,Tx,0,8,D3,6D,AD,3E,80,45,E2,1E,
19867710,000002B4,false,Tx,0,8,6A,62,D8,BD,CD,18,45,2D,
19877629,000002B5,false,Tx,0,8,6E,C5,CB,B3,E4,90,C0,70,
19877629,000002B5,false,Tx,0,8,6E,C5,CB,B3,E4,90,C0,70,
19887117,00000200,false,Tx,0,8,DA,F2,B7,CD,36,AF,33,AE,
19898236,000002B5,false,Rx,0,8,90,00,32,00,00,00,00,A2,
19899396,00000201,false,Tx,0,8,AC,35,6D,03,AF,75,9F,05,
19907404,00000202,false,Tx,0,8,03,C9,1A,6B,B9,F9,2D,04,
19961110,00000203,false,Tx,0,8,A6,9F,0E,44,BE,BC,54,09,
19967135,00000204,false,Tx,0,8,B4,25,C8,B6,D8,DF,B4,D4,
19977612,00000205,false,Tx,0,8,9E,35,2C,C9,28,21,C8,08,
19987338,00000206,false,Tx,0,8,A6,39,7F,DE,A9,7E,5F,23,
19996680,00000207,false,Tx,0,8,42,85,A2,91,63,7E,20,71,
19998238,000002B5,false,Rx,0,8,A0,00,32,00,00,00,00,92,
19998467,000002B6,false,Rx,0,8,A0,00,7D,02,00,00,7E,A1,
20008171,00000208,false,Tx,0,8,09,CC,4B,BD,55,5C,9D,16,
20016630,00000209,false,Tx,0,8,02,68,60,67,60,55,4B,36,
20027176,0000020A,false,Tx,0,8,AC,D9,9D,72,33,4B,D8,66,
20036711,0000020B,false,Tx,0,8,E4,3E,16,EC,5B,83,44,F4,
20046733,0000020C,false,Tx,0,8,57,0D,48,F5,19,A2,90,6A,
20057122,0000020D,false,Tx,0,8,99,64,3D,BC,A3,8A,69,EF,
20067917,0000020E,false,Tx,0,8,10,20,06,B6,A2,38,CA,09,
20067917,0000020E,false,Tx,0,8,10,20,06,B6,A2,38,CA,09,
20077802,000002B5,false,Rx,0,8,E0,00,32,00,00,00,00,D2,
20077854,0000020F,false,Tx,0,8,56,B2,0C,0C,3D,35,72,32,
20087364,00000210,false,Tx,0,8,90,85,00,A2,CD,17,66,71,
20097847,00000211,false,Tx,0,8,13,AB,18,FD,81,A0,84,A2,
20098233,000002B5,false,Rx,0,8,B0,00,32,00,00,00,00,82,
20107223,00000212,false,Tx,0,8,6B,DA,3B,14,F9,7A,BC,17,
20117517,00000213,false,Tx,0,8,FB,EE,44,EA,01,5B,30,D2,
20127523,00000214,false,Tx,0,8,4F,34,43,AC,44,23,4C,F1,
20136723,00000215,false,Tx,0,8,B5,5F,19,93,E6,85,17,35,
20147544,00000216,false,Tx,0,8,E1,7A,C8,89,AA,88,43,94,
20156637,00000217,false,Tx,0,8,DE,13,6C,A3,70,0A,A5,D9,
20198225,000002B5,false,Rx,0,8,C0,00,32,00,00,00,00,F2,
20198467,000002B6,false,Rx,0,8,C0,00,7D,02,00,00,7E,C1,
20209952,00000218,false,Tx,0,8,AD,9D,66,7D,6C,DA,51,FE,
20217326,00000219,false,Tx,0,8,81,C2,0C,61,0C,6A,51,42,
20227977,0000021A,false,Tx,0,8,DC,F6,A0,D6,0B,83,8C,3C,
20236846,0000021B,false,Tx,0,8,EB,7F,AE,CC,86,E5,38,DA,
20247156,0000021C,false,Tx,0,8,34,2C,CA,86,AB,7B,26,0C,
20257265,0000021D,false,Tx,0,8,7F,29,2F,B6,18,27,49,65,
20257265,0000021D,false,Tx,0,8,7F,29,2F,B6,18,27,49,65,
20266673,0000021E,false,Tx,0,8,85,B0,F8,5D,FA,50,56,B9,
20276771,0000021F,false,Tx,0,8,CA,C1,BF,D8,86,B0,F0,7F,
20286837,00000220,false,Tx,0,8,F2,D8,A4,36,37,F3,2B,2B,
20296728,00000221,false,Tx,0,8,5A,40,21,22,78,5F,8A,7B,
20298229,000002B5,false,Rx,0,8,D0,00,32,00,00,00,00,E2,
20306999,00000222,false,Tx,0,8,4B,93,1A,9E,4F,C1,CD,0A,
20316831,00000223,false,Tx,0,8,3F,0D,A5,2B,F3,92,6B,9A,
20326743,00000224,false,Tx,0,8,DA,88,42,EE,66,DF,B3,BD,
20336687,00000225,false,Tx,0,8,B2,82,54,F3,7A,1E,C1,85,
20337551,00000261,false,Tx,0,8,DB,E5,60,DC,30,03,25,D5,
20346723,00000226,false,Tx,0,8,C3,82,29,63,8B,0A,C4,EF,
20356926,00000227,false,Tx,0,8,14,5C,C9,83,56,D0,60,29,
20367237,00000228,false,Tx,0,8,5F,E3,A3,CC,F2,65,0B,5B,
20377119,00000229,false,Tx,0,8,34,CB,37,43,94,4C,C3,1D,
20387177,0000022A,false,Tx,0,8,58,0C,28,85,98,90,F1,6D,
20398215,000002B5,false,Rx,0,8,E0,00,32,00,00,00,00,D2,
20398455,000002B6,false,Rx,0,8,E0,00,7D,02,00,00,7E,E1,
20398472,0000022B,false,Tx,0,8,E5,1A,DF,54,DA,1F,3A,B6,
20407070,0000022C,false,Tx,0,8,60,30,07,FF,6B,DA,57,D7,
20461133,0000022D,false,Tx,0,8,1B,8F,17,12,00,89,F2,F4,
20461133,0000022D,false,Tx,0,8,1B,8F,17,12,00,89,F2,F4,
20468171,0000022E,false,Tx,0,8,AB,E7,0F,F6,33,B4,8F,49,
20477359,0000022F,false,Tx,0,8,41,E1,D1,9E,90,74,3A,2C,
20486611,00000230,false,Tx,0,8,03,2B,5E,1C,78,12,70,48,
20496548,00000231,false,Tx,0,8,83,B3,A6,B9,56,BB,CA,A3,
20498217,000002B5,false,Rx,0,8,F0,00,32,00,00,00,00,C2,
20507359,00000232,false,Tx,0,8,09,28,BC,89,9A,91,81,90,
20516620,00000233,false,Tx,0,8,BF,33,85,42,9B,00,BE,CF,
20526660,00000234,false,Tx,0,8,12,01,E0,33,61,C6,F9,07,
20536707,00000235,false,Tx,0,8,3D,95,E2,4F,BB,01,00,48,
20546618,00000236,false,Tx,0,8,95,D6,C6,36,0B,0F,8A,86,
20557044,00000237,false,Tx,0,8,CB,E4,29,FC,4D,DD,D9,41,
20557044,00000237,false,Tx,0,8,CB,E4,29,FC,4D,DD,D9,41,
20567306,00000238,false,Tx,0,8,8F,72,17,49,1B,B5,BA,8E,
20576998,00000239,false,Tx,0,8,D2,3A,76,85,82,A6,72,57,
20586636,0000023A,false,Tx,0,8,36,AB,03,A5,35,38,9C,FE,
20596734,0000023B,false,Tx,0,8,C1,23,E6,48,22,0C,C2,B2,
20598212,000002B5,false,Rx,0,8,00,00,32,00,00,00,00,32,
20606910,0000023C,false,Tx,0,8,63,CD,3B,3F,72,79,AA,E0,
20616818,0000023D,false,Tx,0,8,49,C5,DA,0C,50,0E,11,62,
20616818,0000023D,false,Tx,0,8,49,C5,DA,0C,50,0E,11,62,
20627546,0000023E,false,Tx,0,8,51,FC,26,83,4B,84,5F,96,
20637498,0000023F,false,Tx,0,8,74,66,E3,AB,7C,39,BD,86,
20649129,00000240,false,Tx,0,8,D8,1A,2A,C9,12,75,86,A9,
20657473,00000241,false,Tx,0,8,68,20,41,0E,36,32,3D,37,
20698206,000002B5,false,Rx,0,8,10,00,32,00,00,00,00,22,
20698447,000002B6,false,Rx,0,8,12,00,7D,02,00,00,7E,13,
20716397,00000242,false,Tx,0,8,57,69,33,26,85,38,F9,43,
20718362,00000243,false,Tx,0,8,C1,6B,B0,B0,67,4C,E6,32,
20728101,00000244,false,Tx,0,8,7F,0C,C4,DF,D7,EA,01,06,
20737595,00000245,false,Tx,0,8,24,9D,93,20,74,AB,FB,5C,
20747439,00000246,false,Tx,0,8,59,9C,ED,8C,99,15,4E,FC,
20758146,00000247,false,Tx,0,8,80,EF,70,F4,21,8F,40,DE,
20758146,00000247,false,Tx,0,8,80,EF,70,F4,21,8F,40,DE,
20768205,00000248,false,Tx,0,8,23,7E,80,35,44,D6,D2,40,
20777562,00000249,false,Tx,0,8,7C,2E,F7,81,A3,EC,36,21,
20789065,0000024A,false,Tx,0,8,08,98,D4,45,2C,E0,1A,32,
20798194,0000024B,false,Tx,0,8,81,0C,75,BF,3F,34,1F,AB,
20798219,000002B5,false,Rx,0,8,20,00,32,00,00,00,00,12,
20807013,0000024C,false,Tx,0,8,D5,4F,13,0A,EE,EE,21,D0,
20817618,0000024D,false,Tx,0,8,2E,8E,23,86,74,3D,8E,97,
20827096,0000024E,false,Tx,0,8,27,E8,E1,EE,D1,21,81,97,
20837542,0000024F,false,Tx,0,8,F9,03,CB,9D,E4,C5,36,92,
20847450,00000250,false,Tx,0,8,92,3D,3D,7B,77,50,C1,99,
20856552,00000251,false,Tx,0,8,39,66,24,5A,5D,BB,B0,C9,
20866568,00000252,false,Tx,0,8,2B,0D,C3,68,1D,33,46,3D,
20876770,00000253,false,Tx,0,8,45,12,A4,B3,3A,80,FE,BA,
20886733,00000254,false,Tx,0,8,0B,38,E0,3E,20,72,04,2D,
20898196,000002B5,false,Rx,0,8,30,00,32,00,00,00,00,02,
20899459,00000255,false,Tx,0,8,45,33,89,CD,D7,DF,B0,44,
20906955,00000256,false,Tx,0,8,44,16,BA,6B,07,CC,75,86,
20960273,00000257,false,Tx,0,8,DF,57,64,0A,67,E8,AD,00,
20960273,00000257,false,Tx,0,8,DF,57,64,0A,67,E8,AD,00,
20967349,00000258,false,Tx,0,8,72,6A,33,36,F0,74,0C,66,
20977353,00000259,false,Tx,0,8,8E,BE,A9,F2,11,8D,36,00,
20986751,0000025A,false,Tx,0,8,41,00,14,2E,06,BC,B9,55,
20996889,0000025B,false,Tx,0,8,1E,8D,66,12,21,CF,2F,60,
20998196,000002B5,false,Rx,0,8,40,00,32,00,00,00,00,72,
21007451,0000025C,false,Tx,0,8,C8,D6,90,F8,80,C5,06,3F,
21017852,0000025D,false,Tx,0,8,74,80,29,51,F6,CE,9C,EC,
21027532,0000025E,false,Tx,0,8,86,A4,08,25,BF,33,0C,B0,
21037444,0000025F,false,Tx,0,8,75,39,A1,58,28,76,92,66,
21047344,00000260,false,Tx,0,8,F1,40,60,C4,BD,8E,5B,83,
21057751,00000261,false,Tx,0,8,9C,00,DC,EB,4A,15,5B,45,
21057751,00000261,false,Tx,0,8,9C,00,DC,EB,4A,15,5B,45,
21067003,00000262,false,Tx,0,8,32,DB,CD,13,A9,9B,A2,FD,
21077186,00000263,false,Tx,0,8,8B,CF,2B,60,CB,3E,76,97,
21087419,00000264,false,Tx,0,8,76,08,10,37,B3,30,42,38,
21096942,00000265,false,Tx,0,8,5B,F9,25,AC,E7,D1,34,F0,
21098202,000002B5,false,Rx,0,8,50,00,32,00,00,00,00,62,
21107415,00000266,false,Tx,0,8,A3,F4,F8,28,B2,AC,A2,0A,
21116781,00000267,false,Tx,0,8,C1,99,C2,64,3A,90,4E,02,
21127036,00000268,false,Tx,0,8,D3,EE,D6,C7,C5,62,B0,C9,
21137121,00000269,false,Tx,0,8,A6,1D,3A,E9,7B,28,EA,1E,
21147458,0000026A,false,Tx,0,8,6F,91,5F,F7,B3,F0,CF,F8,
21156580,0000026B,false,Tx,0,8,F8,11,2F,D5,E5,39,5F,CF,
21198207,000002B5,false,Rx,0,8,60,00,32,00,00,00,00,52,
21198448,000002B6,false,Rx,0,8,62,00,7D,02,00,00,7E,63,
21212671,0000026C,false,Tx,0,8,2D,5C,57,FE,BD,FA,E1,C9,
21216638,0000026D,false,Tx,0,8,F9,A7,15,2F,F8,30,E6,4E,
21226677,0000026E,false,Tx,0,8,0C,4A,24,93,E7,97,1A,2D,
21236639,0000026F,false,Tx,0,8,EB,DB,E0,82,42,B2,41,D6,
21246658,00000270,false,Tx,0,8,B3,27,C3,4B,57,EE,FF,96,
21257618,00000271,false,Tx,0,8,88,7E,1B,8E,87,E3,95,3F,
21268053,00000272,false,Tx,0,8,91,6C,1C,B9,F9,F4,6E,44,
21277089,00000273,false,Tx,0,8,D6,93,E6,AE,B4,2C,A1,CE,
21287380,00000274,false,Tx,0,8,8E,BE,3F,8F,32,6A,81,2E,
21296710,00000275,false,Tx,0,8,6F,2D,4A,DB,87,F5,67,C5,
21298192,000002B5,false,Rx,0,8,70,00,32,00,00,00,00,42,
21298433,000002B6,false,Rx,0,8,72,00,7D,02,00,00,7E,73,
21308236,00000276,false,Tx,0,8,EA,D1,34,18,E5,3D,19,FF,
21317045,00000277,false,Tx,0,8,75,41,E9,39,30,DB,53,DB,
21327344,00000278,false,Tx,0,8,79,6F,E0,7F,D8,E3,50,B8,
21337316,00000279,false,Tx,0,8,E5,E4,02,C8,7E,A8,7C,B5,
21346723,0000027A,false,Tx,0,8,8E,90,A2,B5,3C,4E,79,7A,
21346723,0000027A,false,Tx,0,8,8E,90,A2,B5,3C,4E,79,7A,
21357696,0000027B,false,Tx,0,8,5C,40,2C,3A,F7,E0,0F,F9,
21367870,0000027C,false,Tx,0,8,91,07,3A,13,47,6B,6A,4D,
21376789,0000027D,false,Tx,0,8,E6,3D,A3,AD,28,B8,55,A7,
21386741,0000027E,false,Tx,0,8,E7,3D,31,BF,E9,9D,42,A5,
21398192,000002B5,false,Rx,0,8,80,00,32,00,00,00,00,B2,
21398434,0000027F,false,Tx,0,8,1C,49,54,76,7C,1E,26,A4,
21407046,00000280,false,Tx,0,8,EB,6B,7F,5C,F1,8E,62,91,
21407046,00000280,false,Tx,0,8,EB,6B,7F,5C,F1,8E,62,91,
21458245,00000281,false,Tx,0,8,E5,B4,38,44,81,C5,72,58,
21467855,00000282,false,Tx,0,8,CB,48,DE,16,A8,74,AC,8F,
21476927,00000283,false,Tx,0,8,6F,57,E4,EF,07,D3,28,BC,
21486867,00000284,false,Tx,0,8,E5,D4,B0,7E,D2,9D,21,14,
21497040,00000285,false,Tx,0,8,50,21,B3,F2,27,B5,BF,69,
21498184,000002B5,false,Rx,0,8,90,00,32,00,00,00,00,A2,
21498424,000002B6,false,Rx,0,8,92,00,7D,02,00,00,7E,93,
21508081,00000286,false,Tx,0,8,95,D0,A3,FD,AD,13,22,57,
21516954,00000287,false,Tx,0,8,B3,45,9B,CF,51,DB,2B,70,
21527140,00000288,false,Tx,0,8,2C,4D,68,5A,25,28,4F,A2,
21536777,00000289,false,Tx,0,8,1D,F1,19,96,4D,06,69,B0,
21546951,0000028A,false,Tx,0,8,45,D9,46,C9,14,44,D3,84,
21556727,0000028B,false,Tx,0,8,97,B0,78,EF,D4,44,D7,A7,
21567150,0000028C,false,Tx,0,8,B1,E4,2B,18,A5,46,87,7E,
21576902,0000028D,false,Tx,0,8,19,0A,40,20,F2,B4,E0,BD,
21587697,0000028E,false,Tx,0,8,B8,3F,74,F7,3C,0B,05,0D,
21597142,0000028F,false,Tx,0,8,CE,57,A2,23,26,A4,B5,09,
21598185,000002B5,false,Rx,0,8,A0,00,32,00,00,00,00,92,
21598426,000002B6,false,Rx,0,8,A2,00,7D,02,00,00,7E,A3,
21606708,00000290,false,Tx,0,8,1B,20,AE,6C,C1,7E,33,37,
21617410,00000291,false,Tx,0,8,FA,2A,32,A5,78,D7,08,2A,
21627074,00000292,false,Tx,0,8,1B,87,3B,35,31,57,7A,E9,
21637394,00000293,false,Tx,0,8,83,D0,A4,6B,ED,23,DB,97,
21648320,00000294,false,Tx,0,8,A6,AF,75,5A,C0,7D,43,52,
21656665,00000295,false,Tx,0,8,48,17,CA,79,85,39,B5,9F,
21698192,000002B5,false,Rx,0,8,B0,00,32,00,00,00,00,82,
21698431,000002B6,false,Rx,0,8,B2,00,7D,02,00,00,7E,B3,
21711126,00000296,false,Tx,0,8,3F,6B,B4,EE,80,CA,9B,54,
21717536,00000297,false,Tx,0,8,57,17,38,71,52,DC,F7,DD,
21727854,00000298,false,Tx,0,8,3D,75,D3,AC,95,5A,85,9B,
21736687,00000299,false,Tx,0,8,7B,75,3A,32,9E,4E,D6,51,
21746766,0000029A,false,Tx,0,8,88,79,A9,89,12,2B,83,28,
21757636,0000029B,false,Tx,0,8,7A,01,01,A1,4D,A1,87,33,
21768353,0000029C,false,Tx,0,8,39,B2,02,86,45,AD,7B,34,
21777223,0000029D,false,Tx,0,8,83,CC,C0,C8,DB,63,CB,D6,
21788027,0000029E,false,Tx,0,8,84,9B,4C,4A,F8,05,F2,91,
21796956,0000029F,false,Tx,0,8,4F,BA,B2,AA,2F,76,79,16,
21798182,000002B5,false,Rx,0,8,C0,00,32,00,00,00,00,F2,
21807235,000002A0,false,Tx,0,8,4E,6D,75,33,16,3D,89,16,
21817249,000002A1,false,Tx,0,8,2F,AE,3F,EF,53,06,1D,98,
21827625,000002A2,false,Tx,0,8,D6,F1,33,93,58,F7,D7,EE,
21836757,000002A3,false,Tx,0,8,C8,D9,A8,57,64,0C,9D,05,
21847603,000002A4,false,Tx,0,8,81,B2,03,14,94,0B,14,96,
21857036,000002A5,false,Tx,0,8,D5,AE,55,33,30,CB,64,F9,
21866710,000002A6,false,Tx,0,8,88,B8,82,5F,0A,9D,DA,0A,
21876894,000002A7,false,Tx,0,8,E2,A1,FC,27,E6,04,E6,C0,
21886786,000002A8,false,Tx,0,8,80,A3,DE,F9,20,16,E8,0A,
21886786,000002A8,false,Tx,0,8,80,A3,DE,F9,20,16,E8,0A,
21898189,000002B5,false,Rx,0,8,D0,00,32,00,00,00,00,E2,
21898463,000002A9,false,Tx,0,8,B0,F5,22,70,EE,EB,5C,86,
21907520,000002AA,false,Tx,0,8,73,04,D8,6B,C2,0D,90,60,
21998176,000002B5,false,Rx,0,8,E0,00,32,00,00,00,00,D2,
21998416,000002B6,false,Rx,0,8,E0,00,7D,02,00,00,7E,E1,
22022407,000002AB,false,Tx,0,8,48,31,F3,E1,4F,4A,08,D6,
22046947,00000204,false,Tx,0,8,20,00,00,00,00,00,00,00,
22098186,000002B5,false,Rx,0,8,F0,00,32,00,00,00,00,C2,
22098427,000002B6,false,Rx,0,8,F0,00,7D,02,00,00,7E,F1,
22101272,000002AC,false,Tx,0,8,85,52,D2,56,FB,29,FA,3B,
22106478,000002AD,false,Tx,0,8,1E,CB,D9,83,5B,2D,85,B2,
22117037,000002AE,false,Tx,0,8,7E,9F,9E,7B,D7,31,55,DC,
22126526,000002AF,false,Tx,0,8,4B,57,9A,AB,45,7A,F8,80,
22136660,000002B0,false,Tx,0,8,2D,1D,4C,0B,3D,6F,CE,D8,
22147262,000002B1,false,Tx,0,8,55,77,63,37,BD,9D,D6,30,
22156747,000002B2,false,Tx,0,8,FA,A3,5D,7F,C5,B0,2A,01,
22186276,000002B6,false,Rx,0,8,F2,00,7D,02,00,00,7E,F3,
22198171,000002B5,false,Rx,0,8,00,00,32,00,00,00,00,32,
22198421,000002B6,false,Rx,0,8,00,00,7D,02,00,00,7E,01,
22215517,000002B3,false,Tx,0,8,44,96,AF,73,BB,63,64,C7,
22220195,000002B4,false,Tx,0,8,54,EA,C2,D1,C3,7F,84,13,
22220195,000002B4,false,Tx,0,8,54,EA,C2,D1,C3,7F,84,13,
22227683,000002B5,false,Tx,0,8,5D,96,A3,62,D6,36,3F,7D,
22238110,00000200,false,Tx,0,8,68,74,B8,15,36,FC,8B,EA,
22247518,00000201,false,Tx,0,8,07,7B,BD,27,B6,C9,DE,22,
22257150,00000202,false,Tx,0,8,3E,B5,15,EF,CF,F7,07,77,
22267137,00000203,false,Tx,0,8,65,29,C4,79,44,3C,78,5F,
22276795,00000204,false,Tx,0,8,C5,BC,E4,79,7F,E0,62,32,
22287633,00000205,false,Tx,0,8,9A,04,A1,B4,E5,08,63,33,
22297160,00000206,false,Tx,0,8,AE,8B,50,00,E1,3E,A2,1B,
22298184,000002B5,false,Rx,0,8,10,00,32,00,00,00,00,22,
22307348,00000207,false,Tx,0,8,F5,4D,28,AA,50,8B,77,07,
22317350,00000208,false,Tx,0,8,F2,12,0C,5C,04,DE,F5,AD,
22327006,00000209,false,Tx,0,8,EC,6A,5B,B1,E5,01,C8,EC,
22337425,0000020A,false,Tx,0,8,FE,3F,4A,DC,51,69,89,13,
22347092,0000020B,false,Tx,0,8,C8,F6,84,EC,77,38,5A,72,
22357128,0000020C,false,Tx,0,8,4B,49,A2,A2,A8,35,B2,98,
22368218,0000020D,false,Tx,0,8,DB,83,96,53,0A,9D,AE,B0,
22376941,0000020E,false,Tx,0,8,89,51,E7,45,FF,33,5C,1F,
22387285,0000020F,false,Tx,0,8,00,82,57,CC,38,BB,01,30,
22397532,00000210,false,Tx,0,8,9F,F8,29,B3,76,93,C6,1B,
22398173,000002B5,false,Rx,0,8,20,00,32,00,00,00,00,12,
22398413,000002B6,false,Rx,0,8,20,00,7D,02,00,00,7E,21,
22398413,000002B6,false,Rx,0,8,20,00,7D,02,00,00,7E,21,
22407024,00000211,false,Tx,0,8,0D,AB,77,31,F0,B3,74,E4,
22417361,00000212,false,Tx,0,8,6A,76,A0,1F,44,5D,E3,4D,
22467567,00000213,false,Tx,0,8,6D,0F,A1,E5,EA,34,DA,D4,
22477263,00000214,false,Tx,0,8,1D,79,3F,6B,22,3C,6F,6D,
22487264,00000215,false,Tx,0,8,0C,F9,00,0F,E0,C5,0B,B4,
22497189,00000216,false,Tx,0,8,9F,E2,ED,F5,98,3A,BD,3B,
22498172,000002B5,false,Rx,0,8,30,00,32,00,00,00,00,02,
22507214,00000217,false,Tx,0,8,29,B8,A3,C9,D2,92,B4,68,
22517225,00000218,false,Tx,0,8,82,27,73,0A,DE,B4,59,F1,
22527147,00000219,false,Tx,0,8,BA,BD,2C,F8,7A,66,F1,17,
22537297,0000021A,false,Tx,0,8,FF,53,3E,C6,C7,93,8E,BC,
22547384,0000021B,false,Tx,0,8,56,3D,A9,9A,E9,82,92,C3,
22557212,0000021C,false,Tx,0,8,64,BA,12,7D,66,32,6E,DE,
22567601,0000021D,false,Tx,0,8,C5,D0,2E,56,11,5B,DD,CF,
22576607,0000021E,false,Tx,0,8,51,D3,55,CD,0C,AB,2C,71,
22589344,0000021F,false,Tx,0,8,EE,CF,E9,49,60,D8,B6,E6,
22598037,00000220,false,Tx,0,8,AE,DC,90,AF,9E,5E,0E,68,
22598174,000002B5,false,Rx,0,8,40,00,32,00,00,00,00,72,
22598415,000002B6,false,Rx,0,8,40,00,7D,02,00,00,7E,41,
22598415,000002B6,false,Rx,0,8,40,00,7D,02,00,00,7E,41,
22610380,00000221,false,Tx,0,8,9D,ED,2E,C4,A5,E9,3E,8E,
22620139,00000222,false,Tx,0,8,8A,13,2E,9E,73,22,E1,DB,
22631892,00000223,false,Tx,0,8,0A,07,0A,9D,56,96,29,32,
22640487,00000224,false,Tx,0,8,37,DA,8C,39,79,67,70,78,
22651770,00000225,false,Tx,0,8,7B,5F,B0,E4,FA,9C,AE,A0,
22657100,00000226,false,Tx,0,8,52,90,C6,50,1F,1A,40,66,
22698159,000002B5,false,Rx,0,8,50,00,32,00,00,00,00,62,
22698399,000002B6,false,Rx,0,8,50,00,7D,02,00,00,7E,51,
22766951,00000227,false,Tx,0,8,20,75,72,F8,10,D5,87,B0,
22779086,00000228,false,Tx,0,8,35,49,95,81,F2,7D,41,70,
22788320,00000229,false,Tx,0,8,54,02,86,D8,56,CB,D3,4F,
22798092,0000022A,false,Tx,0,8,EE,39,48,D5,BE,04,7E,BC,
22798170,000002B5,false,Rx,0,8,60,00,32,00,00,00,00,52,
22807129,0000022B,false,Tx,0,8,35,42,9B,C6,35,0F,E7,87,
22817034,0000022C,false,Tx,0,8,99,D7,AB,44,F8,A4,82,22,
22827077,0000022D,false,Tx,0,8,60,A7,C1,D6,B7,D1,DF,F9,
22837012,0000022E,false,Tx,0,8,50,EF,6C,C4,40,DB,BA,4A,
22847184,0000022F,false,Tx,0,8,16,A1,CA,EB,10,04,32,D2,
22857154,00000230,false,Tx,0,8,6E,FB,6E,C6,82,2D,45,21,
22868301,00000231,false,Tx,0,8,33,2C,DE,AA,AF,D7,1A,1D,
22877283,00000232,false,Tx,0,8,F5,71,16,BA,C9,01,72,45,
22887460,00000233,false,Tx,0,8,82,9E,C7,08,3D,03,42,AD,
22898175,000002B5,false,Rx,0,8,70,00,32,00,00,00,00,42,
22898415,000002B6,false,Rx,0,8,72,00,7D,02,00,00,7E,73,
22900740,00000234,false,Tx,0,8,1A,1E,DF,5A,24,F5,3B,23,
22908676,00000235,false,Tx,0,8,76,77,73,B3,AA,A3,33,E4,
22966581,00000236,false,Tx,0,8,81,A9,08,28,90,3F,1A,64,
22977460,00000237,false,Tx,0,8,10,0C,79,05,4A,DF,27,92,
22987385,00000238,false,Tx,0,8,FC,78,49,DE,6A,3C,9B,F2,
22996749,00000239,false,Tx,0,8,02,29,10,6D,4A,26,FA,1D,
22998172,000002B5,false,Rx,0,8,80,00,32,00,00,00,00,B2,
23007448,0000023A,false,Tx,0,8,75,44,6C,45,91,CC,E2,A0,
