Time Stamp,ID,Extended,Dir,Bus,LEN,D1,D2,D3,D4,D5,D6,D7,D8
519221,000002B6,false,Rx,0,8,C2,00,7D,02,00,00,7E,C3,
778204,000002B5,false,Rx,0,8,D0,00,32,00,00,00,00,E2,
1098632,000002B5,false,Rx,0,8,D0,00,32,00,00,00,00,E2,
1098871,000002B6,false,Rx,0,8,D2,00,7D,02,00,00,7E,D3,
1198637,000002B5,false,Rx,0,8,E0,00,32,00,00,00,00,D2,
1198866,000002B6,false,Rx,0,8,E2,00,7D,02,00,00,7E,E3,
1298617,000002B5,false,Rx,0,8,F0,00,32,00,00,00,00,C2,
1298856,000002B6,false,Rx,0,8,F2,00,7D,02,00,00,7E,F3,
1398621,000002B5,false,Rx,0,8,00,00,32,00,00,00,00,32,
1398860,000002B6,false,Rx,0,8,02,00,7D,02,00,00,7E,03,
1498631,000002B5,false,Rx,0,8,10,00,32,00,00,00,00,22,
1498869,000002B6,false,Rx,0,8,12,00,7D,02,00,00,7E,13,
1598619,000002B5,false,Rx,0,8,20,00,32,00,00,00,00,12,
1598859,000002B6,false,Rx,0,8,22,00,7D,02,00,00,7E,23,
1698621,000002B5,false,Rx,0,8,30,00,32,00,00,00,00,02,
1698861,000002B6,false,Rx,0,8,32,00,7D,02,00,00,7E,33,
1798602,000002B5,false,Rx,0,8,40,00,32,00,00,00,00,72,
1798841,000002B6,false,Rx,0,8,42,00,7D,02,00,00,7E,43,
1898605,000002B5,false,Rx,0,8,50,00,32,00,00,00,00,62,
1898844,000002B6,false,Rx,0,8,52,00,7D,02,00,00,7E,53,
1998614,000002B5,false,Rx,0,8,60,00,32,00,00,00,00,52,
1998852,000002B6,false,Rx,0,8,62,00,7D,02,00,00,7E,63,
2019196,000002B6,false,Rx,0,8,B2,00,7D,02,00,00,7E,B3,
2019196,000002B6,false,Rx,0,8,B2,00,7D,02,00,00,7E,B3,
2098613,000002B5,false,Rx,0,8,70,00,32,00,00,00,00,42,
2098852,000002B6,false,Rx,0,8,72,00,7D,02,00,00,7E,73,
2198614,000002B5,false,Rx,0,8,80,00,32,00,00,00,00,B2,
2198854,000002B6,false,Rx,0,8,82,00,7D,02,00,00,7E,83,
2298595,000002B5,false,Rx,0,8,90,00,32,00,00,00,00,A2,
2298834,000002B6,false,Rx,0,8,92,00,7D,02,00,00,7E,93,
2398599,000002B5,false,Rx,0,8,A0,00,32,00,00,00,00,92,
2498607,000002B5,false,Rx,0,8,B0,00,32,00,00,00,00,82,
2498846,000002B6,false,Rx,0,8,B2,00,7D,02,00,00,7E,B3,
2598599,000002B5,false,Rx,0,8,C0,00,32,00,00,00,00,F2,
2619174,000002B6,false,Rx,0,8,12,00,7D,02,00,00,7E,13,
2619174,000002B6,false,Rx,0,8,12,00,7D,02,00,00,7E,13,
2698585,000002B5,false,Rx,0,8,D0,00,32,00,00,00,00,E2,
2698825,000002B6,false,Rx,0,8,D2,00,7D,02,00,00,7E,D3,
2798587,000002B5,false,Rx,0,8,E0,00,32,00,00,00,00,D2,
2798826,000002B6,false,Rx,0,8,E2,00,7D,02,00,00,7E,E3,
2857544,0000022A,false,Tx,0,8,E3,E1,54,6E,79,1C,07,68,
2877823,0000022C,false,Tx,0,8,55,BC,80,6C,2E,90,2B,51,
2898586,000002B5,false,Rx,0,8,F0,00,32,00,00,00,00,C2,
2898824,000002B6,false,Rx,0,8,F2,00,7D,02,00,00,7E,F3,
2998845,000002B6,false,Rx,0,8,02,00,7D,02,00,00,7E,03,
3098577,000002B5,false,Rx,0,8,10,00,32,00,00,00,00,22,
3098817,000002B6,false,Rx,0,8,12,00,7D,02,00,00,7E,13,
3186797,000002B6,false,Rx,0,8,12,00,00,01,40,00,50,03,
3198589,000002B5,false,Rx,0,8,20,00,32,00,00,00,00,12,
3198829,000002B6,false,Rx,0,8,22,00,7D,02,00,00,7E,23,
3298583,000002B5,false,Rx,0,8,30,00,32,00,00,00,00,02,
3298832,000002B6,false,Rx,0,8,32,00,7D,02,00,00,7E,33,
3398580,000002B5,false,Rx,0,8,40,00,32,00,00,00,00,72,
3498582,000002B5,false,Rx,0,8,50,00,32,00,00,00,00,62,
3498821,000002B6,false,Rx,0,8,52,00,7D,02,00,00,7E,53,
3598581,000002B5,false,Rx,0,8,60,00,32,00,00,00,00,52,
3598821,000002B6,false,Rx,0,8,62,00,7D,02,00,00,7E,63,
3698583,000002B5,false,Rx,0,8,70,00,32,00,00,00,00,42,
3698822,000002B6,false,Rx,0,8,72,00,7D,02,00,00,7E,73,
3786651,000002B6,false,Rx,0,8,70,00,7D,02,00,00,7E,71,
3798572,000002B5,false,Rx,0,8,80,00,32,00,00,00,00,B2,
3798820,000002B6,false,Rx,0,8,82,00,7D,02,00,00,7E,83,
3898562,000002B5,false,Rx,0,8,90,00,32,00,00,00,00,A2,
3898801,000002B6,false,Rx,0,8,92,00,7D,02,00,00,7E,93,
3998577,000002B5,false,Rx,0,8,A0,00,32,00,00,00,00,92,
3998816,000002B6,false,Rx,0,8,A2,00,7D,02,00,00,7E,A3,
4098577,000002B5,false,Rx,0,8,B0,00,32,00,00,00,00,82,
4198557,000002B5,false,Rx,0,8,C0,00,32,00,00,00,00,F2,
4198796,000002B6,false,Rx,0,8,C2,00,7D,02,00,00,7E,C3,
4298549,000002B5,false,Rx,0,8,D0,00,32,00,00,00,00,E2,
4298788,000002B6,false,Rx,0,8,D2,00,7D,02,00,00,7E,D3,
4398556,000002B5,false,Rx,0,8,E0,00,32,00,00,00,00,D2,
4398794,000002B6,false,Rx,0,8,E2,00,7D,02,00,00,7E,E3,
4498545,000002B5,false,Rx,0,8,F0,00,32,00,00,00,00,C2,
4498784,000002B6,false,Rx,0,8,F2,00,7D,02,00,00,7E,F3,
4598557,000002B5,false,Rx,0,8,00,00,32,00,00,00,00,32,
4698542,000002B5,false,Rx,0,8,10,00,32,00,00,00,00,22,
4698781,000002B6,false,Rx,0,8,12,00,7D,02,00,00,7E,13,
4786644,000002B6,false,Rx,0,8,12,00,7D,02,00,00,7E,13,
4798552,000002B5,false,Rx,0,8,20,00,32,00,00,00,00,12,
4798791,000002B6,false,Rx,0,8,22,00,7D,02,00,00,7E,23,
4898552,000002B5,false,Rx,0,8,30,00,32,00,00,00,00,02,
4998547,000002B5,false,Rx,0,8,40,00,32,00,00,00,00,72,
4998787,000002B6,false,Rx,0,8,42,00,7D,02,00,00,7E,43,
5098544,000002B5,false,Rx,0,8,50,00,32,00,00,00,00,62,
5198528,000002B5,false,Rx,0,8,60,00,32,00,00,00,00,52,
5198767,000002B6,false,Rx,0,8,62,00,7D,02,00,00,7E,63,
5198767,000002B6,false,Rx,0,8,62,00,7D,02,00,00,7E,63,
5298532,000002B5,false,Rx,0,8,70,00,32,00,00,00,00,42,
5386626,000002B6,false,Rx,0,8,72,00,7D,02,00,00,7E,73,
5398532,000002B5,false,Rx,0,8,80,00,32,00,00,00,00,B2,
5498527,000002B5,false,Rx,0,8,90,00,32,00,00,00,00,A2,
5498767,000002B6,false,Rx,0,8,92,00,7D,02,00,00,7E,93,
5557051,00000295,false,Tx,0,8,F7,F2,D1,76,D9,A7,E7,96,
5577115,00000297,false,Tx,0,8,30,01,2C,D0,B2,D2,B6,9F,
5597110,00000299,false,Tx,0,8,3B,C5,6E,75,A5,13,D4,A0,
5598534,000002B5,false,Rx,0,8,A0,00,32,00,00,00,00,92,
5617100,0000029B,false,Tx,0,8,08,60,D5,03,12,1B,66,8E,
5627157,0000029C,false,Tx,0,8,74,1C,40,5E,67,05,8A,FB,
5627157,0000029C,false,Tx,0,8,74,1C,40,5E,67,05,8A,FB,
5698542,000002B5,false,Rx,0,8,B0,00,32,00,00,00,00,82,
5698781,000002B6,false,Rx,0,8,B2,00,7D,02,00,00,7E,B3,
5728393,000002A0,false,Tx,0,8,04,D7,A6,BB,F8,F5,68,89,
5786615,000002B6,false,Rx,0,8,B2,00,7D,02,00,00,7E,B3,
5797666,000002A2,false,Tx,0,8,23,B8,4D,3A,AA,97,D0,9C,
5798520,000002B5,false,Rx,0,8,C0,00,32,00,00,00,00,F2,
5898536,000002B5,false,Rx,0,8,D0,00,32,00,00,00,00,E2,
5998521,000002B5,false,Rx,0,8,E0,00,32,00,00,00,00,D2,
5998751,000002B6,false,Rx,0,8,E0,00,7D,02,00,00,7E,E1,
6098528,000002B5,false,Rx,0,8,F0,00,32,00,00,00,00,C2,
6107646,000002B5,false,Tx,0,8,55,1A,4C,72,84,71,0E,34,
6198526,000002B5,false,Rx,0,8,00,00,32,00,00,00,00,32,
6198774,000002B6,false,Rx,0,8,00,00,7D,02,00,00,7E,01,
6298514,000002B5,false,Rx,0,8,10,00,32,00,00,00,00,22,
6298752,000002B6,false,Rx,0,8,10,00,7D,02,00,00,7E,11,
6386605,000002B6,false,Rx,0,8,12,00,7D,02,00,00,7E,13,
6398527,000002B5,false,Rx,0,8,20,00,32,00,00,00,00,12,
6498521,000002B5,false,Rx,0,8,30,00,32,00,00,00,00,02,
6498761,000002B6,false,Rx,0,8,30,00,7D,02,00,00,7E,31,
6598744,000002B6,false,Rx,0,8,40,00,7D,02,00,00,7E,41,
6698507,000002B5,false,Rx,0,8,50,00,32,00,00,00,00,62,
6698756,000002B6,false,Rx,0,8,50,00,7D,02,00,00,7E,51,
6798516,000002B5,false,Rx,0,8,60,00,32,00,00,00,00,52,
6798755,000002B6,false,Rx,0,8,60,00,7D,02,00,00,7E,61,
6898509,000002B5,false,Rx,0,8,70,00,32,00,00,00,00,42,
6898748,000002B6,false,Rx,0,8,72,00,7D,02,00,00,7E,73,
6908130,0000022A,false,Tx,0,8,6E,55,7F,C3,3B,CB,63,E9,
6998504,000002B5,false,Rx,0,8,80,00,32,00,00,00,00,B2,
6998754,000002B6,false,Rx,0,8,82,00,7D,02,00,00,7E,83,
7098505,000002B5,false,Rx,0,8,90,00,32,00,00,00,00,A2,
7098744,000002B6,false,Rx,0,8,92,00,7D,02,00,00,7E,93,
7178067,000002B5,false,Rx,0,8,D0,00,32,00,00,00,00,E2,
7198502,000002B5,false,Rx,0,8,A0,00,32,00,00,00,00,92,
7198741,000002B6,false,Rx,0,8,A2,00,7D,02,00,00,7E,A3,
7298496,000002B5,false,Rx,0,8,B0,00,32,00,00,00,00,82,
7298496,000002B5,false,Rx,0,8,B0,00,32,00,00,00,00,82,
7398489,000002B5,false,Rx,0,8,C0,00,32,00,00,00,00,F2,
7498501,000002B5,false,Rx,0,8,D0,00,32,00,00,00,00,E2,
7598497,000002B5,false,Rx,0,8,E0,00,32,00,00,00,00,D2,
7698482,000002B5,false,Rx,0,8,F0,00,32,00,00,00,00,C2,
7698721,000002B6,false,Rx,0,8,F2,00,7D,02,00,00,7E,F3,
7778061,000002B5,false,Rx,0,8,30,00,32,00,00,00,00,02,
7798482,000002B5,false,Rx,0,8,00,00,32,00,00,00,00,32,
7798730,000002B6,false,Rx,0,8,02,00,7D,02,00,00,7E,03,
7898487,000002B5,false,Rx,0,8,10,00,32,00,00,00,00,22,
7998483,000002B5,false,Rx,0,8,20,00,32,00,00,00,00,12,
7998723,000002B6,false,Rx,0,8,22,00,7D,02,00,00,7E,23,
8078294,000002B6,false,Rx,0,8,62,00,7D,02,00,00,7E,63,
8098483,000002B5,false,Rx,0,8,30,00,32,00,00,00,00,02,
8198477,000002B5,false,Rx,0,8,40,00,32,00,00,00,00,72,
8198716,000002B6,false,Rx,0,8,42,00,7D,02,00,00,7E,43,
8298469,000002B5,false,Rx,0,8,50,00,32,00,00,00,00,62,
8298708,000002B6,false,Rx,0,8,52,00,7D,02,00,00,7E,53,
8398483,000002B5,false,Rx,0,8,60,00,32,00,00,00,00,52,
8398711,000002B6,false,Rx,0,8,62,00,7D,02,00,00,7E,63,
8498479,000002B5,false,Rx,0,8,70,00,32,00,00,00,00,42,
8498719,000002B6,false,Rx,0,8,72,00,7D,02,00,00,7E,73,
8598464,000002B5,false,Rx,0,8,80,00,32,00,00,00,00,B2,
8598703,000002B6,false,Rx,0,8,82,00,7D,02,00,00,7E,83,
8678278,000002B6,false,Rx,0,8,C2,00,7D,02,00,00,7E,C3,
8698461,000002B5,false,Rx,0,8,90,00,32,00,00,00,00,A2,
8698700,000002B6,false,Rx,0,8,92,00,7D,02,00,00,7E,93,
8798469,000002B5,false,Rx,0,8,A0,00,32,00,00,00,00,92,
8798708,000002B6,false,Rx,0,8,A2,00,7D,02,00,00,7E,A3,
8886545,000002B6,false,Rx,0,8,A2,00,7D,02,00,00,7E,A3,
8898461,000002B5,false,Rx,0,8,B0,00,32,00,00,00,00,82,
8898701,000002B6,false,Rx,0,8,B2,00,7D,02,00,00,7E,B3,
8998456,000002B5,false,Rx,0,8,C0,00,32,00,00,00,00,F2,
8998696,000002B6,false,Rx,0,8,C2,00,7D,02,00,00,7E,C3,
9098454,000002B5,false,Rx,0,8,D0,00,32,00,00,00,00,E2,
9186541,000002B6,false,Rx,0,8,D2,00,7D,02,00,00,7E,D3,
9198449,000002B5,false,Rx,0,8,E0,00,32,00,00,00,00,D2,
9198688,000002B6,false,Rx,0,8,E2,00,7D,02,00,00,7E,E3,
9298451,000002B5,false,Rx,0,8,F0,00,32,00,00,00,00,C2,
9298690,000002B6,false,Rx,0,8,F2,00,7D,02,00,00,7E,F3,
9398457,000002B5,false,Rx,0,8,00,00,32,00,00,00,00,32,
9398707,000002B6,false,Rx,0,8,02,00,7D,02,00,00,7E,03,
9498454,000002B5,false,Rx,0,8,10,00,32,00,00,00,00,22,
9498694,000002B6,false,Rx,0,8,12,00,7D,02,00,00,7E,13,
9598444,000002B5,false,Rx,0,8,20,00,32,00,00,00,00,12,
9638683,00000293,false,Tx,0,8,9C,0E,95,66,A8,44,A5,92,
9698442,000002B5,false,Rx,0,8,30,00,32,00,00,00,00,02,
9698681,000002B6,false,Rx,0,8,32,00,7D,02,00,00,7E,33,
9798449,000002B5,false,Rx,0,8,40,00,32,00,00,00,00,72,
9798688,000002B6,false,Rx,0,8,42,00,7D,02,00,00,7E,43,
9859114,00000297,false,Tx,0,8,D7,99,B6,84,3E,D7,F1,F4,
9859114,00000297,false,Tx,0,8,D7,99,B6,84,3E,D7,F1,F4,
9878124,00000299,false,Tx,0,8,74,0A,BA,63,82,94,03,C7,
9898092,0000029B,false,Tx,0,8,CC,02,D8,55,FC,0B,C8,30,
9898441,000002B5,false,Rx,0,8,50,00,32,00,00,00,00,62,
9898680,000002B6,false,Rx,0,8,52,00,7D,02,00,00,7E,53,
9908725,0000029C,false,Tx,0,8,1B,EA,94,E3,A4,D3,7D,89,
9998444,000002B5,false,Rx,0,8,60,00,32,00,00,00,00,52,
9998684,000002B6,false,Rx,0,8,62,00,7D,02,00,00,7E,63,
10047580,000002A0,false,Tx,0,8,1B,4C,8A,7E,73,05,1B,DA,
10067310,000002A2,false,Tx,0,8,30,70,90,1F,B4,CB,C6,B3,
10098432,000002B5,false,Rx,0,8,70,00,32,00,00,00,00,42,
10198426,000002B5,false,Rx,0,8,80,00,32,00,00,00,00,B2,
10198664,000002B6,false,Rx,0,8,80,00,7D,02,00,00,7E,81,
10298436,000002B5,false,Rx,0,8,90,00,32,00,00,00,00,A2,
10307230,000002B5,false,Tx,0,8,BD,CB,CD,83,F0,CC,13,A1,
10398422,000002B5,false,Rx,0,8,A0,00,32,00,00,00,00,92,
10498438,000002B5,false,Rx,0,8,B0,00,32,00,00,00,00,82,
10498677,000002B6,false,Rx,0,8,B0,00,7D,02,00,00,7E,B1,
10598430,000002B5,false,Rx,0,8,C0,00,32,00,00,00,00,F2,
10698415,000002B5,false,Rx,0,8,D0,00,32,00,00,00,00,E2,
10698654,000002B6,false,Rx,0,8,D0,00,7D,02,00,00,7E,D1,
10798424,000002B5,false,Rx,0,8,E0,00,32,00,00,00,00,D2,
10798663,000002B6,false,Rx,0,8,E0,00,7D,02,00,00,7E,E1,
10886518,000002B6,false,Rx,0,8,E2,00,7D,02,00,00,7E,E3,
10898428,000002B5,false,Rx,0,8,F0,00,32,00,00,00,00,C2,
10998417,000002B5,false,Rx,0,8,00,00,32,00,00,00,00,32,
11086520,000002B6,false,Rx,0,8,02,00,7D,02,00,00,7E,03,
11098419,000002B5,false,Rx,0,8,10,00,32,00,00,00,00,22,
11118068,0000022A,false,Tx,0,8,06,6D,8C,BC,CC,96,44,26,
11137251,0000022C,false,Tx,0,8,E6,FD,8A,79,B3,F9,19,99,
11186512,000002B6,false,Rx,0,8,12,00,7D,02,00,00,7E,13,
11198423,000002B5,false,Rx,0,8,20,00,32,00,00,00,00,12,
11198662,000002B6,false,Rx,0,8,22,00,7D,02,00,00,7E,23,
11198662,000002B6,false,Rx,0,8,22,00,7D,02,00,00,7E,23,
11286509,000002B6,false,Rx,0,8,22,00,7D,02,00,00,7E,23,
11298416,000002B5,false,Rx,0,8,30,00,32,00,00,00,00,02,
11298654,000002B6,false,Rx,0,8,32,00,7D,02,00,00,7E,33,
11398399,000002B5,false,Rx,0,8,40,00,32,00,00,00,00,72,
11398639,000002B6,false,Rx,0,8,42,00,7D,02,00,00,7E,43,
11498414,000002B5,false,Rx,0,8,50,00,32,00,00,00,00,62,
11498653,000002B6,false,Rx,0,8,52,00,7D,02,00,00,7E,53,
11598394,000002B5,false,Rx,0,8,60,00,32,00,00,00,00,52,
11698408,000002B5,false,Rx,0,8,70,00,32,00,00,00,00,42,
11698647,000002B6,false,Rx,0,8,72,00,7D,02,00,00,7E,73,
11798393,000002B5,false,Rx,0,8,80,00,32,00,00,00,00,B2,
11798632,000002B6,false,Rx,0,8,82,00,7D,02,00,00,7E,83,
11798632,000002B6,false,Rx,0,8,82,00,7D,02,00,00,7E,83,
11877970,000002B5,false,Rx,0,8,C0,00,32,00,00,00,00,F2,
11898408,000002B5,false,Rx,0,8,90,00,32,00,00,00,00,A2,
11998390,000002B5,false,Rx,0,8,A0,00,32,00,00,00,00,92,
11998629,000002B6,false,Rx,0,8,A2,00,7D,02,00,00,7E,A3,
12077971,000002B5,false,Rx,0,8,E0,00,32,00,00,00,00,D2,
12098648,000002B6,false,Rx,0,8,B2,00,7D,02,00,00,7E,B3,
12198388,000002B5,false,Rx,0,8,C0,00,32,00,00,00,00,F2,
12198626,000002B6,false,Rx,0,8,C2,00,7D,02,00,00,7E,C3,
12298391,000002B5,false,Rx,0,8,D0,00,32,00,00,00,00,E2,
12398397,000002B5,false,Rx,0,8,E0,00,32,00,00,00,00,D2,
12398637,000002B6,false,Rx,0,8,E2,00,7D,02,00,00,7E,E3,
12498374,000002B5,false,Rx,0,8,F0,00,32,00,00,00,00,C2,
12586478,000002B6,false,Rx,0,8,F2,00,7D,02,00,00,7E,F3,
12598397,000002B5,false,Rx,0,8,00,00,32,00,00,00,00,32,
12629121,00000293,false,Tx,0,8,60,35,E5,99,26,37,1D,BB,
12646481,00000295,false,Tx,0,8,92,92,29,71,ED,0E,46,66,
12698379,000002B5,false,Rx,0,8,10,00,32,00,00,00,00,22,
12698618,000002B6,false,Rx,0,8,12,00,7D,02,00,00,7E,13,
12742534,00000297,false,Tx,0,8,D4,F8,FA,97,96,A1,0A,48,
12757602,00000299,false,Tx,0,8,63,50,08,F6,73,35,BE,63,
12776945,0000029B,false,Tx,0,8,CE,7B,23,35,8B,C6,01,98,
12786687,0000029C,false,Tx,0,8,65,BC,60,89,C1,F8,84,09,
12798374,000002B5,false,Rx,0,8,20,00,32,00,00,00,00,12,
12826818,000002A0,false,Tx,0,8,C6,D1,28,DE,64,45,D3,7D,
12847446,000002A2,false,Tx,0,8,CE,46,28,7B,08,3B,73,B9,
12898369,000002B5,false,Rx,0,8,30,00,32,00,00,00,00,02,
12998376,000002B5,false,Rx,0,8,40,00,32,00,00,00,00,72,
13087236,000002B5,false,Tx,0,8,A6,D3,EF,7E,DC,4E,D1,40,
13098371,000002B5,false,Rx,0,8,50,00,32,00,00,00,00,62,
13198364,000002B5,false,Rx,0,8,60,00,32,00,00,00,00,52,
13198603,000002B6,false,Rx,0,8,60,00,7D,02,00,00,7E,61,
13298376,000002B5,false,Rx,0,8,70,00,32,00,00,00,00,42,
13398361,000002B5,false,Rx,0,8,80,00,32,00,00,00,00,B2,
13498368,000002B5,false,Rx,0,8,90,00,32,00,00,00,00,A2,
13598351,000002B5,false,Rx,0,8,A0,00,32,00,00,00,00,92,
13626645,0000022A,false,Tx,0,8,7B,89,4E,D6,80,EF,62,56,
13648462,0000022C,false,Tx,0,8,23,B2,09,39,97,DB,BC,6D,
13648462,0000022C,false,Tx,0,8,23,B2,09,39,97,DB,BC,6D,
13698371,000002B5,false,Rx,0,8,B0,00,32,00,00,00,00,82,
13698610,000002B6,false,Rx,0,8,B0,00,7D,02,00,00,7E,B1,
13798359,000002B5,false,Rx,0,8,C0,00,32,00,00,00,00,F2,
13898365,000002B5,false,Rx,0,8,D0,00,32,00,00,00,00,E2,
13998362,000002B5,false,Rx,0,8,E0,00,32,00,00,00,00,D2,
14098354,000002B5,false,Rx,0,8,F0,00,32,00,00,00,00,C2,
14198343,000002B5,false,Rx,0,8,00,00,32,00,00,00,00,32,
14198592,000002B6,false,Rx,0,8,02,00,7D,02,00,00,7E,03,
14298356,000002B5,false,Rx,0,8,10,00,32,00,00,00,00,22,
14298356,000002B5,false,Rx,0,8,10,00,32,00,00,00,00,22,
14298596,000002B6,false,Rx,0,8,12,00,7D,02,00,00,7E,13,
14398342,000002B5,false,Rx,0,8,20,00,32,00,00,00,00,12,
14498349,000002B5,false,Rx,0,8,30,00,32,00,00,00,00,02,
14598334,000002B5,false,Rx,0,8,40,00,32,00,00,00,00,72,
14698328,000002B5,false,Rx,0,8,50,00,32,00,00,00,00,62,
14698567,000002B6,false,Rx,0,8,52,00,7D,02,00,00,7E,53,
14798343,000002B5,false,Rx,0,8,60,00,32,00,00,00,00,52,
14898339,000002B5,false,Rx,0,8,70,00,32,00,00,00,00,42,
14977426,00000293,false,Tx,0,8,0F,CC,D1,A9,25,E4,47,A5,
14977906,000002B5,false,Rx,0,8,B0,00,32,00,00,00,00,82,
14997727,00000295,false,Tx,0,8,32,50,09,39,17,14,84,BE,
14998336,000002B5,false,Rx,0,8,80,00,32,00,00,00,00,B2,
15017206,00000297,false,Tx,0,8,C0,CD,52,5F,FC,6E,3D,5C,
15036634,00000299,false,Tx,0,8,49,C2,C5,90,B1,E5,09,0E,
15057582,0000029B,false,Tx,0,8,3E,DE,ED,95,32,DE,5A,A1,
15067684,0000029C,false,Tx,0,8,8A,1E,65,FD,9F,8E,05,99,
15098339,000002B5,false,Rx,0,8,90,00,32,00,00,00,00,A2,
15107317,000002A0,false,Tx,0,8,D4,6C,69,1A,68,72,A8,2C,
15127639,000002A2,false,Tx,0,8,50,0B,D2,1C,9A,61,5F,A7,
15198336,000002B5,false,Rx,0,8,A0,00,32,00,00,00,00,92,
15198574,000002B6,false,Rx,0,8,A0,00,7D,02,00,00,7E,A1,
15298325,000002B5,false,Rx,0,8,B0,00,32,00,00,00,00,82,
15298565,000002B6,false,Rx,0,8,B0,00,7D,02,00,00,7E,B1,
15366969,000002B5,false,Tx,0,8,2C,09,C5,65,A4,0E,ED,78,
15398331,000002B5,false,Rx,0,8,C0,00,32,00,00,00,00,F2,
15498323,000002B5,false,Rx,0,8,D0,00,32,00,00,00,00,E2,
15498561,000002B6,false,Rx,0,8,D0,00,7D,02,00,00,7E,D1,
15598323,000002B5,false,Rx,0,8,E0,00,32,00,00,00,00,D2,
15698309,000002B5,false,Rx,0,8,F0,00,32,00,00,00,00,C2,
15698548,000002B6,false,Rx,0,8,F0,00,7D,02,00,00,7E,F1,
15798308,000002B5,false,Rx,0,8,00,00,32,00,00,00,00,32,
15898309,000002B5,false,Rx,0,8,10,00,32,00,00,00,00,22,
15968190,0000022A,false,Tx,0,8,CA,DF,B0,35,0E,BF,C3,64,
15987381,0000022C,false,Tx,0,8,65,5D,4E,BC,B8,71,5E,29,
15998313,000002B5,false,Rx,0,8,20,00,32,00,00,00,00,12,
15998552,000002B6,false,Rx,0,8,20,00,7D,02,00,00,7E,21,
16098315,000002B5,false,Rx,0,8,30,00,32,00,00,00,00,02,
16098553,000002B6,false,Rx,0,8,30,00,7D,02,00,00,7E,31,
16198310,000002B5,false,Rx,0,8,40,00,32,00,00,00,00,72,
16198549,000002B6,false,Rx,0,8,42,00,7D,02,00,00,7E,43,
16286384,000002B6,false,Rx,0,8,42,00,7D,02,00,00,7E,43,
16298306,000002B5,false,Rx,0,8,50,00,32,00,00,00,00,62,
16398312,000002B5,false,Rx,0,8,60,00,32,00,00,00,00,52,
16498303,000002B5,false,Rx,0,8,70,00,32,00,00,00,00,42,
16586383,000002B6,false,Rx,0,8,72,00,7D,02,00,00,7E,73,
16598306,000002B5,false,Rx,0,8,80,00,32,00,00,00,00,B2,
16698290,000002B5,false,Rx,0,8,90,00,32,00,00,00,00,A2,
16698530,000002B6,false,Rx,0,8,92,00,7D,02,00,00,7E,93,
16798293,000002B5,false,Rx,0,8,A0,00,32,00,00,00,00,92,
16898292,000002B5,false,Rx,0,8,B0,00,32,00,00,00,00,82,
16998297,000002B5,false,Rx,0,8,C0,00,32,00,00,00,00,F2,
16998535,000002B6,false,Rx,0,8,C2,00,7D,02,00,00,7E,C3,
17098278,000002B5,false,Rx,0,8,D0,00,32,00,00,00,00,E2,
17198295,000002B5,false,Rx,0,8,E0,00,32,00,00,00,00,D2,
17198535,000002B6,false,Rx,0,8,E2,00,7D,02,00,00,7E,E3,
17246996,00000293,false,Tx,0,8,FE,B0,68,5A,2A,25,59,62,
17266875,00000295,false,Tx,0,8,60,B3,A0,7A,08,8F,68,33,
17286883,00000297,false,Tx,0,8,22,C4,D5,62,9C,A3,C7,60,
17298294,000002B5,false,Rx,0,8,F0,00,32,00,00,00,00,C2,
17307204,00000299,false,Tx,0,8,83,92,CE,05,20,69,21,79,
17327939,0000029B,false,Tx,0,8,B9,24,22,51,67,3A,95,BC,
17337283,0000029C,false,Tx,0,8,30,CD,E8,94,52,AD,C7,D9,
17337283,0000029C,false,Tx,0,8,30,CD,E8,94,52,AD,C7,D9,
17378058,000002A0,false,Tx,0,8,77,98,ED,69,90,E3,20,B9,
17398281,000002B5,false,Rx,0,8,00,00,32,00,00,00,00,32,
17398564,000002A2,false,Tx,0,8,A1,0C,B5,A7,94,7F,72,18,
17498288,000002B5,false,Rx,0,8,10,00,32,00,00,00,00,22,
17498526,000002B6,false,Rx,0,8,10,00,7D,02,00,00,7E,11,
17498526,000002B6,false,Rx,0,8,10,00,7D,02,00,00,7E,11,
17586365,000002B6,false,Rx,0,8,12,00,7D,02,00,00,7E,13,
17598288,000002B5,false,Rx,0,8,20,00,32,00,00,00,00,12,
17637015,000002B5,false,Tx,0,8,9F,22,0F,CB,B6,34,5F,4B,
17698271,000002B5,false,Rx,0,8,30,00,32,00,00,00,00,02,
17698511,000002B6,false,Rx,0,8,30,00,7D,02,00,00,7E,31,
17798278,000002B5,false,Rx,0,8,40,00,32,00,00,00,00,72,
17898271,000002B5,false,Rx,0,8,50,00,32,00,00,00,00,62,
17998261,000002B5,false,Rx,0,8,60,00,32,00,00,00,00,52,
17998500,000002B6,false,Rx,0,8,60,00,7D,02,00,00,7E,61,
18086350,000002B6,false,Rx,0,8,62,00,7D,02,00,00,7E,63,
18098273,000002B5,false,Rx,0,8,70,00,32,00,00,00,00,42,
18098273,000002B5,false,Rx,0,8,70,00,32,00,00,00,00,42,
18098512,000002B6,false,Rx,0,8,70,00,7D,02,00,00,7E,71,
18157773,0000022A,false,Tx,0,8,C4,28,D2,56,B6,A4,D7,3E,
18157773,0000022A,false,Tx,0,8,C4,28,D2,56,B6,A4,D7,3E,
18198271,000002B5,false,Rx,0,8,80,00,32,00,00,00,00,B2,
18198511,000002B6,false,Rx,0,8,80,00,7D,02,00,00,7E,81,
18218822,0000022C,false,Tx,0,8,8E,15,CC,51,EC,9E,41,54,
18298253,000002B5,false,Rx,0,8,90,00,32,00,00,00,00,A2,
18386355,000002B6,false,Rx,0,8,92,00,7D,02,00,00,7E,93,
18398268,000002B5,false,Rx,0,8,A0,00,32,00,00,00,00,92,
18398507,000002B6,false,Rx,0,8,A2,00,7D,02,00,00,7E,A3,
18498251,000002B5,false,Rx,0,8,B0,00,32,00,00,00,00,82,
18498490,000002B6,false,Rx,0,8,B2,00,7D,02,00,00,7E,B3,
18498490,000002B6,false,Rx,0,8,B2,00,7D,02,00,00,7E,B3,
18598263,000002B5,false,Rx,0,8,C0,00,32,00,00,00,00,F2,
18598502,000002B6,false,Rx,0,8,C2,00,7D,02,00,00,7E,C3,
18698248,000002B5,false,Rx,0,8,D0,00,32,00,00,00,00,E2,
18698488,000002B6,false,Rx,0,8,D2,00,7D,02,00,00,7E,D3,
18798242,000002B5,false,Rx,0,8,E0,00,32,00,00,00,00,D2,
18898245,000002B5,false,Rx,0,8,F0,00,32,00,00,00,00,C2,
18998245,000002B5,false,Rx,0,8,00,00,32,00,00,00,00,32,
18998483,000002B6,false,Rx,0,8,02,00,7D,02,00,00,7E,03,
19098245,000002B5,false,Rx,0,8,10,00,32,00,00,00,00,22,
19098484,000002B6,false,Rx,0,8,12,00,7D,02,00,00,7E,13,
19198248,000002B5,false,Rx,0,8,20,00,32,00,00,00,00,12,
19198478,000002B6,false,Rx,0,8,22,00,7D,02,00,00,7E,23,
19298249,000002B5,false,Rx,0,8,30,00,32,00,00,00,00,02,
19398248,000002B5,false,Rx,0,8,40,00,32,00,00,00,00,72,
19398486,000002B6,false,Rx,0,8,42,00,7D,02,00,00,7E,43,
19497036,00000293,false,Tx,0,8,A9,73,2D,9A,7A,30,D5,5C,
19498240,000002B5,false,Rx,0,8,50,00,32,00,00,00,00,62,
19516704,00000295,false,Tx,0,8,87,97,A7,79,1F,6B,E6,D9,
19537137,00000297,false,Tx,0,8,75,D2,2E,9B,6E,C5,7E,C5,
19556693,00000299,false,Tx,0,8,7C,33,05,5E,3F,1B,50,C8,
19556693,00000299,false,Tx,0,8,7C,33,05,5E,3F,1B,50,C8,
19576732,0000029B,false,Tx,0,8,07,BD,01,74,9E,2E,10,82,
19586766,0000029C,false,Tx,0,8,9A,3D,0B,EE,2B,CE,E4,77,
19598245,000002B5,false,Rx,0,8,60,00,32,00,00,00,00,52,
19598475,000002B6,false,Rx,0,8,62,00,7D,02,00,00,7E,63,
19627549,000002A0,false,Tx,0,8,B1,8F,9E,93,AA,58,EB,90,
19648095,000002A2,false,Tx,0,8,60,10,DF,DD,86,92,61,4B,
19677808,000002B5,false,Rx,0,8,A0,00,32,00,00,00,00,92,
19698226,000002B5,false,Rx,0,8,70,00,32,00,00,00,00,42,
19698467,000002B6,false,Rx,0,8,70,00,7D,02,00,00,7E,71,
19798221,000002B5,false,Rx,0,8,80,00,32,00,00,00,00,B2,
19798461,000002B6,false,Rx,0,8,80,00,7D,02,00,00,7E,81,
19877629,000002B5,false,Tx,0,8,6E,C5,CB,B3,E4,90,C0,70,
19877629,000002B5,false,Tx,0,8,6E,C5,CB,B3,E4,90,C0,70,
19898236,000002B5,false,Rx,0,8,90,00,32,00,00,00,00,A2,
19998238,000002B5,false,Rx,0,8,A0,00,32,00,00,00,00,92,
19998467,000002B6,false,Rx,0,8,A0,00,7D,02,00,00,7E,A1,
20077802,000002B5,false,Rx,0,8,E0,00,32,00,00,00,00,D2,
20098233,000002B5,false,Rx,0,8,B0,00,32,00,00,00,00,82,
20198225,000002B5,false,Rx,0,8,C0,00,32,00,00,00,00,F2,
20198467,000002B6,false,Rx,0,8,C0,00,7D,02,00,00,7E,C1,
20298229,000002B5,false,Rx,0,8,D0,00,32,00,00,00,00,E2,
20387177,0000022A,false,Tx,0,8,58,0C,28,85,98,90,F1,6D,
20398215,000002B5,false,Rx,0,8,E0,00,32,00,00,00,00,D2,
20398455,000002B6,false,Rx,0,8,E0,00,7D,02,00,00,7E,E1,
20407070,0000022C,false,Tx,0,8,60,30,07,FF,6B,DA,57,D7,
20498217,000002B5,false,Rx,0,8,F0,00,32,00,00,00,00,C2,
20598212,000002B5,false,Rx,0,8,00,00,32,00,00,00,00,32,
20698206,000002B5,false,Rx,0,8,10,00,32,00,00,00,00,22,
20698447,000002B6,false,Rx,0,8,12,00,7D,02,00,00,7E,13,
20798219,000002B5,false,Rx,0,8,20,00,32,00,00,00,00,12,
20898196,000002B5,false,Rx,0,8,30,00,32,00,00,00,00,02,
20998196,000002B5,false,Rx,0,8,40,00,32,00,00,00,00,72,
21098202,000002B5,false,Rx,0,8,50,00,32,00,00,00,00,62,
21198207,000002B5,false,Rx,0,8,60,00,32,00,00,00,00,52,
21198448,000002B6,false,Rx,0,8,62,00,7D,02,00,00,7E,63,
21298192,000002B5,false,Rx,0,8,70,00,32,00,00,00,00,42,
21298433,000002B6,false,Rx,0,8,72,00,7D,02,00,00,7E,73,
21398192,000002B5,false,Rx,0,8,80,00,32,00,00,00,00,B2,
21498184,000002B5,false,Rx,0,8,90,00,32,00,00,00,00,A2,
21498424,000002B6,false,Rx,0,8,92,00,7D,02,00,00,7E,93,
21598185,000002B5,false,Rx,0,8,A0,00,32,00,00,00,00,92,
21598426,000002B6,false,Rx,0,8,A2,00,7D,02,00,00,7E,A3,
21637394,00000293,false,Tx,0,8,83,D0,A4,6B,ED,23,DB,97,
21656665,00000295,false,Tx,0,8,48,17,CA,79,85,39,B5,9F,
21698192,000002B5,false,Rx,0,8,B0,00,32,00,00,00,00,82,
21698431,000002B6,false,Rx,0,8,B2,00,7D,02,00,00,7E,B3,
21717536,00000297,false,Tx,0,8,57,17,38,71,52,DC,F7,DD,
21736687,00000299,false,Tx,0,8,7B,75,3A,32,9E,4E,D6,51,
21757636,0000029B,false,Tx,0,8,7A,01,01,A1,4D,A1,87,33,
21768353,0000029C,false,Tx,0,8,39,B2,02,86,45,AD,7B,34,
21798182,000002B5,false,Rx,0,8,C0,00,32,00,00,00,00,F2,
21807235,000002A0,false,Tx,0,8,4E,6D,75,33,16,3D,89,16,
21827625,000002A2,false,Tx,0,8,D6,F1,33,93,58,F7,D7,EE,
21898189,000002B5,false,Rx,0,8,D0,00,32,00,00,00,00,E2,
21998176,000002B5,false,Rx,0,8,E0,00,32,00,00,00,00,D2,
21998416,000002B6,false,Rx,0,8,E0,00,7D,02,00,00,7E,E1,
22098186,000002B5,false,Rx,0,8,F0,00,32,00,00,00,00,C2,
22098427,000002B6,false,Rx,0,8,F0,00,7D,02,00,00,7E,F1,
22186276,000002B6,false,Rx,0,8,F2,00,7D,02,00,00,7E,F3,
22198171,000002B5,false,Rx,0,8,00,00,32,00,00,00,00,32,
22198421,000002B6,false,Rx,0,8,00,00,7D,02,00,00,7E,01,
22227683,000002B5,false,Tx,0,8,5D,96,A3,62,D6,36,3F,7D,
22298184,000002B5,false,Rx,0,8,10,00,32,00,00,00,00,22,
22398173,000002B5,false,Rx,0,8,20,00,32,00,00,00,00,12,
22398413,000002B6,false,Rx,0,8,20,00,7D,02,00,00,7E,21,
22398413,000002B6,false,Rx,0,8,20,00,7D,02,00,00,7E,21,
22498172,000002B5,false,Rx,0,8,30,00,32,00,00,00,00,02,
22598174,000002B5,false,Rx,0,8,40,00,32,00,00,00,00,72,
22598415,000002B6,false,Rx,0,8,40,00,7D,02,00,00,7E,41,
22598415,000002B6,false,Rx,0,8,40,00,7D,02,00,00,7E,41,
22698159,000002B5,false,Rx,0,8,50,00,32,00,00,00,00,62,
22698399,000002B6,false,Rx,0,8,50,00,7D,02,00,00,7E,51,
22798092,0000022A,false,Tx,0,8,EE,39,48,D5,BE,04,7E,BC,
22798170,000002B5,false,Rx,0,8,60,00,32,00,00,00,00,52,
22817034,0000022C,false,Tx,0,8,99,D7,AB,44,F8,A4,82,22,
22898175,000002B5,false,Rx,0,8,70,00,32,00,00,00,00,42,
22898415,000002B6,false,Rx,0,8,72,00,7D,02,00,00,7E,73,
22998172,000002B5,false,Rx,0,8,80,00,32,00,00,00,00,B2,
23038194,00000293,false,Tx,0,8,99,F6,A7,46,F7,ED,D9,D6,
23098169,000002B5,false,Rx,0,8,90,00,32,00,00,00,00,A2,
23098410,000002B6,false,Rx,0,8,92,00,7D,02,00,00,7E,93,
23110209,000002B6,false,Rx,0,8,82,00,7D,02,00,00,7E,83,
23198165,000002B5,false,Rx,0,8,A0,00,32,00,00,00,00,92,
23198405,000002B6,false,Rx,0,8,A2,00,7D,02,00,00,7E,A3,
23298156,000002B5,false,Rx,0,8,B0,00,32,00,00,00,00,82,
23298395,000002B6,false,Rx,0,8,B2,00,7D,02,00,00,7E,B3,
23398152,000002B5,false,Rx,0,8,C0,00,32,00,00,00,00,F2,
23398392,000002B6,false,Rx,0,8,C2,00,7D,02,00,00,7E,C3,
23498145,000002B5,false,Rx,0,8,D0,00,32,00,00,00,00,E2,
23586232,000002B6,false,Rx,0,8,D2,00,7D,02,00,00,7E,D3,
23598159,000002B5,false,Rx,0,8,E0,00,32,00,00,00,00,D2,
23698147,000002B5,false,Rx,0,8,F0,00,32,00,00,00,00,C2,
23698387,000002B6,false,Rx,0,8,F2,00,7D,02,00,00,7E,F3,
23798152,000002B5,false,Rx,0,8,00,00,32,00,00,00,00,32,
23898147,000002B5,false,Rx,0,8,10,00,32,00,00,00,00,22,
23998135,000002B5,false,Rx,0,8,20,00,32,00,00,00,00,12,
23998377,000002B6,false,Rx,0,8,22,00,7D,02,00,00,7E,23,
24057480,00000293,false,Tx,0,8,47,2D,D6,C3,DA,3F,7F,BC,
24077562,00000295,false,Tx,0,8,DE,FC,82,3E,02,48,33,6C,
24098031,00000297,false,Tx,0,8,8C,AA,38,B9,04,6A,26,64,
24098146,000002B5,false,Rx,0,8,30,00,32,00,00,00,00,02,
24117070,00000299,false,Tx,0,8,87,79,5B,4F,AC,59,17,8B,
24137565,0000029B,false,Tx,0,8,6D,B9,F7,75,6A,B1,43,DD,
24149674,0000029C,false,Tx,0,8,0E,A9,2D,8D,EF,8D,45,54,
24198140,000002B5,false,Rx,0,8,40,00,32,00,00,00,00,72,
24198380,000002B6,false,Rx,0,8,42,00,7D,02,00,00,7E,43,
24227850,000002A0,false,Tx,0,8,96,DD,DB,90,5C,4B,C6,D6,
24246595,000002A2,false,Tx,0,8,9C,B8,F3,E6,22,2C,E4,68,
24298142,000002B5,false,Rx,0,8,50,00,32,00,00,00,00,62,
24298382,000002B6,false,Rx,0,8,50,00,7D,02,00,00,7E,51,
24398128,000002B5,false,Rx,0,8,60,00,32,00,00,00,00,52,
24476988,000002B5,false,Tx,0,8,7B,C6,83,D5,89,1A,78,CE,
24498120,000002B5,false,Rx,0,8,70,00,32,00,00,00,00,42,
24498361,000002B6,false,Rx,0,8,70,00,7D,02,00,00,7E,71,
24598133,000002B5,false,Rx,0,8,80,00,32,00,00,00,00,B2,
24698117,000002B5,false,Rx,0,8,90,00,32,00,00,00,00,A2,
24698357,000002B6,false,Rx,0,8,90,00,7D,02,00,00,7E,91,
24798135,000002B5,false,Rx,0,8,A0,00,32,00,00,00,00,92,
24898131,000002B5,false,Rx,0,8,B0,00,32,00,00,00,00,82,
24997173,0000022A,false,Tx,0,8,05,FF,6B,B5,E0,57,E5,12,
24997173,0000022A,false,Tx,0,8,05,FF,6B,B5,E0,57,E5,12,
24998129,000002B5,false,Rx,0,8,C0,00,32,00,00,00,00,F2,
24998370,000002B6,false,Rx,0,8,C0,00,7D,02,00,00,7E,C1,
25016839,0000022C,false,Tx,0,8,9A,94,9B,01,C0,99,A3,68,
25098130,000002B5,false,Rx,0,8,D0,00,32,00,00,00,00,E2,
25198124,000002B5,false,Rx,0,8,E0,00,32,00,00,00,00,D2,
25198364,000002B6,false,Rx,0,8,E0,00,7D,02,00,00,7E,E1,
25298112,000002B5,false,Rx,0,8,F0,00,32,00,00,00,00,C2,
25398117,000002B5,false,Rx,0,8,00,00,32,00,00,00,00,32,
25398367,000002B6,false,Rx,0,8,02,00,7D,02,00,00,7E,03,
25498101,000002B5,false,Rx,0,8,10,00,32,00,00,00,00,22,
25598104,000002B5,false,Rx,0,8,20,00,32,00,00,00,00,12,
25598344,000002B6,false,Rx,0,8,22,00,7D,02,00,00,7E,23,
25698117,000002B5,false,Rx,0,8,30,00,32,00,00,00,00,02,
25698357,000002B6,false,Rx,0,8,32,00,7D,02,00,00,7E,33,
25798093,000002B5,false,Rx,0,8,40,00,32,00,00,00,00,72,
25798332,000002B6,false,Rx,0,8,42,00,7D,02,00,00,7E,43,
25898096,000002B5,false,Rx,0,8,50,00,32,00,00,00,00,62,
25998088,000002B5,false,Rx,0,8,60,00,32,00,00,00,00,52,
26086176,000002B6,false,Rx,0,8,62,00,7D,02,00,00,7E,63,
26098101,000002B5,false,Rx,0,8,70,00,32,00,00,00,00,42,
26198104,000002B5,false,Rx,0,8,80,00,32,00,00,00,00,B2,
26198344,000002B6,false,Rx,0,8,82,00,7D,02,00,00,7E,83,
26257291,00000293,false,Tx,0,8,A9,41,D9,BC,A2,B8,7A,05,
26277225,00000295,false,Tx,0,8,C4,CE,32,40,C8,E4,6E,16,
26296988,00000297,false,Tx,0,8,F1,B7,44,03,84,72,B7,00,
26298094,000002B5,false,Rx,0,8,90,00,32,00,00,00,00,A2,
26318213,00000299,false,Tx,0,8,35,0C,C5,41,78,63,D2,E9,
26338114,0000029B,false,Tx,0,8,7B,8E,EC,F7,68,0E,FA,7C,
26347511,0000029C,false,Tx,0,8,D0,15,E0,DE,AE,17,75,6C,
26386186,000002B6,false,Rx,0,8,92,00,7D,02,00,00,7E,93,
26386673,000002A0,false,Tx,0,8,E4,2D,16,78,BB,F2,C5,C9,
26398083,000002B5,false,Rx,0,8,A0,00,32,00,00,00,00,92,
26406769,000002A2,false,Tx,0,8,29,D7,5E,59,2F,9D,96,B0,
26498098,000002B5,false,Rx,0,8,B0,00,32,00,00,00,00,82,
26598074,000002B5,false,Rx,0,8,C0,00,32,00,00,00,00,F2,
26649941,000002B5,false,Tx,0,8,D8,DE,39,3E,61,58,11,7A,
26698079,000002B5,false,Rx,0,8,D0,00,32,00,00,00,00,E2,
26698319,000002B6,false,Rx,0,8,D0,00,7D,02,00,00,7E,D1,
26798089,000002B5,false,Rx,0,8,E0,00,32,00,00,00,00,D2,
26798329,000002B6,false,Rx,0,8,E0,00,7D,02,00,00,7E,E1,
26898081,000002B5,false,Rx,0,8,F0,00,32,00,00,00,00,C2,
26998073,000002B5,false,Rx,0,8,00,00,32,00,00,00,00,32,
27098082,000002B5,false,Rx,0,8,10,00,32,00,00,00,00,22,
27157579,0000022A,false,Tx,0,8,71,E7,92,B0,7A,50,24,F6,
27198069,000002B5,false,Rx,0,8,20,00,32,00,00,00,00,12,
27198309,000002B6,false,Rx,0,8,20,00,7D,02,00,00,7E,21,
27228074,0000022C,false,Tx,0,8,80,2F,2D,D8,57,58,63,B5,
27298077,000002B5,false,Rx,0,8,30,00,32,00,00,00,00,02,
27298317,000002B6,false,Rx,0,8,30,00,7D,02,00,00,7E,31,
27398071,000002B5,false,Rx,0,8,40,00,32,00,00,00,00,72,
27498074,000002B5,false,Rx,0,8,50,00,32,00,00,00,00,62,
27498305,000002B6,false,Rx,0,8,52,00,7D,02,00,00,7E,53,
27598070,000002B5,false,Rx,0,8,60,00,32,00,00,00,00,52,
27698066,000002B5,false,Rx,0,8,70,00,32,00,00,00,00,42,
27698306,000002B6,false,Rx,0,8,72,00,7D,02,00,00,7E,73,
27798057,000002B5,false,Rx,0,8,80,00,32,00,00,00,00,B2,
27898063,000002B5,false,Rx,0,8,90,00,32,00,00,00,00,A2,
27898063,000002B5,false,Rx,0,8,90,00,32,00,00,00,00,A2,
27998061,000002B5,false,Rx,0,8,A0,00,32,00,00,00,00,92,
27998302,000002B6,false,Rx,0,8,A2,00,7D,02,00,00,7E,A3,
28098064,000002B5,false,Rx,0,8,B0,00,32,00,00,00,00,82,
28198049,000002B5,false,Rx,0,8,C0,00,32,00,00,00,00,F2,
28198289,000002B6,false,Rx,0,8,C2,00,7D,02,00,00,7E,C3,
28298055,000002B5,false,Rx,0,8,D0,00,32,00,00,00,00,E2,
28398056,000002B5,false,Rx,0,8,E0,00,32,00,00,00,00,D2,
28477536,00000293,false,Tx,0,8,58,0D,94,C9,09,07,83,0F,
28497495,00000295,false,Tx,0,8,84,4C,54,EC,E0,D8,93,EE,
28498051,000002B5,false,Rx,0,8,F0,00,32,00,00,00,00,C2,
28498290,000002B6,false,Rx,0,8,F2,00,7D,02,00,00,7E,F3,
28516885,00000297,false,Tx,0,8,CC,46,AF,5E,02,14,93,41,
28516885,00000297,false,Tx,0,8,CC,46,AF,5E,02,14,93,41,
28538126,00000299,false,Tx,0,8,DF,D8,B8,B5,B1,15,79,84,
28557652,0000029B,false,Tx,0,8,2A,D2,0A,FB,24,39,AE,C9,
28567584,0000029C,false,Tx,0,8,1B,10,6A,A1,E0,E2,0A,4D,
28598054,000002B5,false,Rx,0,8,00,00,32,00,00,00,00,32,
28607224,000002A0,false,Tx,0,8,0F,A0,D2,34,30,CB,E3,6B,
28627472,000002A2,false,Tx,0,8,95,23,EB,8D,73,B5,5C,83,
28698037,000002B5,false,Rx,0,8,10,00,32,00,00,00,00,22,
28698277,000002B6,false,Rx,0,8,10,00,7D,02,00,00,7E,11,
28798055,000002B5,false,Rx,0,8,20,00,32,00,00,00,00,12,
28857331,000002B5,false,Tx,0,8,CB,E1,7F,F3,30,D7,88,76,
28898032,000002B5,false,Rx,0,8,30,00,32,00,00,00,00,02,
28998041,000002B5,false,Rx,0,8,40,00,32,00,00,00,00,72,
29098033,000002B5,false,Rx,0,8,50,00,32,00,00,00,00,62,
29155098,0000029C,false,Tx,0,8,00,00,00,20,00,00,00,00,
29198037,000002B5,false,Rx,0,8,60,00,32,00,00,00,00,52,
29198277,000002B6,false,Rx,0,8,60,00,7D,02,00,00,7E,61,
29298021,000002B5,false,Rx,0,8,70,00,32,00,00,00,00,42,
29398017,000002B5,false,Rx,0,8,80,00,32,00,00,00,00,B2,
29407138,0000022A,false,Tx,0,8,F2,D0,15,1A,25,40,C3,C3,
29407138,0000022A,false,Tx,0,8,F2,D0,15,1A,25,40,C3,C3,
29467032,0000022C,false,Tx,0,8,76,02,97,59,F8,BF,C0,26,
29498029,000002B5,false,Rx,0,8,90,00,32,00,00,00,00,A2,
29598014,000002B5,false,Rx,0,8,A0,00,32,00,00,00,00,92,
29677831,000002B6,false,Rx,0,8,E0,00,7D,02,00,00,7E,E1,
29698014,000002B5,false,Rx,0,8,B0,00,32,00,00,00,00,82,
29698254,000002B6,false,Rx,0,8,B2,00,7D,02,00,00,7E,B3,
29798093,000002B5,false,Rx,0,8,C0,00,32,00,00,00,00,F2,
29798260,000002B6,false,Rx,0,8,C2,00,7D,02,00,00,7E,C3,
29898011,000002B5,false,Rx,0,8,D0,00,32,00,00,00,00,E2,
29998004,000002B5,false,Rx,0,8,E0,00,32,00,00,00,00,D2,
29998244,000002B6,false,Rx,0,8,E2,00,7D,02,00,00,7E,E3,
30098016,000002B5,false,Rx,0,8,F0,00,32,00,00,00,00,C2,
30198017,000002B5,false,Rx,0,8,00,00,32,00,00,00,00,32,
30198267,000002B6,false,Rx,0,8,02,00,7D,02,00,00,7E,03,
30298004,000002B5,false,Rx,0,8,10,00,32,00,00,00,00,22,
30298245,000002B6,false,Rx,0,8,12,00,7D,02,00,00,7E,13,
30398019,000002B5,false,Rx,0,8,20,00,32,00,00,00,00,12,
30398261,000002B6,false,Rx,0,8,22,00,7D,02,00,00,7E,23,
30486088,000002B6,false,Rx,0,8,22,00,7D,02,00,00,7E,23,
30486088,000002B6,false,Rx,0,8,22,00,7D,02,00,00,7E,23,
30497995,000002B5,false,Rx,0,8,30,00,32,00,00,00,00,02,
30597994,000002B5,false,Rx,0,8,40,00,32,00,00,00,00,72,
30697988,000002B5,false,Rx,0,8,50,00,32,00,00,00,00,62,
30698226,000002B6,false,Rx,0,8,52,00,7D,02,00,00,7E,53,
30797991,000002B5,false,Rx,0,8,60,00,32,00,00,00,00,52,
30798232,000002B6,false,Rx,0,8,62,00,7D,02,00,00,7E,63,
30827217,00000293,false,Tx,0,8,C6,0F,5E,0C,56,DC,21,AD,
30848029,00000295,false,Tx,0,8,53,04,A6,5C,57,C9,37,DB,
30867681,00000297,false,Tx,0,8,BB,34,23,B5,EC,A8,4C,6C,
30887435,00000299,false,Tx,0,8,8F,82,BB,55,57,CC,27,DD,
30897987,000002B5,false,Rx,0,8,70,00,32,00,00,00,00,42,
30908037,0000029B,false,Tx,0,8,0B,9B,4F,0C,AA,AD,CE,79,
30965150,0000029C,false,Tx,0,8,81,CA,EE,93,35,6D,D7,CB,
30986081,000002B6,false,Rx,0,8,72,00,7D,02,00,00,7E,73,
30997221,000002A0,false,Tx,0,8,3F,EF,85,F5,1E,B4,76,C7,
30997982,000002B5,false,Rx,0,8,80,00,32,00,00,00,00,B2,
30998232,000002B6,false,Rx,0,8,82,00,7D,02,00,00,7E,83,
31016893,000002A2,false,Tx,0,8,F9,CB,30,F5,2B,88,3F,C4,
31097996,000002B5,false,Rx,0,8,90,00,32,00,00,00,00,A2,
31098236,000002B6,false,Rx,0,8,90,00,7D,02,00,00,7E,91,
31197998,000002B5,false,Rx,0,8,A0,00,32,00,00,00,00,92,
31198238,000002B6,false,Rx,0,8,A0,00,7D,02,00,00,7E,A1,
31258248,000002B5,false,Tx,0,8,68,58,36,CF,33,14,DB,EE,
31297979,000002B5,false,Rx,0,8,B0,00,32,00,00,00,00,82,
31298219,000002B6,false,Rx,0,8,B0,00,7D,02,00,00,7E,B1,
31397986,000002B5,false,Rx,0,8,C0,00,32,00,00,00,00,F2,
31398237,000002B6,false,Rx,0,8,C0,00,7D,02,00,00,7E,C1,
31497973,000002B5,false,Rx,0,8,D0,00,32,00,00,00,00,E2,
31497973,000002B5,false,Rx,0,8,D0,00,32,00,00,00,00,E2,
31597985,000002B5,false,Rx,0,8,E0,00,32,00,00,00,00,D2,
31597985,000002B5,false,Rx,0,8,E0,00,32,00,00,00,00,D2,
31598224,000002B6,false,Rx,0,8,E0,00,7D,02,00,00,7E,E1,
31697969,000002B5,false,Rx,0,8,F0,00,32,00,00,00,00,C2,
31698207,000002B6,false,Rx,0,8,F0,00,7D,02,00,00,7E,F1,
31797989,000002B5,false,Rx,0,8,00,00,32,00,00,00,00,32,
31807276,0000022A,false,Tx,0,8,E3,99,AE,EE,95,A6,CE,1B,
31827501,0000022C,false,Tx,0,8,E1,09,EC,44,75,39,93,1A,
31897967,000002B5,false,Rx,0,8,10,00,32,00,00,00,00,22,
31997987,000002B5,false,Rx,0,8,20,00,32,00,00,00,00,12,
32097981,000002B5,false,Rx,0,8,30,00,32,00,00,00,00,02,
32197976,000002B5,false,Rx,0,8,40,00,32,00,00,00,00,72,
32198215,000002B6,false,Rx,0,8,42,00,7D,02,00,00,7E,43,
32297969,000002B5,false,Rx,0,8,50,00,32,00,00,00,00,62,
32397956,000002B5,false,Rx,0,8,60,00,32,00,00,00,00,52,
32497968,000002B5,false,Rx,0,8,70,00,32,00,00,00,00,42,
32597949,000002B5,false,Rx,0,8,80,00,32,00,00,00,00,B2,
32697950,000002B5,false,Rx,0,8,90,00,32,00,00,00,00,A2,
32698188,000002B6,false,Rx,0,8,92,00,7D,02,00,00,7E,93,
32797951,000002B5,false,Rx,0,8,A0,00,32,00,00,00,00,92,
32897948,000002B5,false,Rx,0,8,B0,00,32,00,00,00,00,82,
32997943,000002B5,false,Rx,0,8,C0,00,32,00,00,00,00,F2,
33097943,000002B5,false,Rx,0,8,D0,00,32,00,00,00,00,E2,
33186037,000002B6,false,Rx,0,8,D2,00,7D,02,00,00,7E,D3,
33197938,000002B5,false,Rx,0,8,E0,00,32,00,00,00,00,D2,
33197938,000002B5,false,Rx,0,8,E0,00,32,00,00,00,00,D2,
33198176,000002B6,false,Rx,0,8,E2,00,7D,02,00,00,7E,E3,
33235428,00000293,false,Tx,0,8,48,11,C0,C3,CD,BC,29,BF,
33247310,00000295,false,Tx,0,8,34,4D,6A,64,BD,7A,3A,90,
33267182,00000297,false,Tx,0,8,18,BB,C2,C4,36,FE,45,EA,
33289593,00000299,false,Tx,0,8,34,F5,7C,77,39,6E,28,0C,
33289593,00000299,false,Tx,0,8,34,F5,7C,77,39,6E,28,0C,
33297941,000002B5,false,Rx,0,8,F0,00,32,00,00,00,00,C2,
33298171,000002B6,false,Rx,0,8,F2,00,7D,02,00,00,7E,F3,
33306730,0000029B,false,Tx,0,8,35,75,BA,79,B7,8A,6C,9A,
33317101,0000029C,false,Tx,0,8,DC,51,EA,9E,25,A7,01,8D,
33345145,0000029C,false,Tx,0,8,8B,5B,29,D4,47,4B,76,88,
33356918,000002A0,false,Tx,0,8,7A,02,BA,DB,72,67,F4,9A,
33377116,000002A2,false,Tx,0,8,2C,12,AA,71,6A,45,78,8C,
33377116,000002A2,false,Tx,0,8,2C,12,AA,71,6A,45,78,8C,
33397936,000002B5,false,Rx,0,8,00,00,32,00,00,00,00,32,
33497945,000002B5,false,Rx,0,8,10,00,32,00,00,00,11,33,
33498183,000002B6,false,Rx,0,8,12,00,19,02,00,00,7E,77,
33586038,000002B6,false,Rx,0,8,10,00,7D,02,00,00,7E,11,
33597951,000002B5,false,Rx,0,8,20,00,32,00,00,00,11,03,
33627807,000002B5,false,Tx,0,8,10,A7,A8,26,D4,1A,07,31,
33697938,000002B5,false,Rx,0,8,30,00,32,00,00,00,11,13,
33698188,000002B6,false,Rx,0,8,32,00,00,02,00,00,7E,4E,
33797932,000002B5,false,Rx,0,8,40,00,32,00,00,00,11,63,
33897939,000002B5,false,Rx,0,8,50,00,32,00,00,00,11,73,
33997937,000002B5,false,Rx,0,8,60,00,32,00,00,00,11,43,
33998175,000002B6,false,Rx,0,8,62,00,1F,02,00,00,7E,01,
34097919,000002B5,false,Rx,0,8,70,00,32,00,00,00,00,42,
34098157,000002B6,false,Rx,0,8,73,00,47,82,00,00,7E,C8,
34197934,000002B5,false,Rx,0,8,80,00,32,00,00,00,11,A3,
34198174,000002B6,false,Rx,0,8,82,00,03,82,00,00,7E,7D,
34297908,000002B5,false,Rx,0,8,90,00,32,00,00,00,11,B3,
34298148,000002B6,false,Rx,0,8,92,00,41,82,00,00,7E,2F,
34316571,0000022A,false,Tx,0,8,D5,12,F2,BD,23,B3,D2,CB,
34336610,0000022C,false,Tx,0,8,09,2E,1E,9B,18,4A,44,FD,
34397916,000002B5,false,Rx,0,8,A0,00,32,00,00,00,00,92,
34486012,000002B6,false,Rx,0,8,A0,00,7D,02,00,00,7E,A1,
34497911,000002B5,false,Rx,0,8,B0,00,32,00,00,00,00,82,
34597924,000002B5,false,Rx,0,8,C0,00,32,00,00,00,00,F2,
34598153,000002B6,false,Rx,0,8,C2,00,58,02,00,00,7E,E6,
34697908,000002B5,false,Rx,0,8,D0,00,32,00,00,00,00,E2,
34698138,000002B6,false,Rx,0,8,D2,00,6C,82,00,00,7E,42,
34797903,000002B5,false,Rx,0,8,E0,00,32,00,00,00,00,D2,
34798143,000002B6,false,Rx,0,8,E2,00,75,02,00,00,7E,EB,
34897901,000002B5,false,Rx,0,8,F0,00,32,00,00,00,00,C2,
34898140,000002B6,false,Rx,0,8,F2,00,79,82,00,00,7E,77,
34997901,000002B5,false,Rx,0,8,00,00,32,00,00,00,00,32,
34998150,000002B6,false,Rx,0,8,02,00,7B,82,00,00,7E,85,
35097914,000002B5,false,Rx,0,8,10,00,32,00,00,00,00,22,
35098153,000002B6,false,Rx,0,8,12,00,7C,02,00,00,7E,12,
35197899,000002B5,false,Rx,0,8,20,00,32,00,00,00,00,12,
35198139,000002B6,false,Rx,0,8,22,00,7C,82,00,00,7E,A2,
35297894,000002B5,false,Rx,0,8,30,00,32,00,00,00,00,02,
35298134,000002B6,false,Rx,0,8,32,00,7D,02,00,00,7E,33,
35397896,000002B5,false,Rx,0,8,40,00,32,00,00,00,00,72,
35398135,000002B6,false,Rx,0,8,42,00,7D,02,00,00,7E,43,
35497901,000002B5,false,Rx,0,8,50,00,32,00,00,00,00,62,
35498140,000002B6,false,Rx,0,8,52,00,7D,02,00,00,7E,53,
35597887,000002B5,false,Rx,0,8,60,00,32,00,00,00,00,52,
35598126,000002B6,false,Rx,0,8,62,00,7D,02,00,00,7E,63,
35697882,000002B5,false,Rx,0,8,70,00,32,00,00,00,00,42,
35698122,000002B6,false,Rx,0,8,72,00,7D,02,00,00,7E,73,
35797883,000002B5,false,Rx,0,8,80,00,32,00,00,00,00,B2,
35798123,000002B6,false,Rx,0,8,82,00,7D,02,00,00,7E,83,
35885988,000002B6,false,Rx,0,8,82,00,7D,02,00,00,7E,83,
35897891,000002B5,false,Rx,0,8,90,00,32,00,00,00,00,A2,
35997886,000002B5,false,Rx,0,8,A0,00,32,00,00,00,00,92,
36097898,000002B5,false,Rx,0,8,B0,00,32,00,00,00,00,82,
36197883,000002B5,false,Rx,0,8,C0,00,32,00,00,00,00,F2,
36198123,000002B6,false,Rx,0,8,C2,00,7D,02,00,00,7E,C3,
36285981,000002B6,false,Rx,0,8,C2,00,7D,02,00,00,7E,C3,
36297878,000002B5,false,Rx,0,8,D0,00,32,00,00,00,00,E2,
36298106,000002B6,false,Rx,0,8,D2,00,7D,02,00,00,7E,D3,
36397887,000002B5,false,Rx,0,8,E0,00,32,00,00,00,00,D2,
36406807,00000293,false,Tx,0,8,A1,91,7B,8C,84,04,29,35,
36467493,00000295,false,Tx,0,8,3F,2F,9D,20,51,AB,DE,01,
36486641,00000297,false,Tx,0,8,07,6D,E0,72,67,B1,02,54,
36497880,000002B5,false,Rx,0,8,F0,00,32,00,00,00,00,C2,
36498118,000002B6,false,Rx,0,8,F2,00,7D,02,00,00,7E,F3,
36509703,00000299,false,Tx,0,8,CD,98,90,DC,1F,B5,FC,9D,
36527328,0000029B,false,Tx,0,8,C9,B3,D0,B5,21,79,D3,85,
36537837,0000029C,false,Tx,0,8,C4,71,54,65,17,E2,83,26,
36577141,000002A0,false,Tx,0,8,2D,A0,82,1E,A3,DC,F3,4A,
36597874,000002B5,false,Rx,0,8,00,00,32,00,00,00,00,32,
36598113,000002B6,false,Rx,0,8,00,00,7D,02,00,00,7E,01,
36599227,000002A2,false,Tx,0,8,AC,97,C3,73,67,C4,7F,A6,
36697870,000002B5,false,Rx,0,8,10,00,32,00,00,00,00,22,
36698110,000002B6,false,Rx,0,8,10,00,7D,02,00,00,7E,11,
36797881,000002B5,false,Rx,0,8,20,00,32,00,00,00,00,12,
36827104,000002B5,false,Tx,0,8,66,3C,5E,47,92,99,FD,E4,
36885972,000002B6,false,Rx,0,8,22,00,7D,02,00,00,7E,23,
36897874,000002B5,false,Rx,0,8,30,00,32,00,00,00,00,02,
36997871,000002B5,false,Rx,0,8,40,00,32,00,00,00,00,72,
37097863,000002B5,false,Rx,0,8,50,00,32,00,00,00,00,62,
37197868,000002B5,false,Rx,0,8,60,00,32,00,00,00,00,52,
37198108,000002B6,false,Rx,0,8,60,00,7D,02,00,00,7E,61,
37297851,000002B5,false,Rx,0,8,70,00,32,00,00,00,00,42,
37309889,000002B6,false,Rx,0,8,62,00,7D,02,00,00,7E,63,
37309889,000002B6,false,Rx,0,8,62,00,7D,02,00,00,7E,63,
37358271,0000022A,false,Tx,0,8,E9,9C,EC,E1,AB,AE,43,BB,
37377215,0000022C,false,Tx,0,8,0F,05,C4,13,E2,5C,56,D7,
37397846,000002B5,false,Rx,0,8,80,00,32,00,00,00,00,B2,
37497850,000002B5,false,Rx,0,8,90,00,32,00,00,00,00,A2,
37597851,000002B5,false,Rx,0,8,A0,00,32,00,00,00,00,92,
37697846,000002B5,false,Rx,0,8,B0,00,32,00,00,00,00,82,
37698086,000002B6,false,Rx,0,8,B2,00,7D,02,00,00,7E,B3,
37797841,000002B5,false,Rx,0,8,C0,00,32,00,00,00,00,F2,
37798080,000002B6,false,Rx,0,8,C2,00,7D,02,00,00,7E,C3,
37897843,000002B5,false,Rx,0,8,D0,00,32,00,00,00,00,E2,
37898082,000002B6,false,Rx,0,8,D2,00,7D,02,00,00,7E,D3,
37997841,000002B5,false,Rx,0,8,E0,00,32,00,00,00,00,D2,
38097845,000002B5,false,Rx,0,8,F0,00,32,00,00,00,00,C2,
38197852,000002B5,false,Rx,0,8,00,00,32,00,00,00,00,32,
38198092,000002B6,false,Rx,0,8,02,00,7D,02,00,00,7E,03,
38297836,000002B5,false,Rx,0,8,10,00,32,00,00,00,00,22,
38297836,000002B5,false,Rx,0,8,10,00,32,00,00,00,00,22,
38397832,000002B5,false,Rx,0,8,20,00,32,00,00,00,00,12,
38497841,000002B5,false,Rx,0,8,30,00,32,00,00,00,00,02,
38497841,000002B5,false,Rx,0,8,30,00,32,00,00,00,00,02,
38597823,000002B5,false,Rx,0,8,40,00,32,00,00,00,00,72,
38597823,000002B5,false,Rx,0,8,40,00,32,00,00,00,00,72,
38697835,000002B5,false,Rx,0,8,50,00,32,00,00,00,00,62,
38698075,000002B6,false,Rx,0,8,52,00,7D,02,00,00,7E,53,
38797818,000002B5,false,Rx,0,8,60,00,32,00,00,00,00,52,
38827332,00000293,false,Tx,0,8,CE,85,39,8A,9E,69,E1,0E,
38846932,00000295,false,Tx,0,8,E2,8D,12,A3,A5,F0,96,42,
38866683,00000297,false,Tx,0,8,DF,45,7A,9A,C5,FE,55,4D,
38885906,000002B6,false,Rx,0,8,62,00,7D,02,00,00,7E,63,
38887371,00000299,false,Tx,0,8,2F,BD,2B,99,6A,F5,7F,5E,
38897814,000002B5,false,Rx,0,8,70,00,32,00,00,00,00,42,
38908077,0000029B,false,Tx,0,8,57,48,ED,45,29,BE,67,07,
38972527,0000029C,false,Tx,0,8,C9,C3,96,D7,C4,61,DA,D9,
38997813,000002B5,false,Rx,0,8,80,00,32,00,00,00,00,B2,
38998052,000002B6,false,Rx,0,8,82,00,7D,02,00,00,7E,83,
39006964,000002A0,false,Tx,0,8,10,81,68,7F,F4,AB,DC,70,
39026568,000002A2,false,Tx,0,8,B5,00,83,85,6E,9F,FF,E3,
39097817,000002B5,false,Rx,0,8,90,00,32,00,00,00,00,A2,
39197818,000002B5,false,Rx,0,8,A0,00,32,00,00,00,00,92,
39198048,000002B6,false,Rx,0,8,A0,00,7D,02,00,00,7E,A1,
39267271,000002B5,false,Tx,0,8,37,E2,B6,99,9A,A6,6F,B2,
39297825,000002B5,false,Rx,0,8,B0,00,32,00,00,00,00,82,
39298063,000002B6,false,Rx,0,8,B0,00,7D,02,00,00,7E,B1,
39397808,000002B5,false,Rx,0,8,C0,00,32,00,00,00,00,F2,
39485905,000002B6,false,Rx,0,8,C2,00,7D,02,00,00,7E,C3,
39497806,000002B5,false,Rx,0,8,D0,00,32,00,00,00,00,E2,
39596609,000002A2,false,Tx,0,8,00,00,00,02,00,00,00,00,
39597807,000002B5,false,Rx,0,8,E0,00,32,00,00,00,00,D2,
39598047,000002B6,false,Rx,0,8,E0,00,7D,02,00,00,7E,E1,
39697799,000002B5,false,Rx,0,8,F0,00,32,00,00,00,00,C2,
39698038,000002B6,false,Rx,0,8,F0,00,7D,02,00,00,7E,F1,
39777142,0000022A,false,Tx,0,8,AF,F8,BF,BE,C7,80,B2,D8,
39796995,0000022C,false,Tx,0,8,88,99,16,0A,98,7F,A6,83,
39797800,000002B5,false,Rx,0,8,00,00,32,00,00,00,00,32,
39897795,000002B5,false,Rx,0,8,10,00,32,00,00,00,00,22,
39997812,000002B5,false,Rx,0,8,20,00,32,00,00,00,00,12,
39998051,000002B6,false,Rx,0,8,20,00,7D,02,00,00,7E,21,
40097793,000002B5,false,Rx,0,8,30,00,32,00,00,00,00,02,
40197793,000002B5,false,Rx,0,8,40,00,32,00,00,00,00,72,
40198032,000002B6,false,Rx,0,8,42,00,7D,02,00,00,7E,43,
40297788,000002B5,false,Rx,0,8,50,00,32,00,00,00,00,62,
40397785,000002B5,false,Rx,0,8,60,00,32,00,00,00,00,52,
40497782,000002B5,false,Rx,0,8,70,00,32,00,00,00,00,42,
40597783,000002B5,false,Rx,0,8,80,00,32,00,00,00,00,B2,
40598023,000002B6,false,Rx,0,8,82,00,7D,02,00,00,7E,83,
40677608,000002B6,false,Rx,0,8,C2,00,7D,02,00,00,7E,C3,
40677608,000002B6,false,Rx,0,8,C2,00,7D,02,00,00,7E,C3,
40697778,000002B5,false,Rx,0,8,90,00,32,00,00,00,00,A2,
40698016,000002B6,false,Rx,0,8,92,00,7D,02,00,00,7E,93,
40797779,000002B5,false,Rx,0,8,A0,00,32,00,00,00,00,92,
40798018,000002B6,false,Rx,0,8,A2,00,7D,02,00,00,7E,A3,
40897793,000002B5,false,Rx,0,8,B0,00,32,00,00,00,00,82,
40898032,000002B6,false,Rx,0,8,B2,00,7D,02,00,00,7E,B3,
40997775,000002B5,false,Rx,0,8,C0,00,32,00,00,00,00,F2,
40998014,000002B6,false,Rx,0,8,C2,00,7D,02,00,00,7E,C3,
41017624,00000293,false,Tx,0,8,3B,68,3B,24,90,2A,BD,76,
41037063,00000295,false,Tx,0,8,02,9D,8A,AB,25,2A,82,4D,
41057085,00000297,false,Tx,0,8,98,E8,B2,F2,DF,AF,D6,8F,
41077302,00000299,false,Tx,0,8,56,1B,18,E5,D3,46,0B,CF,
41097233,0000029B,false,Tx,0,8,CC,E6,F3,CB,C8,EA,25,CC,
41097785,000002B5,false,Rx,0,8,D0,00,32,00,00,00,00,E2,
41098025,000002B6,false,Rx,0,8,D2,00,7D,02,00,00,7E,D3,
41098025,000002B6,false,Rx,0,8,D2,00,7D,02,00,00,7E,D3,
41106809,0000029C,false,Tx,0,8,80,6C,2E,12,61,C9,29,F0,
41148606,000002A0,false,Tx,0,8,4D,98,1A,6B,C4,65,D6,18,
41197772,000002B5,false,Rx,0,8,E0,00,32,00,00,00,00,D2,
41198010,000002B6,false,Rx,0,8,E0,00,7D,02,00,00,7E,E1,
41297765,000002B5,false,Rx,0,8,F0,00,32,00,00,00,00,C2,
41298004,000002B6,false,Rx,0,8,F0,00,7D,02,00,00,7E,F1,
41397772,000002B5,false,Rx,0,8,00,00,32,00,00,00,00,32,
41399499,000002B5,false,Tx,0,8,F4,89,CF,45,CB,B5,D2,9C,
41497766,000002B5,false,Rx,0,8,10,00,32,00,00,00,00,22,
41498006,000002B6,false,Rx,0,8,10,00,7D,02,00,00,7E,11,
41597775,000002B5,false,Rx,0,8,20,00,32,00,00,00,00,12,
41677572,000002B6,false,Rx,0,8,62,00,7D,02,00,00,7E,63,
41697771,000002B5,false,Rx,0,8,30,00,32,00,00,00,00,02,
41698010,000002B6,false,Rx,0,8,30,00,7D,02,00,00,7E,31,
41797767,000002B5,false,Rx,0,8,40,00,32,00,00,00,00,72,
41798015,000002B6,false,Rx,0,8,40,00,7D,02,00,00,7E,41,
41897762,000002B5,false,Rx,0,8,50,00,32,00,00,00,00,62,
41898000,000002B6,false,Rx,0,8,50,00,7D,02,00,00,7E,51,
41898000,000002B6,false,Rx,0,8,50,00,7D,02,00,00,7E,51,
41980320,0000022A,false,Tx,0,8,6E,72,4C,22,35,4A,19,D3,
41996867,0000022C,false,Tx,0,8,A1,4C,46,99,9C,9C,25,F4,
41997757,000002B5,false,Rx,0,8,60,00,32,00,00,00,00,52,
42077576,000002B6,false,Rx,0,8,A2,00,7D,02,00,00,7E,A3,
42097747,000002B5,false,Rx,0,8,70,00,32,00,00,00,00,42,
42097987,000002B6,false,Rx,0,8,70,00,7D,02,00,00,7E,71,
42197751,000002B5,false,Rx,0,8,80,00,32,00,00,00,00,B2,
42197990,000002B6,false,Rx,0,8,82,00,7D,02,00,00,7E,83,
42297745,000002B5,false,Rx,0,8,90,00,32,00,00,00,00,A2,
42297983,000002B6,false,Rx,0,8,92,00,7D,02,00,00,7E,93,
42397750,000002B5,false,Rx,0,8,A0,00,32,00,00,00,00,92,
42397989,000002B6,false,Rx,0,8,A2,00,7D,02,00,00,7E,A3,
42497744,000002B5,false,Rx,0,8,B0,00,32,00,00,00,00,82,
42497984,000002B6,false,Rx,0,8,B2,00,7D,02,00,00,7E,B3,
42577556,000002B6,false,Rx,0,8,F2,00,7D,02,00,00,7E,F3,
42597737,000002B5,false,Rx,0,8,C0,00,32,00,00,00,00,F2,
42697733,000002B5,false,Rx,0,8,D0,00,32,00,00,00,00,E2,
42697972,000002B6,false,Rx,0,8,D2,00,7D,02,00,00,7E,D3,
42797750,000002B5,false,Rx,0,8,E0,00,32,00,00,00,00,D2,
42897735,000002B5,false,Rx,0,8,F0,00,32,00,00,00,00,C2,
42997744,000002B5,false,Rx,0,8,00,00,32,00,00,00,00,32,
43097735,000002B5,false,Rx,0,8,10,00,32,00,00,00,00,22,
43197729,000002B5,false,Rx,0,8,20,00,32,00,00,00,00,12,
43197967,000002B6,false,Rx,0,8,22,00,7D,02,00,00,7E,23,
43277484,00000293,false,Tx,0,8,9B,DD,71,81,98,2F,BA,1A,
43297440,00000295,false,Tx,0,8,61,69,83,66,F7,A0,D2,21,
43297440,00000295,false,Tx,0,8,61,69,83,66,F7,A0,D2,21,
43297738,000002B5,false,Rx,0,8,30,00,32,00,00,00,00,02,
43317454,00000297,false,Tx,0,8,E6,3C,63,6B,1B,C9,74,F7,
43337381,00000299,false,Tx,0,8,93,E6,2F,70,3B,18,B5,6D,
43357236,0000029B,false,Tx,0,8,C2,68,C8,D7,24,CD,F0,72,
43367112,0000029C,false,Tx,0,8,61,4D,CC,72,32,92,FC,FE,
43397731,000002B5,false,Rx,0,8,40,00,32,00,00,00,00,72,
43407878,000002A0,false,Tx,0,8,98,B8,05,3E,03,2D,7F,90,
43407878,000002A0,false,Tx,0,8,98,B8,05,3E,03,2D,7F,90,
43467468,000002A2,false,Tx,0,8,B4,3F,2C,55,02,6C,B9,5D,
43497734,000002B5,false,Rx,0,8,50,00,32,00,00,00,00,62,
43597720,000002B5,false,Rx,0,8,60,00,32,00,00,00,00,52,
43597720,000002B5,false,Rx,0,8,60,00,32,00,00,00,00,52,
43597959,000002B6,false,Rx,0,8,60,00,7D,02,00,00,7E,61,
43656593,000002B5,false,Tx,0,8,25,DB,14,5E,C3,C6,65,36,
43697733,000002B5,false,Rx,0,8,70,00,32,00,00,00,00,42,
43697972,000002B6,false,Rx,0,8,70,00,7D,02,00,00,7E,71,
43797730,000002B5,false,Rx,0,8,80,00,32,00,00,00,00,B2,
43797968,000002B6,false,Rx,0,8,80,00,7D,02,00,00,7E,81,
43897715,000002B5,false,Rx,0,8,90,00,32,00,00,00,00,A2,
43977530,000002B6,false,Rx,0,8,D2,00,7D,02,00,00,7E,D3,
43997729,000002B5,false,Rx,0,8,A0,00,32,00,00,00,00,92,
44097725,000002B5,false,Rx,0,8,B0,00,32,00,00,00,00,82,
44156841,0000022A,false,Tx,0,8,E2,01,51,51,6F,F8,20,2C,
44197720,000002B5,false,Rx,0,8,C0,00,32,00,00,00,00,F2,
44197959,000002B6,false,Rx,0,8,C0,00,7D,02,00,00,7E,C1,
44217752,0000022C,false,Tx,0,8,9A,C0,94,17,11,A9,7A,61,
44297709,000002B5,false,Rx,0,8,D0,00,32,00,00,00,00,E2,
44297947,000002B6,false,Rx,0,8,D0,00,7D,02,00,00,7E,D1,
44397705,000002B5,false,Rx,0,8,E0,00,32,00,00,00,00,D2,
44497717,000002B5,false,Rx,0,8,F0,00,32,00,00,00,00,C2,
44597702,000002B5,false,Rx,0,8,00,00,32,00,00,00,00,32,
44697695,000002B5,false,Rx,0,8,10,00,32,00,00,00,00,22,
44697934,000002B6,false,Rx,0,8,12,00,7D,02,00,00,7E,13,
44797715,000002B5,false,Rx,0,8,20,00,32,00,00,00,00,12,
44897703,000002B5,false,Rx,0,8,30,00,32,00,00,00,00,02,
44977506,000002B6,false,Rx,0,8,72,00,7D,02,00,00,7E,73,
44997685,000002B5,false,Rx,0,8,40,00,32,00,00,00,00,72,
45097700,000002B5,false,Rx,0,8,50,00,32,00,00,00,00,62,
45197702,000002B5,false,Rx,0,8,60,00,32,00,00,00,00,52,
45197941,000002B6,false,Rx,0,8,62,00,7D,02,00,00,7E,63,
45297687,000002B5,false,Rx,0,8,70,00,32,00,00,00,00,42,
45297925,000002B6,false,Rx,0,8,72,00,7D,02,00,00,7E,73,
45397689,000002B5,false,Rx,0,8,80,00,32,00,00,00,00,B2,
45397939,000002B6,false,Rx,0,8,82,00,7D,02,00,00,7E,83,
45406648,00000293,false,Tx,0,8,3A,EE,68,47,17,80,B6,66,
45466653,00000295,false,Tx,0,8,87,7F,74,97,2F,E2,20,2D,
45486732,00000297,false,Tx,0,8,51,AC,25,28,B7,AD,B1,3C,
45497679,000002B5,false,Rx,0,8,90,00,32,00,00,00,00,A2,
45507429,00000299,false,Tx,0,8,26,33,BA,78,B8,FA,04,04,
45526731,0000029B,false,Tx,0,8,85,D2,DE,74,61,A6,A3,98,
45536955,0000029C,false,Tx,0,8,AF,4A,4F,18,9A,B0,14,2D,
45576739,000002A0,false,Tx,0,8,2E,28,4F,CE,B3,08,8E,0E,
45577251,000002B5,false,Rx,0,8,D0,00,32,00,00,00,00,E2,
45596831,000002A2,false,Tx,0,8,08,FF,A0,5E,B7,B6,CF,87,
45597673,000002B5,false,Rx,0,8,A0,00,32,00,00,00,00,92,
45697679,000002B5,false,Rx,0,8,B0,00,32,00,00,00,00,82,
45697917,000002B6,false,Rx,0,8,B0,00,7D,02,00,00,7E,B1,
45797683,000002B5,false,Rx,0,8,C0,00,32,00,00,00,00,F2,
45797922,000002B6,false,Rx,0,8,C0,00,7D,02,00,00,7E,C1,
45827495,000002B5,false,Tx,0,8,2C,AD,62,30,B8,80,E5,E7,
45897680,000002B5,false,Rx,0,8,D0,00,32,00,00,00,00,E2,
45897920,000002B6,false,Rx,0,8,D0,00,7D,02,00,00,7E,D1,
45997683,000002B5,false,Rx,0,8,E0,00,32,00,00,00,00,D2,
45997923,000002B6,false,Rx,0,8,E0,00,7D,02,00,00,7E,E1,
46097675,000002B5,false,Rx,0,8,F0,00,32,00,00,00,00,C2,
46097914,000002B6,false,Rx,0,8,F0,00,7D,02,00,00,7E,F1,
46197665,000002B5,false,Rx,0,8,00,00,32,00,00,00,00,32,
46197914,000002B6,false,Rx,0,8,00,00,7D,02,00,00,7E,01,
46297680,000002B5,false,Rx,0,8,10,00,32,00,00,00,00,22,
46297919,000002B6,false,Rx,0,8,10,00,7D,02,00,00,7E,11,
46297919,000002B6,false,Rx,0,8,10,00,7D,02,00,00,7E,11,
46327581,0000022A,false,Tx,0,8,31,5E,34,21,62,9F,BD,69,
46347064,0000022C,false,Tx,0,8,16,85,FC,89,F0,9F,C0,E4,
46397675,000002B5,false,Rx,0,8,20,00,32,00,00,00,00,12,
46497677,000002B5,false,Rx,0,8,30,00,32,00,00,00,00,02,
46497916,000002B6,false,Rx,0,8,30,00,7D,02,00,00,7E,31,
46597667,000002B5,false,Rx,0,8,40,00,32,00,00,00,00,72,
46677475,000002B6,false,Rx,0,8,82,00,7D,02,00,00,7E,83,
46697652,000002B5,false,Rx,0,8,50,00,32,00,00,00,00,62,
46697891,000002B6,false,Rx,0,8,52,00,7D,02,00,00,7E,53,
46697891,000002B6,false,Rx,0,8,52,00,7D,02,00,00,7E,53,
46797652,000002B5,false,Rx,0,8,60,00,32,00,00,00,00,52,
46877258,000002B5,false,Rx,0,8,A0,00,32,00,00,00,00,92,
46897657,000002B5,false,Rx,0,8,70,00,32,00,00,00,00,42,
46897897,000002B6,false,Rx,0,8,72,00,7D,02,00,00,7E,73,
46997643,000002B5,false,Rx,0,8,80,00,32,00,00,00,00,B2,
47097657,000002B5,false,Rx,0,8,90,00,32,00,00,00,00,A2,
47197662,000002B5,false,Rx,0,8,A0,00,32,00,00,00,00,92,
47297654,000002B5,false,Rx,0,8,B0,00,32,00,00,00,00,82,
47297893,000002B6,false,Rx,0,8,B2,00,7D,02,00,00,7E,B3,
47397642,000002B5,false,Rx,0,8,C0,00,32,00,00,00,00,F2,
47397882,000002B6,false,Rx,0,8,C2,00,7D,02,00,00,7E,C3,
47497654,000002B5,false,Rx,0,8,D0,00,32,00,00,00,00,E2,
47497654,000002B5,false,Rx,0,8,D0,00,32,00,00,00,00,E2,
47497882,000002B6,false,Rx,0,8,D2,00,7D,02,00,00,7E,D3,
47577251,00000293,false,Tx,0,8,4E,FC,96,85,92,E8,CF,B5,
47596691,00000295,false,Tx,0,8,D4,33,2C,36,80,7D,FF,EA,
47597646,000002B5,false,Rx,0,8,E0,00,32,00,00,00,00,D2,
47597646,000002B5,false,Rx,0,8,E0,00,32,00,00,00,00,D2,
47597884,000002B6,false,Rx,0,8,E2,00,7D,02,00,00,7E,E3,
47618151,00000297,false,Tx,0,8,9E,48,63,71,3C,2C,C7,FE,
47637241,00000299,false,Tx,0,8,1B,64,06,B1,5E,E0,A0,00,
47656540,0000029B,false,Tx,0,8,1A,D0,AD,53,45,12,B9,E4,
47697634,000002B5,false,Rx,0,8,F0,00,32,00,00,00,00,C2,
47697872,000002B6,false,Rx,0,8,F2,00,7D,02,00,00,7E,F3,
47711043,0000029C,false,Tx,0,8,8D,43,22,1B,8F,0A,C7,79,
47746685,000002A0,false,Tx,0,8,64,7D,0C,E8,5B,DB,B4,45,
47766900,000002A2,false,Tx,0,8,23,CE,65,43,C0,FB,7D,2B,
47797634,000002B5,false,Rx,0,8,00,00,32,00,00,00,00,32,
47797882,000002B6,false,Rx,0,8,00,00,7D,02,00,00,7E,01,
47897632,000002B5,false,Rx,0,8,10,00,32,00,00,00,00,22,
47897872,000002B6,false,Rx,0,8,10,00,7D,02,00,00,7E,11,
47988205,000002B5,false,Tx,0,8,5A,C7,C5,3E,F8,F2,B7,60,
47997647,000002B5,false,Rx,0,8,20,00,32,00,00,00,00,12,
48097640,000002B5,false,Rx,0,8,30,00,32,00,00,00,00,02,
48177439,000002B6,false,Rx,0,8,72,00,7D,02,00,00,7E,73,
48197623,000002B5,false,Rx,0,8,40,00,32,00,00,00,00,72,
48197862,000002B6,false,Rx,0,8,40,00,7D,02,00,00,7E,41,
48297617,000002B5,false,Rx,0,8,50,00,32,00,00,00,00,62,
48397615,000002B5,false,Rx,0,8,60,00,32,00,00,00,00,52,
48497628,000002B5,false,Rx,0,8,70,00,32,00,00,00,00,42,
48507414,0000022A,false,Tx,0,8,FB,3B,CC,C0,FC,5F,A3,42,
48527406,0000022C,false,Tx,0,8,3C,9B,2C,0C,D6,D2,AB,BC,
48597612,000002B5,false,Rx,0,8,80,00,32,00,00,00,00,B2,
48697627,000002B5,false,Rx,0,8,90,00,32,00,00,00,00,A2,
48697855,000002B6,false,Rx,0,8,90,00,7D,02,00,00,7E,91,
48797621,000002B5,false,Rx,0,8,A0,00,32,00,00,00,00,92,
48797861,000002B6,false,Rx,0,8,A2,00,7D,02,00,00,7E,A3,
48897608,000002B5,false,Rx,0,8,B0,00,32,00,00,00,00,82,
48897848,000002B6,false,Rx,0,8,B2,00,7D,02,00,00,7E,B3,
48897848,000002B6,false,Rx,0,8,B2,00,7D,02,00,00,7E,B3,
48997601,000002B5,false,Rx,0,8,C0,00,32,00,00,00,00,F2,
48997839,000002B6,false,Rx,0,8,C2,00,7D,02,00,00,7E,C3,
49046358,0000029B,false,Tx,0,8,00,01,00,00,00,00,00,00,
49097605,000002B5,false,Rx,0,8,D0,00,32,00,00,00,00,E2,
49197601,000002B5,false,Rx,0,8,E0,00,32,00,00,00,00,D2,
49197839,000002B6,false,Rx,0,8,E2,00,7D,02,00,00,7E,E3,
49297612,000002B5,false,Rx,0,8,F0,00,32,00,00,00,00,C2,
49397602,000002B5,false,Rx,0,8,00,00,32,00,00,00,00,32,
49397842,000002B6,false,Rx,0,8,02,00,7D,02,00,00,7E,03,
49497595,000002B5,false,Rx,0,8,10,00,32,00,00,00,00,22,
49497834,000002B6,false,Rx,0,8,12,00,7D,02,00,00,7E,13,
49597607,000002B5,false,Rx,0,8,20,00,32,00,00,00,00,12,
49697591,000002B5,false,Rx,0,8,30,00,32,00,00,00,00,02,
49697830,000002B6,false,Rx,0,8,32,00,7D,02,00,00,7E,33,
49747524,00000293,false,Tx,0,8,DF,37,B4,F9,87,CA,E8,0E,
49767482,00000295,false,Tx,0,8,8D,58,F4,73,18,CC,7F,16,
49788060,00000297,false,Tx,0,8,54,AE,7B,BE,BC,90,62,83,
49797602,000002B5,false,Rx,0,8,40,00,32,00,00,00,00,72,
49797842,000002B6,false,Rx,0,8,42,00,7D,02,00,00,7E,43,
49806895,00000299,false,Tx,0,8,4E,34,13,05,FD,94,62,0B,
49827237,0000029B,false,Tx,0,8,A3,20,D8,FE,7E,48,93,E8,
49837719,0000029C,false,Tx,0,8,10,90,BF,CA,05,F2,1A,AE,
49876590,000002A0,false,Tx,0,8,15,EE,85,4D,92,B3,F0,2F,
49897587,000002B5,false,Rx,0,8,50,00,32,00,00,00,00,62,
49897827,000002B6,false,Rx,0,8,50,00,7D,02,00,00,7E,51,
49898590,000002A2,false,Tx,0,8,85,9C,FA,44,9E,B8,CC,EE,
49997598,000002B5,false,Rx,0,8,60,00,32,00,00,00,00,52,
50097590,000002B5,false,Rx,0,8,70,00,32,00,00,00,00,42,
50128180,000002B5,false,Tx,0,8,1E,98,10,F0,B3,DC,1A,B8,
50177403,000002B6,false,Rx,0,8,B0,00,7D,02,00,00,7E,B1,
50197577,000002B5,false,Rx,0,8,80,00,32,00,00,00,00,B2,
50197816,000002B6,false,Rx,0,8,80,00,7D,02,00,00,7E,81,
50297587,000002B5,false,Rx,0,8,90,00,32,00,00,00,00,A2,
50297827,000002B6,false,Rx,0,8,90,00,7D,02,00,00,7E,91,
50397582,000002B5,false,Rx,0,8,A0,00,32,00,00,00,00,92,
50497574,000002B5,false,Rx,0,8,B0,00,32,00,00,00,00,82,
50597582,000002B5,false,Rx,0,8,C0,00,32,00,00,00,00,F2,
50636783,0000022A,false,Tx,0,8,D1,E6,14,26,AA,0D,E2,FA,
50656745,0000022C,false,Tx,0,8,D7,BB,2F,99,B6,92,82,8B,
50677393,000002B6,false,Rx,0,8,02,00,7D,02,00,00,7E,03,
50697568,000002B5,false,Rx,0,8,D0,00,32,00,00,00,00,E2,
50697806,000002B6,false,Rx,0,8,D0,00,7D,02,00,00,7E,D1,
50797585,000002B5,false,Rx,0,8,E0,00,32,00,00,00,00,D2,
50797815,000002B6,false,Rx,0,8,E0,00,7D,02,00,00,7E,E1,
50897560,000002B5,false,Rx,0,8,F0,00,32,00,00,00,00,C2,
50997565,000002B5,false,Rx,0,8,00,00,32,00,00,00,00,32,
50997814,000002B6,false,Rx,0,8,02,00,7D,02,00,00,7E,03,
51097577,000002B5,false,Rx,0,8,10,00,32,00,00,00,00,22,
51097816,000002B6,false,Rx,0,8,12,00,7D,02,00,00,7E,13,
51197580,000002B5,false,Rx,0,8,20,00,32,00,00,00,00,12,
51197819,000002B6,false,Rx,0,8,22,00,7D,02,00,00,7E,23,
51297558,000002B5,false,Rx,0,8,30,00,32,00,00,00,00,02,
51397555,000002B5,false,Rx,0,8,40,00,32,00,00,00,00,72,
51397794,000002B6,false,Rx,0,8,42,00,7D,02,00,00,7E,43,
51497547,000002B5,false,Rx,0,8,50,00,32,00,00,00,00,62,
51497786,000002B6,false,Rx,0,8,52,00,7D,02,00,00,7E,53,
51597550,000002B5,false,Rx,0,8,60,00,32,00,00,00,00,52,
51697552,000002B5,false,Rx,0,8,70,00,32,00,00,00,00,42,
51697791,000002B6,false,Rx,0,8,72,00,7D,02,00,00,7E,73,
51797555,000002B5,false,Rx,0,8,80,00,32,00,00,00,00,B2,
51877357,000002B6,false,Rx,0,8,C2,00,7D,02,00,00,7E,C3,
51877957,00000293,false,Tx,0,8,74,0E,B6,C1,FA,9F,E2,89,
51897523,00000295,false,Tx,0,8,E7,21,B5,4D,18,9F,88,AC,
51897560,000002B5,false,Rx,0,8,90,00,32,00,00,00,00,A2,
51897799,000002B6,false,Rx,0,8,92,00,7D,02,00,00,7E,93,
51962460,00000297,false,Tx,0,8,BE,F7,80,40,09,E6,A0,1A,
51977571,00000299,false,Tx,0,8,66,E9,7E,D9,60,4A,43,21,
51996798,0000029B,false,Tx,0,8,AC,B0,3C,9B,EE,11,CA,AD,
51997552,000002B5,false,Rx,0,8,A0,00,32,00,00,00,00,92,
52007580,0000029C,false,Tx,0,8,AE,A0,CF,F1,B3,60,62,2C,
52046692,000002A0,false,Tx,0,8,5F,E0,66,BF,F7,5F,DB,13,
52067334,000002A2,false,Tx,0,8,67,86,C0,6A,2F,8F,81,3F,
52097544,000002B5,false,Rx,0,8,B0,00,32,00,00,00,00,82,
52177131,000002B5,false,Rx,0,8,F0,00,32,00,00,00,00,C2,
52197546,000002B5,false,Rx,0,8,C0,00,32,00,00,00,00,F2,
52197796,000002B6,false,Rx,0,8,C0,00,7D,02,00,00,7E,C1,
52297324,000002B5,false,Tx,0,8,2B,72,64,F3,AD,BD,06,D0,
52297538,000002B5,false,Rx,0,8,D0,00,32,00,00,00,00,E2,
52377114,000002B5,false,Rx,0,8,10,00,32,00,00,00,00,22,
52397545,000002B5,false,Rx,0,8,E0,00,32,00,00,00,00,D2,
52497546,000002B5,false,Rx,0,8,F0,00,32,00,00,00,00,C2,
52497784,000002B6,false,Rx,0,8,F0,00,7D,02,00,00,7E,F1,
52597527,000002B5,false,Rx,0,8,00,00,32,00,00,00,00,32,
52697524,000002B5,false,Rx,0,8,10,00,32,00,00,00,00,22,
52697774,000002B6,false,Rx,0,8,10,00,7D,02,00,00,7E,11,
52777335,000002B6,false,Rx,0,8,52,00,7D,02,00,00,7E,53,
52797528,000002B5,false,Rx,0,8,20,00,32,00,00,00,00,12,
52797768,000002B6,false,Rx,0,8,20,00,7D,02,00,00,7E,21,
52856855,0000022A,false,Tx,0,8,E5,CC,B7,96,B5,F4,A8,A5,
52877270,0000022C,false,Tx,0,8,DC,48,7C,09,EE,D5,C0,8F,
52897522,000002B5,false,Rx,0,8,30,00,32,00,00,00,00,02,
52897761,000002B6,false,Rx,0,8,30,00,7D,02,00,00,7E,31,
52977340,000002B6,false,Rx,0,8,72,00,7D,02,00,00,7E,73,
52997521,000002B5,false,Rx,0,8,40,00,32,00,00,00,00,72,
52997759,000002B6,false,Rx,0,8,40,00,7D,02,00,00,7E,41,
52997759,000002B6,false,Rx,0,8,40,00,7D,02,00,00,7E,41,
53097759,000002B6,false,Rx,0,8,52,00,7D,02,00,00,7E,53,
53197531,000002B5,false,Rx,0,8,60,00,32,00,00,00,00,52,
53197761,000002B6,false,Rx,0,8,62,00,7D,02,00,00,7E,63,
53277089,000002B5,false,Rx,0,8,A0,00,32,00,00,00,00,92,
53297526,000002B5,false,Rx,0,8,70,00,32,00,00,00,00,42,
53397512,000002B5,false,Rx,0,8,80,00,32,00,00,00,00,B2,
53397751,000002B6,false,Rx,0,8,82,00,7D,02,00,00,7E,83,
53497512,000002B5,false,Rx,0,8,90,00,32,00,00,00,00,A2,
53597516,000002B5,false,Rx,0,8,A0,00,32,00,00,00,00,92,
53697509,000002B5,false,Rx,0,8,B0,00,32,00,00,00,00,82,
53697749,000002B6,false,Rx,0,8,B2,00,7D,02,00,00,7E,B3,
53697749,000002B6,false,Rx,0,8,B2,00,7D,02,00,00,7E,B3,
53797507,000002B5,false,Rx,0,8,C0,00,32,00,00,00,00,F2,
53797746,000002B6,false,Rx,0,8,C2,00,7D,02,00,00,7E,C3,
53897509,000002B5,false,Rx,0,8,D0,00,32,00,00,00,00,E2,
53897748,000002B6,false,Rx,0,8,D2,00,7D,02,00,00,7E,D3,
53997504,000002B5,false,Rx,0,8,E0,00,32,00,00,00,00,D2,
53997743,000002B6,false,Rx,0,8,E2,00,7D,02,00,00,7E,E3,
54009288,000002B5,false,Rx,0,8,D0,00,32,00,00,00,00,E2,
54097496,000002B5,false,Rx,0,8,F0,00,32,00,00,00,00,C2,
54097735,000002B6,false,Rx,0,8,F2,00,7D,02,00,00,7E,F3,
54197511,000002B5,false,Rx,0,8,00,00,32,00,00,00,00,32,
54197751,000002B6,false,Rx,0,8,02,00,7D,02,00,00,7E,03,
54277310,000002B6,false,Rx,0,8,42,00,7D,02,00,00,7E,43,
54277310,000002B6,false,Rx,0,8,42,00,7D,02,00,00,7E,43,
54297495,000002B5,false,Rx,0,8,10,00,32,00,00,00,00,22,
54297734,000002B6,false,Rx,0,8,12,00,7D,02,00,00,7E,13,
54397504,000002B5,false,Rx,0,8,20,00,32,00,00,00,00,12,
54497507,000002B5,false,Rx,0,8,30,00,32,00,00,00,00,02,
54497746,000002B6,false,Rx,0,8,32,00,7D,02,00,00,7E,33,
54597483,000002B5,false,Rx,0,8,40,00,32,00,00,00,00,72,
54597721,000002B6,false,Rx,0,8,42,00,7D,02,00,00,7E,43,
54637161,00000293,false,Tx,0,8,E6,BA,07,10,34,82,5F,8E,
54657623,00000295,false,Tx,0,8,30,90,8D,FB,95,DF,E6,EB,
54697489,000002B5,false,Rx,0,8,50,00,32,00,00,00,00,62,
54697729,000002B6,false,Rx,0,8,52,00,7D,02,00,00,7E,53,
54726875,00000297,false,Tx,0,8,21,FB,C3,15,A0,85,DD,FF,
54746888,00000299,false,Tx,0,8,18,BD,69,C9,9A,D5,27,55,
54766896,0000029B,false,Tx,0,8,0C,51,97,C8,FC,FD,D2,A2,
54776981,0000029C,false,Tx,0,8,A7,92,35,0F,52,85,6B,4B,
54797485,000002B5,false,Rx,0,8,60,00,32,00,00,00,00,52,
54797724,000002B6,false,Rx,0,8,62,00,7D,02,00,00,7E,63,
54817093,000002A0,false,Tx,0,8,9A,B9,08,F5,DB,CD,0A,C6,
54836972,000002A2,false,Tx,0,8,42,DF,C5,AC,3E,0C,A9,62,
54897481,000002B5,false,Rx,0,8,70,00,32,00,00,00,00,42,
54997478,000002B5,false,Rx,0,8,80,00,32,00,00,00,00,B2,
55097474,000002B5,false,Rx,0,8,90,00,32,00,00,00,00,A2,
55097524,000002B5,false,Tx,0,8,9C,9B,AE,0A,F1,49,73,DF,
55197479,000002B5,false,Rx,0,8,A0,00,32,00,00,00,00,92,
55197709,000002B6,false,Rx,0,8,A0,00,7D,02,00,00,7E,A1,
55297489,000002B5,false,Rx,0,8,B0,00,32,00,00,00,00,82,
55397464,000002B5,false,Rx,0,8,C0,00,32,00,00,00,00,F2,
55477296,000002B6,false,Rx,0,8,02,00,7D,02,00,00,7E,03,
55497478,000002B5,false,Rx,0,8,D0,00,32,00,00,00,00,E2,
55597481,000002B5,false,Rx,0,8,E0,00,32,00,00,00,00,D2,
55637405,0000022A,false,Tx,0,8,54,EA,56,E5,2E,18,FB,E2,
55656590,0000022C,false,Tx,0,8,1E,EB,B9,B1,A4,F2,40,E8,
55697476,000002B5,false,Rx,0,8,F0,00,32,00,00,00,00,C2,
55697716,000002B6,false,Rx,0,8,F0,00,7D,02,00,00,7E,F1,
55797464,000002B5,false,Rx,0,8,00,00,32,00,00,00,00,32,
55797712,000002B6,false,Rx,0,8,00,00,7D,02,00,00,7E,01,
55897478,000002B5,false,Rx,0,8,10,00,32,00,00,00,00,22,
55997473,000002B5,false,Rx,0,8,20,00,32,00,00,00,00,12,
55997712,000002B6,false,Rx,0,8,22,00,7D,02,00,00,7E,23,
56097456,000002B5,false,Rx,0,8,30,00,32,00,00,00,00,02,
56097696,000002B6,false,Rx,0,8,32,00,7D,02,00,00,7E,33,
56197461,000002B5,false,Rx,0,8,40,00,32,00,00,00,00,72,
56197701,000002B6,false,Rx,0,8,42,00,7D,02,00,00,7E,43,
56297447,000002B5,false,Rx,0,8,50,00,32,00,00,00,00,62,
56297686,000002B6,false,Rx,0,8,52,00,7D,02,00,00,7E,53,
56397446,000002B5,false,Rx,0,8,60,00,32,00,00,00,00,52,
56497448,000002B5,false,Rx,0,8,70,00,32,00,00,00,00,42,
56577267,000002B6,false,Rx,0,8,B2,00,7D,02,00,00,7E,B3,
56597439,000002B5,false,Rx,0,8,80,00,32,00,00,00,00,B2,
56697436,000002B5,false,Rx,0,8,90,00,32,00,00,00,00,A2,
56697676,000002B6,false,Rx,0,8,92,00,7D,02,00,00,7E,93,
56797452,000002B5,false,Rx,0,8,A0,00,32,00,00,00,00,92,
56897457,000002B5,false,Rx,0,8,B0,00,32,00,00,00,00,82,
56897695,000002B6,false,Rx,0,8,B2,00,7D,02,00,00,7E,B3,
56906625,00000293,false,Tx,0,8,51,2A,47,65,48,ED,35,0D,
56977261,000002B6,false,Rx,0,8,F2,00,7D,02,00,00,7E,F3,
56977657,00000295,false,Tx,0,8,0F,03,36,BD,3A,EB,A2,62,
56996598,00000297,false,Tx,0,8,3A,5F,5B,B2,A2,3B,F7,84,
56997432,000002B5,false,Rx,0,8,C0,00,32,00,00,00,00,F2,
57017655,00000299,false,Tx,0,8,1B,8E,19,CB,D7,A1,AC,14,
57036689,0000029B,false,Tx,0,8,EE,BD,5C,3A,D6,D1,EC,F3,
57046584,0000029C,false,Tx,0,8,FB,97,51,D4,C6,40,49,A9,
57086599,000002A0,false,Tx,0,8,4B,E3,23,AB,3C,EA,4C,A0,
57097444,000002B5,false,Rx,0,8,D0,00,32,00,00,00,00,E2,
57107228,000002A2,false,Tx,0,8,F1,1E,9B,3E,DA,91,4D,61,
57197451,000002B5,false,Rx,0,8,E0,00,32,00,00,00,00,D2,
57197680,000002B6,false,Rx,0,8,E0,00,7D,02,00,00,7E,E1,
57209477,000002B6,false,Rx,0,8,D2,00,7D,02,00,00,7E,D3,
57209477,000002B6,false,Rx,0,8,D2,00,7D,02,00,00,7E,D3,
57277022,000002B5,false,Rx,0,8,20,00,32,00,00,00,00,12,
57297432,000002B5,false,Rx,0,8,F0,00,32,00,00,00,00,C2,
57297661,000002B6,false,Rx,0,8,F0,00,7D,02,00,00,7E,F1,
57337602,000002B5,false,Tx,0,8,D1,B4,5D,47,8B,F4,1B,DB,
57397427,000002B5,false,Rx,0,8,00,00,32,00,00,00,00,32,
57497423,000002B5,false,Rx,0,8,10,00,32,00,00,00,00,22,
57597433,000002B5,false,Rx,0,8,20,00,32,00,00,00,00,12,
57697432,000002B5,false,Rx,0,8,30,00,32,00,00,00,00,02,
57697671,000002B6,false,Rx,0,8,30,00,7D,02,00,00,7E,31,
57797423,000002B5,false,Rx,0,8,40,00,32,00,00,00,00,72,
57797661,000002B6,false,Rx,0,8,40,00,7D,02,00,00,7E,41,
57847270,0000022A,false,Tx,0,8,9D,16,10,35,4E,31,37,E5,
57867729,0000022C,false,Tx,0,8,82,18,B2,AA,A3,0A,F0,73,
57897418,000002B5,false,Rx,0,8,50,00,32,00,00,00,00,62,
57897656,000002B6,false,Rx,0,8,50,00,7D,02,00,00,7E,51,
57997428,000002B5,false,Rx,0,8,60,00,32,00,00,00,00,52,
57997667,000002B6,false,Rx,0,8,60,00,7D,02,00,00,7E,61,
58097421,000002B5,false,Rx,0,8,70,00,32,00,00,00,00,42,
58177242,000002B6,false,Rx,0,8,B0,00,7D,02,00,00,7E,B1,
58197406,000002B5,false,Rx,0,8,80,00,32,00,00,00,00,B2,
58197654,000002B6,false,Rx,0,8,82,00,7D,02,00,00,7E,83,
58297426,000002B5,false,Rx,0,8,90,00,32,00,00,00,00,A2,
58397421,000002B5,false,Rx,0,8,A0,00,32,00,00,00,00,92,
58397660,000002B6,false,Rx,0,8,A2,00,7D,02,00,00,7E,A3,
58497411,000002B5,false,Rx,0,8,B0,00,32,00,00,00,00,82,
58497650,000002B6,false,Rx,0,8,B2,00,7D,02,00,00,7E,B3,
58597413,000002B5,false,Rx,0,8,C0,00,32,00,00,00,00,F2,
58597653,000002B6,false,Rx,0,8,C2,00,7D,02,00,00,7E,C3,
58697409,000002B5,false,Rx,0,8,D0,00,32,00,00,00,00,E2,
58697648,000002B6,false,Rx,0,8,D2,00,7D,02,00,00,7E,D3,
58797403,000002B5,false,Rx,0,8,E0,00,32,00,00,00,00,D2,
58797641,000002B6,false,Rx,0,8,E2,00,7D,02,00,00,7E,E3,
58897398,000002B5,false,Rx,0,8,F0,00,32,00,00,00,00,C2,
58997394,000002B5,false,Rx,0,8,00,00,32,00,00,00,00,32,
59097407,000002B5,false,Rx,0,8,10,00,32,00,00,00,00,22,
59197406,000002B5,false,Rx,0,8,20,00,32,00,00,00,00,12,
59197644,000002B6,false,Rx,0,8,22,00,7D,02,00,00,7E,23,
59255623,00000293,false,Tx,0,8,C7,99,55,AC,95,C1,5C,14,
59266650,00000295,false,Tx,0,8,DA,B9,1D,3B,72,1E,E5,5E,
59286635,00000297,false,Tx,0,8,EB,75,27,56,AA,FA,DB,60,
59297384,000002B5,false,Rx,0,8,30,00,32,00,00,00,00,02,
59307653,00000299,false,Tx,0,8,4D,FB,82,45,E9,77,DF,3E,
59327139,0000029B,false,Tx,0,8,4A,5B,A9,C8,BB,03,D6,8F,
59337300,0000029C,false,Tx,0,8,C0,B3,43,C5,56,6D,58,F8,
59377110,000002A0,false,Tx,0,8,23,FA,5F,15,D0,16,5A,2B,
59397381,000002B5,false,Rx,0,8,40,00,32,00,00,00,00,72,
59397630,000002B6,false,Rx,0,8,40,00,7D,02,00,00,7E,41,
59398442,000002A2,false,Tx,0,8,AA,03,4D,98,CB,6A,86,52,
59497391,000002B5,false,Rx,0,8,50,00,32,00,00,00,00,62,
59597391,000002B5,false,Rx,0,8,60,00,32,00,00,00,00,52,
59597631,000002B6,false,Rx,0,8,60,00,7D,02,00,00,7E,61,
59647726,000002B5,false,Tx,0,8,E3,DB,5F,83,AA,C2,F1,14,
59677190,000002B6,false,Rx,0,8,A2,00,7D,02,00,00,7E,A3,
59697381,000002B5,false,Rx,0,8,70,00,32,00,00,00,00,42,
59697620,000002B6,false,Rx,0,8,70,00,7D,02,00,00,7E,71,
59797384,000002B5,false,Rx,0,8,80,00,32,00,00,00,00,B2,
59797633,000002B6,false,Rx,0,8,80,00,7D,02,00,00,7E,81,
59897369,000002B5,false,Rx,0,8,90,00,32,00,00,00,00,A2,
59897608,000002B6,false,Rx,0,8,90,00,7D,02,00,00,7E,91,
59997376,000002B5,false,Rx,0,8,A0,00,32,00,00,00,00,92,
60097388,000002B5,false,Rx,0,8,B0,00,32,00,00,00,00,82,
60197366,000002B5,false,Rx,0,8,C0,00,32,00,00,00,00,F2,
60197605,000002B6,false,Rx,0,8,C0,00,7D,02,00,00,7E,C1,
60226863,0000022A,false,Tx,0,8,4E,81,AF,1B,1E,20,5A,08,
60246832,0000022C,false,Tx,0,8,76,81,C7,9B,60,50,7E,18,
60297363,000002B5,false,Rx,0,8,D0,00,32,00,00,00,00,E2,
60297602,000002B6,false,Rx,0,8,D0,00,7D,02,00,00,7E,D1,
60397620,000002B6,false,Rx,0,8,E2,00,7D,02,00,00,7E,E3,
60497369,000002B5,false,Rx,0,8,F0,00,32,00,00,00,00,C2,
60497609,000002B6,false,Rx,0,8,F2,00,7D,02,00,00,7E,F3,
60597358,000002B5,false,Rx,0,8,00,00,32,00,00,00,00,32,
60697364,000002B5,false,Rx,0,8,10,00,32,00,00,00,00,22,
60697603,000002B6,false,Rx,0,8,12,00,7D,02,00,00,7E,13,
60797360,000002B5,false,Rx,0,8,20,00,32,00,00,00,00,12,
60897358,000002B5,false,Rx,0,8,30,00,32,00,00,00,00,02,
60997364,000002B5,false,Rx,0,8,40,00,32,00,00,00,00,72,
60997604,000002B6,false,Rx,0,8,42,00,7D,02,00,00,7E,43,
61097342,000002B5,false,Rx,0,8,50,00,32,00,00,00,00,62,
61109137,000002B5,false,Rx,0,8,40,00,32,00,00,00,00,72,
61197351,000002B5,false,Rx,0,8,60,00,32,00,00,00,00,52,
61197589,000002B6,false,Rx,0,8,62,00,7D,02,00,00,7E,63,
61297358,000002B5,false,Rx,0,8,70,00,32,00,00,00,00,42,
61397345,000002B5,false,Rx,0,8,80,00,32,00,00,00,00,B2,
61397583,000002B6,false,Rx,0,8,82,00,7D,02,00,00,7E,83,
61497345,000002B5,false,Rx,0,8,90,00,32,00,00,00,00,A2,
61509388,000002B6,false,Rx,0,8,82,00,7D,02,00,00,7E,83,
61597348,000002B5,false,Rx,0,8,A0,00,32,00,00,00,00,92,
61697345,000002B5,false,Rx,0,8,B0,00,32,00,00,00,00,82,
61697583,000002B6,false,Rx,0,8,B2,00,7D,02,00,00,7E,B3,
61728524,00000293,false,Tx,0,8,0D,B9,DF,6D,9C,94,92,4C,
61746918,00000295,false,Tx,0,8,C6,64,4D,DD,94,88,0E,94,
61767644,00000297,false,Tx,0,8,B6,10,42,8F,0A,1E,A5,EA,
61777166,000002B6,false,Rx,0,8,F2,00,7D,02,00,00,7E,F3,
61787544,00000299,false,Tx,0,8,AD,E0,79,1E,10,55,9E,05,
61797346,000002B5,false,Rx,0,8,C0,00,32,00,00,00,00,F2,
61807498,0000029B,false,Tx,0,8,2E,67,66,5E,EE,17,BD,96,
61817208,0000029C,false,Tx,0,8,78,CB,B2,06,E1,DB,C0,D7,
61857223,000002A0,false,Tx,0,8,91,C8,0D,0D,F0,83,13,75,
61877318,000002A2,false,Tx,0,8,AE,59,9F,9C,85,3C,01,14,
61897331,000002B5,false,Rx,0,8,D0,00,32,00,00,00,00,E2,
61897570,000002B6,false,Rx,0,8,D0,00,7D,02,00,00,7E,D1,
61997340,000002B5,false,Rx,0,8,E0,00,32,00,00,00,00,D2,
62097323,000002B5,false,Rx,0,8,F0,00,32,00,00,00,00,C2,
62107212,000002B5,false,Tx,0,8,2E,05,C5,E4,44,67,C5,62,
62197326,000002B5,false,Rx,0,8,00,00,32,00,00,00,00,32,
62197574,000002B6,false,Rx,0,8,00,00,7D,02,00,00,7E,01,
62297321,000002B5,false,Rx,0,8,10,00,32,00,00,00,00,22,
62297570,000002B6,false,Rx,0,8,10,00,7D,02,00,00,7E,11,
62397328,000002B5,false,Rx,0,8,20,00,32,00,00,00,00,12,
62497335,000002B5,false,Rx,0,8,30,00,32,00,00,00,00,02,
62597316,000002B5,false,Rx,0,8,40,00,32,00,00,00,00,72,
62597555,000002B6,false,Rx,0,8,40,00,7D,02,00,00,7E,41,
62636684,0000022A,false,Tx,0,8,A4,E5,F1,98,63,10,6A,3A,
62656680,0000022C,false,Tx,0,8,4C,8F,D0,03,F9,AB,48,2A,
62697310,000002B5,false,Rx,0,8,50,00,32,00,00,00,00,62,
62697548,000002B6,false,Rx,0,8,50,00,7D,02,00,00,7E,51,
62797330,000002B5,false,Rx,0,8,60,00,32,00,00,00,00,52,
62797568,000002B6,false,Rx,0,8,60,00,7D,02,00,00,7E,61,
62897306,000002B5,false,Rx,0,8,70,00,32,00,00,00,00,42,
62897546,000002B6,false,Rx,0,8,72,00,7D,02,00,00,7E,73,
62997305,000002B5,false,Rx,0,8,80,00,32,00,00,00,00,B2,
63097318,000002B5,false,Rx,0,8,90,00,32,00,00,00,00,A2,
63097556,000002B6,false,Rx,0,8,92,00,7D,02,00,00,7E,93,
63197311,000002B5,false,Rx,0,8,A0,00,32,00,00,00,00,92,
63197540,000002B6,false,Rx,0,8,A2,00,7D,02,00,00,7E,A3,
63277369,000002B6,false,Rx,0,8,E2,00,7D,02,00,00,7E,E3,
63297306,000002B5,false,Rx,0,8,B0,00,32,00,00,00,00,82,
63297545,000002B6,false,Rx,0,8,B2,00,7D,02,00,00,7E,B3,
63377118,000002B6,false,Rx,0,8,F2,00,7D,02,00,00,7E,F3,
63397311,000002B5,false,Rx,0,8,C0,00,32,00,00,00,00,F2,
63497296,000002B5,false,Rx,0,8,D0,00,32,00,00,00,00,E2,
63497536,000002B6,false,Rx,0,8,D2,00,7D,02,00,00,7E,D3,
63597309,000002B5,false,Rx,0,8,E0,00,32,00,00,00,00,D2,
63697296,000002B5,false,Rx,0,8,F0,00,32,00,00,00,00,C2,
63697535,000002B6,false,Rx,0,8,F2,00,7D,02,00,00,7E,F3,
63797305,000002B5,false,Rx,0,8,00,00,32,00,00,00,00,32,
63797553,000002B6,false,Rx,0,8,02,00,7D,02,00,00,7E,03,
63897288,000002B5,false,Rx,0,8,10,00,32,00,00,00,00,22,
63897528,000002B6,false,Rx,0,8,12,00,7D,02,00,00,7E,13,
63996807,00000293,false,Tx,0,8,F9,4F,F5,2E,4C,DD,DA,F6,
63997308,000002B5,false,Rx,0,8,20,00,32,00,00,00,00,12,
63997548,000002B6,false,Rx,0,8,22,00,7D,02,00,00,7E,23,
64009097,000002B5,false,Rx,0,8,10,00,32,00,00,00,00,22,
64016819,00000295,false,Tx,0,8,D3,A9,18,AE,F8,FA,DE,17,
64037174,00000297,false,Tx,0,8,31,84,E0,88,F1,2B,04,39,
64057725,00000299,false,Tx,0,8,AB,E9,6F,A8,5B,21,D2,0F,
64077890,0000029B,false,Tx,0,8,F2,A9,44,75,BF,13,28,A6,
64087440,0000029C,false,Tx,0,8,F0,C2,3E,67,30,5F,DB,A4,
64097285,000002B5,false,Rx,0,8,30,00,32,00,00,00,00,02,
64097523,000002B6,false,Rx,0,8,32,00,7D,02,00,00,7E,33,
64126572,000002A0,false,Tx,0,8,E4,C5,D9,E2,B1,A8,B3,19,
64147769,000002A2,false,Tx,0,8,06,2E,89,E8,4A,C6,B6,86,
64197296,000002B5,false,Rx,0,8,40,00,32,00,00,00,00,72,
64197535,000002B6,false,Rx,0,8,40,00,7D,02,00,00,7E,41,
64297283,000002B5,false,Rx,0,8,50,00,32,00,00,00,00,62,
64297522,000002B6,false,Rx,0,8,50,00,7D,02,00,00,7E,51,
64387133,000002B5,false,Tx,0,8,B5,70,9A,F9,4F,6A,12,23,
64397289,000002B5,false,Rx,0,8,60,00,32,00,00,00,00,52,
64397529,000002B6,false,Rx,0,8,60,00,7D,02,00,00,7E,61,
64497275,000002B5,false,Rx,0,8,70,00,32,00,00,00,00,42,
64497515,000002B6,false,Rx,0,8,70,00,7D,02,00,00,7E,71,
64597274,000002B5,false,Rx,0,8,80,00,32,00,00,00,00,B2,
64597513,000002B6,false,Rx,0,8,80,00,7D,02,00,00,7E,81,
64697268,000002B5,false,Rx,0,8,90,00,32,00,00,00,00,A2,
64697506,000002B6,false,Rx,0,8,90,00,7D,02,00,00,7E,91,
64709302,000002B6,false,Rx,0,8,82,00,7D,02,00,00,7E,83,
64797285,000002B5,false,Rx,0,8,A0,00,32,00,00,00,00,92,
64797523,000002B6,false,Rx,0,8,A0,00,7D,02,00,00,7E,A1,
64897288,000002B5,false,Rx,0,8,B0,00,32,00,00,00,00,82,
64897528,000002B6,false,Rx,0,8,B0,00,7D,02,00,00,7E,B1,
64977396,0000022A,false,Tx,0,8,AD,1B,2A,67,91,0B,DB,C9,
64997263,000002B5,false,Rx,0,8,C0,00,32,00,00,00,00,F2,
64997512,000002B6,false,Rx,0,8,C0,00,7D,02,00,00,7E,C1,
64997549,0000022C,false,Tx,0,8,29,4E,66,73,C3,8E,77,E2,
65097277,000002B5,false,Rx,0,8,D0,00,32,00,00,00,00,E2,
65197281,000002B5,false,Rx,0,8,E0,00,32,00,00,00,00,D2,
65197520,000002B6,false,Rx,0,8,E2,00,7D,02,00,00,7E,E3,
65297276,000002B5,false,Rx,0,8,F0,00,32,00,00,00,00,C2,
65297515,000002B6,false,Rx,0,8,F2,00,7D,02,00,00,7E,F3,
65397263,000002B5,false,Rx,0,8,00,00,32,00,00,00,00,32,
65497266,000002B5,false,Rx,0,8,10,00,32,00,00,00,00,22,
65497515,000002B6,false,Rx,0,8,12,00,7D,02,00,00,7E,13,
65597255,000002B5,false,Rx,0,8,20,00,32,00,00,00,00,12,
65597493,000002B6,false,Rx,0,8,22,00,7D,02,00,00,7E,23,
65697251,000002B5,false,Rx,0,8,30,00,32,00,00,00,00,02,
65697490,000002B6,false,Rx,0,8,32,00,7D,02,00,00,7E,33,
65777063,000002B6,false,Rx,0,8,72,00,7D,02,00,00,7E,73,
65797254,000002B5,false,Rx,0,8,40,00,32,00,00,00,00,72,
65897261,000002B5,false,Rx,0,8,50,00,32,00,00,00,00,62,
65897501,000002B6,false,Rx,0,8,52,00,7D,02,00,00,7E,53,
65997243,000002B5,false,Rx,0,8,60,00,32,00,00,00,00,52,
66097256,000002B5,false,Rx,0,8,70,00,32,00,00,00,00,42,
66197238,000002B5,false,Rx,0,8,80,00,32,00,00,00,00,B2,
66197486,000002B6,false,Rx,0,8,82,00,7D,02,00,00,7E,83,
66277363,00000293,false,Tx,0,8,96,09,CC,70,D1,18,84,F6,
66297240,000002B5,false,Rx,0,8,90,00,32,00,00,00,00,A2,
66297479,000002B6,false,Rx,0,8,92,00,7D,02,00,00,7E,93,
66298271,00000295,false,Tx,0,8,8B,A0,18,8F,B3,18,8C,61,
66317784,00000297,false,Tx,0,8,8A,4D,70,E8,4D,FA,4B,FF,
66336975,00000299,false,Tx,0,8,BA,D4,FC,D3,0D,B1,D4,D6,
66357081,0000029B,false,Tx,0,8,8B,FB,E1,AD,77,59,F5,FA,
66367903,0000029C,false,Tx,0,8,8B,FA,97,16,7A,99,1A,62,
66397240,000002B5,false,Rx,0,8,A0,00,32,00,00,00,00,92,
66407172,000002A0,false,Tx,0,8,74,D6,D0,E1,54,D0,8F,BF,
66478787,000002A2,false,Tx,0,8,D9,E0,02,01,44,10,89,1D,
66497256,000002B5,false,Rx,0,8,B0,00,32,00,00,00,00,82,
66497495,000002B6,false,Rx,0,8,B0,00,7D,02,00,00,7E,B1,
66597248,000002B5,false,Rx,0,8,C0,00,32,00,00,00,00,F2,
66597487,000002B6,false,Rx,0,8,C0,00,7D,02,00,00,7E,C1,
66697233,000002B5,false,Rx,0,8,D0,00,32,00,00,00,00,E2,
66697472,000002B6,false,Rx,0,8,D0,00,7D,02,00,00,7E,D1,
66712428,000002B5,false,Tx,0,8,E2,F3,F4,5E,A7,28,D2,76,
66797247,000002B5,false,Rx,0,8,E0,00,32,00,00,00,00,D2,
66797477,000002B6,false,Rx,0,8,E0,00,7D,02,00,00,7E,E1,
66897224,000002B5,false,Rx,0,8,F0,00,32,00,00,00,00,C2,
66997222,000002B5,false,Rx,0,8,00,00,32,00,00,00,00,32,
66997471,000002B6,false,Rx,0,8,00,00,7D,02,00,00,7E,01,
67097236,000002B5,false,Rx,0,8,10,00,32,00,00,00,00,22,
67197238,000002B5,false,Rx,0,8,20,00,32,00,00,00,00,12,
67197477,000002B6,false,Rx,0,8,20,00,7D,02,00,00,7E,21,
67236969,0000022A,false,Tx,0,8,67,41,93,6A,E6,72,5D,02,
67257192,0000022C,false,Tx,0,8,7F,64,1B,8B,32,CD,CC,66,
67297235,000002B5,false,Rx,0,8,30,00,32,00,00,00,00,02,
67297475,000002B6,false,Rx,0,8,30,00,7D,02,00,00,7E,31,
67377028,000002B6,false,Rx,0,8,70,00,7D,02,00,00,7E,71,
67397219,000002B5,false,Rx,0,8,40,00,32,00,00,00,00,72,
67497226,000002B5,false,Rx,0,8,50,00,32,00,00,00,00,62,
67597207,000002B5,false,Rx,0,8,60,00,32,00,00,00,00,52,
67697212,000002B5,false,Rx,0,8,70,00,32,00,00,00,00,42,
67697453,000002B6,false,Rx,0,8,72,00,7D,02,00,00,7E,73,
67797204,000002B5,false,Rx,0,8,80,00,32,00,00,00,00,B2,
67797445,000002B6,false,Rx,0,8,82,00,7D,02,00,00,7E,83,
67897221,000002B5,false,Rx,0,8,90,00,32,00,00,00,00,A2,
67897461,000002B6,false,Rx,0,8,92,00,7D,02,00,00,7E,93,
67997204,000002B5,false,Rx,0,8,A0,00,32,00,00,00,00,92,
68097200,000002B5,false,Rx,0,8,B0,00,32,00,00,00,00,82,
68177025,000002B6,false,Rx,0,8,F2,00,7D,02,00,00,7E,F3,
68197215,000002B5,false,Rx,0,8,C0,00,32,00,00,00,00,F2,
68197455,000002B6,false,Rx,0,8,C2,00,7D,02,00,00,7E,C3,
68297212,000002B5,false,Rx,0,8,D0,00,32,00,00,00,00,E2,
68297444,000002B6,false,Rx,0,8,D2,00,7D,02,00,00,7E,D3,
68397200,000002B5,false,Rx,0,8,E0,00,32,00,00,00,00,D2,
68397430,000002B6,false,Rx,0,8,E2,00,7D,02,00,00,7E,E3,
68497187,000002B5,false,Rx,0,8,F0,00,32,00,00,00,00,C2,
68497428,000002B6,false,Rx,0,8,F2,00,7D,02,00,00,7E,F3,
68537329,00000293,false,Tx,0,8,B6,28,AA,60,F9,96,F6,2A,
68557636,00000295,false,Tx,0,8,72,98,BF,FE,64,AC,56,4A,
68577144,00000297,false,Tx,0,8,DC,9D,E6,D7,57,32,B6,6F,
68596594,00000299,false,Tx,0,8,F7,B5,57,60,C2,4E,E9,17,
68597192,000002B5,false,Rx,0,8,00,00,32,00,00,00,00,32,
68616988,0000029B,false,Tx,0,8,E4,95,56,7C,35,AF,13,9E,
68627236,0000029C,false,Tx,0,8,BE,0C,63,36,F5,2C,10,DE,
68697186,000002B5,false,Rx,0,8,10,00,32,00,00,00,00,22,
68697426,000002B6,false,Rx,0,8,12,00,7D,02,00,00,7E,13,
68715881,000002A0,false,Tx,0,8,2F,EA,2A,43,75,FA,F6,CF,
68727330,000002A2,false,Tx,0,8,94,9A,A1,DD,5E,7F,8F,1A,
68797189,000002B5,false,Rx,0,8,20,00,32,00,00,00,00,12,
68797430,000002B6,false,Rx,0,8,20,00,7D,02,00,00,7E,21,
68897183,000002B5,false,Rx,0,8,30,00,32,00,00,00,00,02,
68966551,000002B5,false,Tx,0,8,1E,52,75,5C,A6,CA,E2,A6,
68997190,000002B5,false,Rx,0,8,40,00,32,00,00,00,00,72,
69097192,000002B5,false,Rx,0,8,50,00,32,00,00,00,00,62,
69097433,000002B6,false,Rx,0,8,50,00,7D,02,00,00,7E,51,
69197177,000002B5,false,Rx,0,8,60,00,32,00,00,00,00,52,
69197417,000002B6,false,Rx,0,8,60,00,7D,02,00,00,7E,61,
69297174,000002B5,false,Rx,0,8,70,00,32,00,00,00,00,42,
69297415,000002B6,false,Rx,0,8,70,00,7D,02,00,00,7E,71,
69397172,000002B5,false,Rx,0,8,80,00,32,00,00,00,00,B2,
69408960,000002B5,false,Rx,0,8,70,00,32,00,00,00,00,42,
69497167,000002B5,false,Rx,0,8,90,00,32,00,00,00,00,A2,
69497367,0000022A,false,Tx,0,8,56,7A,1A,0B,06,2B,14,75,
69516797,0000022C,false,Tx,0,8,18,32,A7,69,59,DE,91,30,
69597169,000002B5,false,Rx,0,8,A0,00,32,00,00,00,00,92,
69697182,000002B5,false,Rx,0,8,B0,00,32,00,00,00,00,82,
69697424,000002B6,false,Rx,0,8,B0,00,7D,02,00,00,7E,B1,
69797176,000002B5,false,Rx,0,8,C0,00,32,00,00,00,00,F2,
69797417,000002B6,false,Rx,0,8,C2,00,7D,02,00,00,7E,C3,
69897166,000002B5,false,Rx,0,8,D0,00,32,00,00,00,00,E2,
69897405,000002B6,false,Rx,0,8,D2,00,7D,02,00,00,7E,D3,
69997165,000002B5,false,Rx,0,8,E0,00,32,00,00,00,00,D2,
69997405,000002B6,false,Rx,0,8,E2,00,7D,02,00,00,7E,E3,
70097167,000002B5,false,Rx,0,8,F0,00,32,00,00,00,00,C2,
70097407,000002B6,false,Rx,0,8,F2,00,7D,02,00,00,7E,F3,
70197162,000002B5,false,Rx,0,8,00,00,32,00,00,00,00,32,
70197403,000002B6,false,Rx,0,8,02,00,7D,02,00,00,7E,03,
70297164,000002B5,false,Rx,0,8,10,00,32,00,00,00,00,22,
70297405,000002B6,false,Rx,0,8,12,00,7D,02,00,00,7E,13,
70397169,000002B5,false,Rx,0,8,20,00,32,00,00,00,00,12,
70397409,000002B6,false,Rx,0,8,22,00,7D,02,00,00,7E,23,
70497161,000002B5,false,Rx,0,8,30,00,32,00,00,00,00,02,
70597162,000002B5,false,Rx,0,8,40,00,32,00,00,00,00,72,
70697157,000002B5,false,Rx,0,8,50,00,32,00,00,00,00,62,
70697400,000002B6,false,Rx,0,8,52,00,7D,02,00,00,7E,53,
70708931,000002B5,false,Rx,0,8,40,00,32,00,00,00,00,72,
70777033,00000293,false,Tx,0,8,EE,4B,6A,CA,38,4F,74,88,
70796754,00000295,false,Tx,0,8,54,D6,2C,A2,19,A6,16,C3,
70797144,000002B5,false,Rx,0,8,60,00,32,00,00,00,00,52,
70797385,000002B6,false,Rx,0,8,62,00,7D,02,00,00,7E,63,
70816695,00000297,false,Tx,0,8,B3,17,B4,B4,81,B1,77,8E,
70836758,00000299,false,Tx,0,8,50,54,CE,61,C1,97,B9,58,
70856582,0000029B,false,Tx,0,8,22,A4,5C,FA,2D,5C,3C,57,
70867329,0000029C,false,Tx,0,8,0A,57,B4,20,1F,75,DD,A1,
70897150,000002B5,false,Rx,0,8,70,00,32,00,00,00,00,42,
70906998,000002A0,false,Tx,0,8,55,57,92,F3,0A,EF,B2,5F,
70976966,000002A2,false,Tx,0,8,2A,C6,33,61,49,84,05,C8,
70997150,000002B5,false,Rx,0,8,80,00,32,00,00,00,00,B2,
70997390,000002B6,false,Rx,0,8,80,00,7D,02,00,00,7E,81,
71097141,000002B5,false,Rx,0,8,90,00,32,00,00,00,00,A2,
71197134,000002B5,false,Rx,0,8,A0,00,32,00,00,00,00,92,
71197375,000002B6,false,Rx,0,8,A0,00,7D,02,00,00,7E,A1,
71218367,000002B5,false,Tx,0,8,48,CF,8C,83,56,0D,C1,55,
71297154,000002B5,false,Rx,0,8,B0,00,32,00,00,00,00,82,
71397129,000002B5,false,Rx,0,8,C0,00,32,00,00,00,00,F2,
71497140,000002B5,false,Rx,0,8,D0,00,32,00,00,00,00,E2,
71597144,000002B5,false,Rx,0,8,E0,00,32,00,00,00,00,D2,
71697121,000002B5,false,Rx,0,8,F0,00,32,00,00,00,00,C2,
71697362,000002B6,false,Rx,0,8,F0,00,7D,02,00,00,7E,F1,
71767262,0000022A,false,Tx,0,8,C7,96,15,38,99,4B,AD,BF,
71787869,0000022C,false,Tx,0,8,AA,D7,E1,22,75,0C,10,C0,
71797135,000002B5,false,Rx,0,8,00,00,32,00,00,00,00,32,
71876696,000002B5,false,Rx,0,8,40,00,32,00,00,00,00,72,
71897120,000002B5,false,Rx,0,8,10,00,32,00,00,00,00,22,
71997126,000002B5,false,Rx,0,8,20,00,32,00,00,00,00,12,
72097127,000002B5,false,Rx,0,8,30,00,32,00,00,00,00,02,
72097367,000002B6,false,Rx,0,8,32,00,7D,02,00,00,7E,33,
72197112,000002B5,false,Rx,0,8,40,00,32,00,00,00,00,72,
72197353,000002B6,false,Rx,0,8,42,00,7D,02,00,00,7E,43,
72297112,000002B5,false,Rx,0,8,50,00,32,00,00,00,00,62,
72297352,000002B6,false,Rx,0,8,52,00,7D,02,00,00,7E,53,
72397110,000002B5,false,Rx,0,8,60,00,32,00,00,00,00,52,
72397350,000002B6,false,Rx,0,8,62,00,7D,02,00,00,7E,63,
72476682,000002B5,false,Rx,0,8,A0,00,32,00,00,00,00,92,
72497102,000002B5,false,Rx,0,8,70,00,32,00,00,00,00,42,
72597107,000002B5,false,Rx,0,8,80,00,32,00,00,00,00,B2,
72697119,000002B5,false,Rx,0,8,90,00,32,00,00,00,00,A2,
72697360,000002B6,false,Rx,0,8,92,00,7D,02,00,00,7E,93,
72797101,000002B5,false,Rx,0,8,A0,00,32,00,00,00,00,92,
72897106,000002B5,false,Rx,0,8,B0,00,32,00,00,00,00,82,
72997108,000002B5,false,Rx,0,8,C0,00,32,00,00,00,00,F2,
73038731,00000293,false,Tx,0,8,52,0A,97,0B,87,0D,75,89,
73057424,00000295,false,Tx,0,8,E0,B8,2F,84,0C,C0,EF,CB,
73076675,000002B5,false,Rx,0,8,00,00,32,00,00,00,00,32,
73077822,00000297,false,Tx,0,8,2B,DD,00,F0,44,E5,EC,3D,
73096630,00000299,false,Tx,0,8,CE,91,C9,B8,20,F5,87,7D,
73097090,000002B5,false,Rx,0,8,D0,00,32,00,00,00,00,E2,
73117462,0000029B,false,Tx,0,8,AF,53,3B,FE,6B,42,C3,5C,
73127705,0000029C,false,Tx,0,8,0C,CE,B3,D7,09,57,E2,DF,
73197092,000002B5,false,Rx,0,8,E0,00,32,00,00,00,00,D2,
73197334,000002B6,false,Rx,0,8,E2,00,7D,02,00,00,7E,E3,
73226086,000002A0,false,Tx,0,8,A1,75,DB,E1,19,3E,12,16,
73246550,000002A2,false,Tx,0,8,E8,DE,68,49,25,D3,60,AA,
73297091,000002B5,false,Rx,0,8,F0,00,32,00,00,00,00,C2,
73297331,000002B6,false,Rx,0,8,F0,00,7D,02,00,00,7E,F1,
73397095,000002B5,false,Rx,0,8,00,00,32,00,00,00,00,32,
73486493,000002B5,false,Tx,0,8,44,FD,B8,F5,97,6C,24,CD,
73497101,000002B5,false,Rx,0,8,10,00,32,00,00,00,00,22,
73597101,000002B5,false,Rx,0,8,20,00,32,00,00,00,00,12,
73697086,000002B5,false,Rx,0,8,30,00,32,00,00,00,00,02,
73697327,000002B6,false,Rx,0,8,30,00,7D,02,00,00,7E,31,
73797082,000002B5,false,Rx,0,8,40,00,32,00,00,00,00,72,
73809124,000002B6,false,Rx,0,8,32,00,7D,02,00,00,7E,33,
73897088,000002B5,false,Rx,0,8,50,00,32,00,00,00,00,62,
73997074,000002B5,false,Rx,0,8,60,00,32,00,00,00,00,52,
74018105,0000022A,false,Tx,0,8,02,39,5C,19,C3,F2,D2,02,
74037563,0000022C,false,Tx,0,8,CF,93,B3,48,23,81,0A,E2,
74097086,000002B5,false,Rx,0,8,70,00,32,00,00,00,00,42,
74197083,000002B5,false,Rx,0,8,80,00,32,00,00,00,00,B2,
74197324,000002B6,false,Rx,0,8,80,00,7D,02,00,00,7E,81,
74297069,000002B5,false,Rx,0,8,90,00,32,00,00,00,00,A2,
74397066,000002B5,false,Rx,0,8,A0,00,32,00,00,00,00,92,
74497071,000002B5,false,Rx,0,8,B0,00,32,00,00,00,00,82,
74508850,000002B5,false,Rx,0,8,A0,00,32,00,00,00,00,92,
74508850,000002B5,false,Rx,0,8,A0,00,32,00,00,00,00,92,
74597064,000002B5,false,Rx,0,8,C0,00,32,00,00,00,00,F2,
74697058,000002B5,false,Rx,0,8,D0,00,32,00,00,00,00,E2,
74697299,000002B6,false,Rx,0,8,D2,00,7D,02,00,00,7E,D3,
74797063,000002B5,false,Rx,0,8,E0,00,32,00,00,00,00,D2,
74897067,000002B5,false,Rx,0,8,F0,00,32,00,00,00,00,C2,
74997064,000002B5,false,Rx,0,8,00,00,32,00,00,00,00,32,
74997304,000002B6,false,Rx,0,8,02,00,7D,02,00,00,7E,03,
75097066,000002B5,false,Rx,0,8,10,00,32,00,00,00,00,22,
75097307,000002B6,false,Rx,0,8,12,00,7D,02,00,00,7E,13,
75197060,000002B5,false,Rx,0,8,20,00,32,00,00,00,00,12,
75197300,000002B6,false,Rx,0,8,22,00,7D,02,00,00,7E,23,
75297054,000002B5,false,Rx,0,8,30,00,32,00,00,00,00,02,
75297224,00000293,false,Tx,0,8,18,5A,38,5C,7F,8E,13,F4,
75297294,000002B6,false,Rx,0,8,32,00,7D,02,00,00,7E,33,
75317438,00000295,false,Tx,0,8,D9,75,5D,06,CC,F2,38,11,
75338987,00000297,false,Tx,0,8,90,88,33,E7,0E,36,8E,D8,
75356630,00000299,false,Tx,0,8,98,50,3F,EF,12,1D,19,7A,
75377536,0000029B,false,Tx,0,8,30,3A,6D,A3,CB,D9,BC,A7,
75387491,0000029C,false,Tx,0,8,62,C3,02,11,85,88,99,D2,
75397057,000002B5,false,Rx,0,8,40,00,32,00,00,00,00,72,
75397297,000002B6,false,Rx,0,8,42,00,7D,02,00,00,7E,43,
75477105,000002A0,false,Tx,0,8,A8,9A,14,DB,45,43,88,B5,
75496985,000002A2,false,Tx,0,8,67,53,02,A8,7F,B9,42,C9,
75497041,000002B5,false,Rx,0,8,50,00,32,00,00,00,00,62,
75576855,000002B6,false,Rx,0,8,92,00,7D,02,00,00,7E,93,
75597043,000002B5,false,Rx,0,8,60,00,32,00,00,00,00,52,
75597274,000002B6,false,Rx,0,8,60,00,7D,02,00,00,7E,61,
75697042,000002B5,false,Rx,0,8,70,00,32,00,00,00,00,42,
75697282,000002B6,false,Rx,0,8,70,00,7D,02,00,00,7E,71,
75727139,000002B5,false,Tx,0,8,64,DB,64,33,2C,A7,DB,5A,
75797042,000002B5,false,Rx,0,8,80,00,32,00,00,00,00,B2,
75797282,000002B6,false,Rx,0,8,80,00,7D,02,00,00,7E,81,
75876849,000002B6,false,Rx,0,8,C2,00,7D,02,00,00,7E,C3,
75897035,000002B5,false,Rx,0,8,90,00,32,00,00,00,00,A2,
75997031,000002B5,false,Rx,0,8,A0,00,32,00,00,00,00,92,
75997271,000002B6,false,Rx,0,8,A0,00,7D,02,00,00,7E,A1,
76097052,000002B5,false,Rx,0,8,B0,00,32,00,00,00,00,82,
76197029,000002B5,false,Rx,0,8,C0,00,32,00,00,00,00,F2,
76197269,000002B6,false,Rx,0,8,C0,00,7D,02,00,00,7E,C1,
76276887,0000022A,false,Tx,0,8,35,34,BF,81,3C,10,F9,B3,
76296784,0000022C,false,Tx,0,8,B9,43,78,C6,B8,D5,FA,F1,
76297043,000002B5,false,Rx,0,8,D0,00,32,00,00,00,00,E2,
76297272,000002B6,false,Rx,0,8,D0,00,7D,02,00,00,7E,D1,
76397037,000002B5,false,Rx,0,8,E0,00,32,00,00,00,00,D2,
76397277,000002B6,false,Rx,0,8,E0,00,7D,02,00,00,7E,E1,
76497024,000002B5,false,Rx,0,8,F0,00,32,00,00,00,00,C2,
76597028,000002B5,false,Rx,0,8,00,00,32,00,00,00,00,32,
76697021,000002B5,false,Rx,0,8,10,00,32,00,00,00,00,22,
76697261,000002B6,false,Rx,0,8,12,00,7D,02,00,00,7E,13,
76797026,000002B5,false,Rx,0,8,20,00,32,00,00,00,00,12,
76797266,000002B6,false,Rx,0,8,22,00,7D,02,00,00,7E,23,
76897019,000002B5,false,Rx,0,8,30,00,32,00,00,00,00,02,
76997026,000002B5,false,Rx,0,8,40,00,32,00,00,00,00,72,
77097021,000002B5,false,Rx,0,8,50,00,32,00,00,00,00,62,
77197007,000002B5,false,Rx,0,8,60,00,32,00,00,00,00,52,
77197247,000002B6,false,Rx,0,8,62,00,7D,02,00,00,7E,63,
77297004,000002B5,false,Rx,0,8,70,00,32,00,00,00,00,42,
77397007,000002B5,false,Rx,0,8,80,00,32,00,00,00,00,B2,
77397248,000002B6,false,Rx,0,8,82,00,7D,02,00,00,7E,83,
77497011,000002B5,false,Rx,0,8,90,00,32,00,00,00,00,A2,
77509030,000002B6,false,Rx,0,8,82,00,7D,02,00,00,7E,83,
77586876,00000293,false,Tx,0,8,9A,DC,9A,1B,F6,7B,04,13,
77597013,000002B5,false,Rx,0,8,A0,00,32,00,00,00,00,92,
77597254,000002B6,false,Rx,0,8,A2,00,7D,02,00,00,7E,A3,
77606894,00000295,false,Tx,0,8,CD,65,C4,99,E1,3B,43,67,
77627429,00000297,false,Tx,0,8,0C,63,CE,51,2B,A7,74,22,
77647689,00000299,false,Tx,0,8,60,15,3D,17,46,87,2F,20,
77697006,000002B5,false,Rx,0,8,B0,00,32,00,00,00,00,82,
77697246,000002B6,false,Rx,0,8,B2,00,7D,02,00,00,7E,B3,
77713054,0000029B,false,Tx,0,8,E2,F7,05,A9,DD,E7,BC,8E,
77716936,0000029C,false,Tx,0,8,49,AA,E7,EA,9D,1D,3D,AE,
77757499,000002A0,false,Tx,0,8,65,5E,C9,D2,88,79,D6,47,
77777234,000002A2,false,Tx,0,8,44,FA,6E,D4,3B,BF,12,C2,
77797006,000002B5,false,Rx,0,8,C0,00,32,00,00,00,00,F2,
77797246,000002B6,false,Rx,0,8,C0,00,7D,02,00,00,7E,C1,
77896992,000002B5,false,Rx,0,8,D0,00,32,00,00,00,00,E2,
77897232,000002B6,false,Rx,0,8,D0,00,7D,02,00,00,7E,D1,
77996993,000002B5,false,Rx,0,8,E0,00,32,00,00,00,00,D2,
78007762,000002B5,false,Tx,0,8,10,D6,2F,E5,D6,D0,19,79,
78096986,000002B5,false,Rx,0,8,F0,00,32,00,00,00,00,C2,
78097226,000002B6,false,Rx,0,8,F0,00,7D,02,00,00,7E,F1,
78196991,000002B5,false,Rx,0,8,00,00,32,00,00,00,00,32,
78197240,000002B6,false,Rx,0,8,00,00,7D,02,00,00,7E,01,
78296982,000002B5,false,Rx,0,8,10,00,32,00,00,00,00,22,
78396998,000002B5,false,Rx,0,8,20,00,32,00,00,00,00,12,
78397238,000002B6,false,Rx,0,8,20,00,7D,02,00,00,7E,21,
78496990,000002B5,false,Rx,0,8,30,00,32,00,00,00,00,02,
78516566,0000022A,false,Tx,0,8,9F,90,A4,4C,30,1E,C4,DE,
78536796,0000022C,false,Tx,0,8,2E,2B,7A,40,C4,CF,4C,A2,
78596975,000002B5,false,Rx,0,8,40,00,32,00,00,00,00,72,
78696971,000002B5,false,Rx,0,8,50,00,32,00,00,00,00,62,
78697210,000002B6,false,Rx,0,8,50,00,7D,02,00,00,7E,51,
78796973,000002B5,false,Rx,0,8,60,00,32,00,00,00,00,52,
78797211,000002B6,false,Rx,0,8,62,00,7D,02,00,00,7E,63,
78896968,000002B5,false,Rx,0,8,70,00,32,00,00,00,00,42,
78996983,000002B5,false,Rx,0,8,80,00,32,00,00,00,00,B2,
78997223,000002B6,false,Rx,0,8,82,00,7D,02,00,00,7E,83,
79096979,000002B5,false,Rx,0,8,90,00,32,00,00,00,00,A2,
79196971,000002B5,false,Rx,0,8,A0,00,32,00,00,00,00,92,
79197209,000002B6,false,Rx,0,8,A2,00,7D,02,00,00,7E,A3,
79296971,000002B5,false,Rx,0,8,B0,00,32,00,00,00,00,82,
79297209,000002B6,false,Rx,0,8,B2,00,7D,02,00,00,7E,B3,
79396964,000002B5,false,Rx,0,8,C0,00,32,00,00,00,00,F2,
79496956,000002B5,false,Rx,0,8,D0,00,32,00,00,00,00,E2,
79497196,000002B6,false,Rx,0,8,D2,00,7D,02,00,00,7E,D3,
79596971,000002B5,false,Rx,0,8,E0,00,32,00,00,00,00,D2,
79597210,000002B6,false,Rx,0,8,E2,00,7D,02,00,00,7E,E3,
79696956,000002B5,false,Rx,0,8,F0,00,32,00,00,00,00,C2,
79697195,000002B6,false,Rx,0,8,F2,00,7D,02,00,00,7E,F3,
79796954,000002B5,false,Rx,0,8,00,00,32,00,00,00,00,32,
79896954,000002B5,false,Rx,0,8,10,00,32,00,00,00,00,22,
79897193,000002B6,false,Rx,0,8,12,00,7D,02,00,00,7E,13,
79996953,000002B5,false,Rx,0,8,20,00,32,00,00,00,00,12,
80096958,000002B5,false,Rx,0,8,30,00,32,00,00,00,00,02,
80097858,00000293,false,Tx,0,8,60,97,7E,E9,5F,48,E0,70,
80116819,00000295,false,Tx,0,8,31,44,F3,2F,C2,29,3C,4F,
80137530,00000297,false,Tx,0,8,56,06,57,F4,D1,44,7E,C3,
80157198,00000299,false,Tx,0,8,A7,9D,14,10,B3,52,06,B9,
80196949,000002B5,false,Rx,0,8,40,00,32,00,00,00,00,72,
80197178,000002B6,false,Rx,0,8,42,00,7D,02,00,00,7E,43,
80228257,0000029B,false,Tx,0,8,22,15,50,B5,4B,9D,92,40,
80244324,0000029C,false,Tx,0,8,39,A4,2F,0B,D2,01,BE,77,
80276722,000002A0,false,Tx,0,8,4D,BD,01,98,C0,6B,01,25,
80296936,000002B5,false,Rx,0,8,50,00,32,00,00,00,00,62,
80297175,000002B6,false,Rx,0,8,50,00,7D,02,00,00,7E,51,
80297212,000002A2,false,Tx,0,8,50,3A,B0,DD,5F,B9,D2,72,
80396951,000002B5,false,Rx,0,8,60,00,32,00,00,00,00,52,
80397191,000002B6,false,Rx,0,8,60,00,7D,02,00,00,7E,61,
80496950,000002B5,false,Rx,0,8,70,00,32,00,00,00,00,42,
80497189,000002B6,false,Rx,0,8,70,00,7D,02,00,00,7E,71,
80526636,000002B5,false,Tx,0,8,1F,E0,19,A2,AF,5F,4B,8B,
80596944,000002B5,false,Rx,0,8,80,00,32,00,00,00,00,B2,
80597193,000002B6,false,Rx,0,8,80,00,7D,02,00,00,7E,81,
80696930,000002B5,false,Rx,0,8,90,00,32,00,00,00,00,A2,
80697168,000002B6,false,Rx,0,8,90,00,7D,02,00,00,7E,91,
80796943,000002B5,false,Rx,0,8,A0,00,32,00,00,00,00,92,
80896948,000002B5,false,Rx,0,8,B0,00,32,00,00,00,00,82,
80897188,000002B6,false,Rx,0,8,B0,00,7D,02,00,00,7E,B1,
80996931,000002B5,false,Rx,0,8,C0,00,32,00,00,00,00,F2,
80997171,000002B6,false,Rx,0,8,C0,00,7D,02,00,00,7E,C1,
81037984,0000022A,false,Tx,0,8,52,7E,B6,86,EF,8D,75,88,
81057635,0000022C,false,Tx,0,8,AC,FB,C0,A4,D3,53,AE,BE,
81096923,000002B5,false,Rx,0,8,D0,00,32,00,00,00,00,E2,
81097161,000002B6,false,Rx,0,8,D0,00,7D,02,00,00,7E,D1,
81196938,000002B5,false,Rx,0,8,E0,00,32,00,00,00,00,D2,
81197176,000002B6,false,Rx,0,8,E0,00,7D,02,00,00,7E,E1,
81296925,000002B5,false,Rx,0,8,F0,00,32,00,00,00,00,C2,
81297163,000002B6,false,Rx,0,8,F2,00,7D,02,00,00,7E,F3,
81396931,000002B5,false,Rx,0,8,00,00,32,00,00,00,00,32,
81496926,000002B5,false,Rx,0,8,10,00,32,00,00,00,00,22,
81497166,000002B6,false,Rx,0,8,12,00,7D,02,00,00,7E,13,
81576726,000002B6,false,Rx,0,8,50,00,7D,02,00,00,7E,51,
81596931,000002B5,false,Rx,0,8,20,00,32,00,00,00,00,12,
81696911,000002B5,false,Rx,0,8,30,00,32,00,00,00,00,02,
81697159,000002B6,false,Rx,0,8,32,00,7D,02,00,00,7E,33,
81796925,000002B5,false,Rx,0,8,40,00,32,00,00,00,00,72,
81797164,000002B6,false,Rx,0,8,42,00,7D,02,00,00,7E,43,
81896906,000002B5,false,Rx,0,8,50,00,32,00,00,00,00,62,
81996911,000002B5,false,Rx,0,8,60,00,32,00,00,00,00,52,
81997141,000002B6,false,Rx,0,8,62,00,7D,02,00,00,7E,63,
82096903,000002B5,false,Rx,0,8,70,00,32,00,00,00,00,42,
82097141,000002B6,false,Rx,0,8,72,00,7D,02,00,00,7E,73,
82196898,000002B5,false,Rx,0,8,80,00,32,00,00,00,00,B2,
82197146,000002B6,false,Rx,0,8,82,00,7D,02,00,00,7E,83,
82296896,000002B5,false,Rx,0,8,90,00,32,00,00,00,00,A2,
82297145,000002B6,false,Rx,0,8,92,00,7D,02,00,00,7E,93,
82377405,00000293,false,Tx,0,8,2A,3B,93,1D,50,DE,BE,63,
82396925,000002B5,false,Rx,0,8,A0,00,32,00,00,00,00,92,
82399274,00000295,false,Tx,0,8,3B,09,4A,BD,9A,92,A7,87,
82469092,00000297,false,Tx,0,8,9F,DA,80,C4,FA,82,93,7B,
82486924,00000299,false,Tx,0,8,AD,7B,F4,0D,C6,0B,13,20,
82496903,000002B5,false,Rx,0,8,B0,00,32,00,00,00,00,82,
82507447,0000029B,false,Tx,0,8,36,70,82,C1,93,E0,FE,6D,
82518033,0000029C,false,Tx,0,8,9C,A1,EE,5F,F0,31,9A,FA,
82556747,000002A0,false,Tx,0,8,1D,3D,F8,2F,89,D6,E2,AA,
82578110,000002A2,false,Tx,0,8,BF,9F,B1,F6,92,85,6C,57,
82596896,000002B5,false,Rx,0,8,C0,00,32,00,00,00,00,F2,
82696891,000002B5,false,Rx,0,8,D0,00,32,00,00,00,00,E2,
82697130,000002B6,false,Rx,0,8,D0,00,7D,02,00,00,7E,D1,
82776709,000002B6,false,Rx,0,8,12,00,7D,02,00,00,7E,13,
82796893,000002B5,false,Rx,0,8,E0,00,32,00,00,00,00,D2,
82797132,000002B6,false,Rx,0,8,E0,00,7D,02,00,00,7E,E1,
82838952,000002B5,false,Tx,0,8,1C,6E,AD,0B,A4,5F,3D,A9,
82896903,000002B5,false,Rx,0,8,F0,00,32,00,00,00,00,C2,
